#  HZ   S   DB   R     50.00 
! Rohde & Schwarz ZVA40 2Ports - Version 4.11 - 1145.1110k40 SN: 100216
! Date: 2025-04-29 18:22:17
! Measurements: S11 S21 S12 S22 
! 
 7.500000000000000E9    -1.475695549262936E1  -1.761319011314893E2  -4.636084140568575E1  -8.917583573059785E1  -4.637780911835711E1  -8.832459716121987E1  -1.580158319791982E1   1.772978173764568E2  
 7.500800000000000E9    -1.474867345602545E1  -1.766507156612580E2  -4.864570004998099E1  -1.103746432369336E2  -4.863443268584157E1  -1.102192469556309E2  -1.582273746073344E1   1.765809768625361E2  
 7.501600000000000E9    -1.477615450865500E1  -1.769829565352990E2  -5.126677633206433E1  -1.410445464975395E2  -5.128001531252699E1  -1.405848532680537E2  -1.587061772394110E1   1.759624069436725E2  
 7.502400000000000E9    -1.480909048363820E1  -1.772944879399146E2  -5.260152197629537E1   1.760452755195206E2  -5.250967301191982E1   1.769872485523520E2  -1.591479041684501E1   1.756402797671267E2  
 7.503200000000000E9    -1.485246763212940E1  -1.776375323773218E2  -5.109303191318196E1   1.339531650114122E2  -5.109718108008072E1   1.344788310402117E2  -1.598865979415301E1   1.753140104634270E2  
 7.504000000000000E9    -1.490788415991998E1  -1.779865266372935E2  -4.842710536842898E1   1.044869776196188E2  -4.846513957601570E1   1.046604171167288E2  -1.607508814334058E1   1.750422211743567E2  
 7.504800000000000E9    -1.500659921942791E1  -1.779735459393485E2  -4.617321339724957E1   8.271177821207844E1  -4.605157654799604E1   8.358348684816697E1  -1.614840554627667E1   1.749312659900139E2  
 7.505600000000000E9    -1.508604883385535E1  -1.779682471967581E2  -4.425381369616464E1   6.582288937924001E1  -4.416871631180035E1   6.599311644403191E1  -1.622554792246478E1   1.750445638767887E2  
 7.506400000000000E9    -1.515930078302401E1  -1.776078880173059E2  -4.287186719279487E1   5.035997612775316E1  -4.283436118950834E1   5.096948435105513E1  -1.628553259596891E1   1.752429908715653E2  
 7.507200000000000E9    -1.521763625693149E1  -1.771112407970728E2  -4.185134390011615E1   3.577313371934667E1  -4.184400446229653E1   3.632047675706893E1  -1.634877125438360E1   1.756914696554769E2  
 7.508000000000000E9    -1.522099891943964E1  -1.764968694690981E2  -4.122788172137757E1   2.240598870804609E1  -4.119922633397105E1   2.302163389829649E1  -1.636781497932363E1   1.760964557604563E2  
 7.508800000000000E9    -1.518569233010340E1  -1.759752020120687E2  -4.090567459967133E1   9.703801829428258  -4.087160989698710E1   1.026493289465873E1  -1.635683699987742E1   1.765658547692526E2  
 7.509600000000000E9    -1.512312957397230E1  -1.755246740557312E2  -4.087996700041233E1  -2.674656477898830  -4.082696489791497E1  -2.155765816368043  -1.632019841185014E1   1.768831581914433E2  
 7.510400000000000E9    -1.502689213297683E1  -1.754691711845959E2  -4.109334939163288E1  -1.413765356322034E1  -4.100290008472998E1  -1.379807598525508E1  -1.628706288974454E1   1.770663867833837E2  
 7.511200000000000E9    -1.493662631423860E1  -1.755404991853744E2  -4.153862933051142E1  -2.497297575646153E1  -4.151925122884644E1  -2.433257458484083E1  -1.622041349940132E1   1.772566131578132E2  
 7.512000000000000E9    -1.488062579871763E1  -1.759392261246277E2  -4.233499995830108E1  -3.456750939189114E1  -4.225958242002745E1  -3.436947089628818E1  -1.614758898123697E1   1.772199948166091E2  
 7.512800000000000E9    -1.483625875134901E1  -1.763455841303558E2  -4.336972810058302E1  -4.259352266304590E1  -4.332992188988903E1  -4.207903218872762E1  -1.608535716724716E1   1.769342155639507E2  
 7.513600000000000E9    -1.481224893104482E1  -1.767913074267006E2  -4.463416431138512E1  -4.797950705306936E1  -4.460187573396193E1  -4.762396143568819E1  -1.605021544772746E1   1.764338995641204E2  
 7.514400000000000E9    -1.481763692014199E1  -1.773392697558762E2  -4.591002073179103E1  -5.089850307843406E1  -4.585350089191444E1  -5.070822538909543E1  -1.604053984067873E1   1.758026827890394E2  
 7.515200000000000E9    -1.484838928771707E1  -1.778521725291198E2  -4.711229440403199E1  -5.107721755737182E1  -4.708788108780282E1  -5.031101209000875E1  -1.606265301710274E1   1.753011554225948E2  
 7.516000000000000E9    -1.488262856397093E1  -1.781849318351212E2  -4.814379261137007E1  -4.860202790582864E1  -4.806283352567250E1  -4.830687876664862E1  -1.611411266267442E1   1.749372149559640E2  
 7.516800000000000E9    -1.496325080191042E1  -1.785303981854430E2  -4.877837896018737E1  -4.416519777388242E1  -4.873587924009910E1  -4.382195127931683E1  -1.617537630238444E1   1.746843319679318E2  
 7.517600000000000E9    -1.502489432412547E1  -1.785894441942367E2  -4.884058562565780E1  -3.861580219293953E1  -4.888666807643647E1  -3.859381401355654E1  -1.625815113513828E1   1.746253776168207E2  
 7.518400000000000E9    -1.509258615363552E1  -1.784858972148867E2  -4.836869710381298E1  -3.508425660202698E1  -4.826657457991603E1  -3.457213688595351E1  -1.631982570631375E1   1.746418917327503E2  
 7.519200000000000E9    -1.512769114956560E1  -1.782857093164888E2  -4.750257520873665E1  -3.430302873644494E1  -4.742912085930679E1  -3.451252184212319E1  -1.638579448181108E1   1.748713084927835E2  
 7.520000000000000E9    -1.513760279673657E1  -1.780440614193294E2  -4.666472444242424E1  -3.828069652273307E1  -4.661077505496758E1  -3.833902814268918E1  -1.642293106944692E1   1.752678017419966E2  
 7.520800000000000E9    -1.514018272594347E1  -1.778660816792845E2  -4.610322433364156E1  -4.473432511142072E1  -4.607395855964290E1  -4.471414641958376E1  -1.642987366497627E1   1.756542117305506E2  
 7.521600000000000E9    -1.511292442027695E1  -1.777795569983004E2  -4.585631044603029E1  -5.295886996911069E1  -4.579395845159005E1  -5.264621757457795E1  -1.640389289061205E1   1.760846617910716E2  
 7.522400000000000E9    -1.508638410584163E1  -1.778402624567887E2  -4.602614023815170E1  -6.213174679112012E1  -4.598882049156558E1  -6.258060679795584E1  -1.634988691258986E1   1.762906010862688E2  
 7.523200000000000E9    -1.508329362971896E1  -1.780421386920309E2  -4.651015621953621E1  -7.258044520082530E1  -4.654218539646230E1  -7.280600676791603E1  -1.628702924391248E1   1.764389938229795E2  
 7.524000000000000E9    -1.506582128227926E1  -1.783606070745836E2  -4.765449042988104E1  -8.386792301915124E1  -4.750294952880391E1  -8.383557245907497E1  -1.621894992455450E1   1.763093388401472E2  
 7.524800000000000E9    -1.507700294964308E1  -1.787282243885108E2  -4.920254377904148E1  -9.507728404858314E1  -4.920073817489818E1  -9.561304097029729E1  -1.616940410676721E1   1.759264223307418E2  
 7.525600000000000E9    -1.510474971109064E1  -1.790280821426138E2  -5.177553855652629E1  -1.092657270121348E2  -5.168815319942145E1  -1.083230491741525E2  -1.615604830621959E1   1.755336998325452E2  
 7.526400000000000E9    -1.516069698516577E1  -1.792973037927280E2  -5.604731977621994E1  -1.266406963511591E2  -5.601920692213820E1  -1.256897226841264E2  -1.616477798150969E1   1.750843973022477E2  
 7.527200000000000E9    -1.524846115473820E1  -1.793955565905556E2  -6.534381186928357E1  -1.721886092401445E2  -6.546997085017758E1  -1.713516626521499E2  -1.618450105862606E1   1.747351366329983E2  
 7.528000000000000E9    -1.533290169431934E1  -1.792433161617423E2  -6.031935373084169E1   7.146657032628258E1  -6.034864158169191E1   6.940766508921392E1  -1.620846231032077E1   1.743597064285428E2  
 7.528800000000000E9    -1.538700430068281E1  -1.789696206300250E2  -5.353569407449124E1   4.491945677222274E1  -5.347238286647166E1   4.480339403759135E1  -1.624970941010978E1   1.743044713184575E2  
 7.529600000000000E9    -1.543600801851724E1  -1.785956490583905E2  -4.965701090950351E1   2.940599796110813E1  -4.963097425605025E1   2.960157005759822E1  -1.629502601686250E1   1.741461455818717E2  
 7.530400000000000E9    -1.545075633365701E1  -1.780375721161539E2  -4.704892040424009E1   1.643100275037221E1  -4.707005246078447E1   1.610460313674803E1  -1.633160847119094E1   1.741355944461552E2  
 7.531200000000000E9    -1.542112836630400E1  -1.775711804578743E2  -4.521979723192055E1   3.633929903701267  -4.523690256416252E1   3.749761989500813  -1.637648109556383E1   1.741831195816489E2  
 7.532000000000000E9    -1.537701596223295E1  -1.772531332864807E2  -4.386605552742641E1  -9.189803960702724  -4.385139205774883E1  -8.837565945397552  -1.637584289761104E1   1.744304339635121E2  
 7.532800000000000E9    -1.532657397653308E1  -1.768626294987180E2  -4.295180865196732E1  -2.165612944699153E1  -4.295667832877484E1  -2.170478493585255E1  -1.637646348618999E1   1.746394932194930E2  
 7.533600000000000E9    -1.526677269740032E1  -1.768260126593502E2  -4.234347477919296E1  -3.462837705306519E1  -4.235628068037884E1  -3.462025825263824E1  -1.634046702347482E1   1.747986446584273E2  
 7.534400000000000E9    -1.518860757450013E1  -1.768715415447867E2  -4.213939613867547E1  -4.715762999868090E1  -4.211497056980899E1  -4.718133658956928E1  -1.629463353319589E1   1.748083391809206E2  
 7.535200000000000E9    -1.512902509081158E1  -1.769829471104454E2  -4.216247688358153E1  -5.985903928759009E1  -4.212749385595711E1  -5.972364642403722E1  -1.626838272357643E1   1.747218765560396E2  
 7.536000000000000E9    -1.506339995082104E1  -1.772886016917096E2  -4.249917476168137E1  -7.269758552156992E1  -4.249540344421781E1  -7.239349570941675E1  -1.624164522794388E1   1.743583065093816E2  
 7.536800000000000E9    -1.500097709570432E1  -1.779027816537353E2  -4.312218359243398E1  -8.554039713659563E1  -4.315689664280357E1  -8.544099295898351E1  -1.620280788955926E1   1.739490851336657E2  
 7.537600000000000E9    -1.498383320665708E1  -1.783444306041972E2  -4.410543482206332E1  -9.909963482556715E1  -4.407971376615613E1  -9.866484868975661E1  -1.621516569055627E1   1.735722963809613E2  
 7.538400000000000E9    -1.498113768173152E1  -1.789622019660906E2  -4.558696813405611E1  -1.128834517823660E2  -4.566997579511904E1  -1.125464126364523E2  -1.622570688139823E1   1.730072172729197E2  
 7.539200000000000E9    -1.499508625834851E1  -1.794819018415581E2  -4.777739655518649E1  -1.279523533964710E2  -4.777490575690678E1  -1.278708426563836E2  -1.627178379249090E1   1.727592756849725E2  
 7.540000000000000E9    -1.502813002787929E1   1.799603477503363E2  -5.100775337456942E1  -1.467685413179282E2  -5.103911971203336E1  -1.463247421711735E2  -1.632943933166186E1   1.725926219084772E2  
 7.540800000000000E9    -1.509794151887559E1   1.795184015850351E2  -5.646709301915790E1  -1.758634473655802E2  -5.660474850607729E1  -1.756903427386407E2  -1.637339655235145E1   1.723632610405781E2  
 7.541600000000000E9    -1.517805951127567E1   1.792169886355211E2  -6.115845272522805E1   9.578959626814819E1  -6.094922742270105E1   9.563138733536846E1  -1.645365913463390E1   1.723403036306018E2  
 7.542400000000000E9    -1.527901256567545E1   1.790879590317597E2  -5.428444969107729E1   3.702214856254832E1  -5.416573058499124E1   3.620349235191156E1  -1.649371375277094E1   1.725399788545022E2  
 7.543200000000000E9    -1.535386774356162E1   1.791559476065433E2  -4.971577897208867E1   1.324148938844855E1  -4.973052124243799E1   1.352549367626843E1  -1.651911563407844E1   1.727681310028428E2  
 7.544000000000000E9    -1.542696702100827E1   1.793764637041621E2  -4.701734863950433E1  -3.826513739777205  -4.707395050799702E1  -3.731607443788835  -1.655269997026991E1   1.729705331631762E2  
 7.544800000000000E9    -1.546186275122304E1   1.796908339555252E2  -4.516446299843140E1  -1.849323697356332E1  -4.515936452293632E1  -1.805335643437600E1  -1.653439045476494E1   1.733157781429127E2  
 7.545600000000000E9    -1.549276457819031E1  -1.799525984970443E2  -4.398383635445361E1  -3.188035544172561E1  -4.397218252846712E1  -3.154226593295842E1  -1.650746591089640E1   1.734993188840969E2  
 7.546400000000000E9    -1.548161343586284E1  -1.796864179116161E2  -4.307721753260616E1  -4.490171536099603E1  -4.313449315429626E1  -4.457143808556076E1  -1.643685331394405E1   1.735517476832045E2  
 7.547200000000000E9    -1.546979763370558E1  -1.795414781837672E2  -4.260311404812455E1  -5.739733232052892E1  -4.262257386817338E1  -5.686995124543678E1  -1.637452269928647E1   1.733917907189409E2  
 7.548000000000000E9    -1.542835460463025E1  -1.793616899402444E2  -4.234694188278159E1  -6.986660000298630E1  -4.239816090161911E1  -6.938816824888551E1  -1.630837949521377E1   1.730763881024594E2  
 7.548800000000000E9    -1.539754787515809E1  -1.793177810979777E2  -4.240701126099329E1  -8.275627297436276E1  -4.239695387468971E1  -8.238917634649152E1  -1.628483188964321E1   1.726346225705815E2  
 7.549600000000000E9    -1.536539653345973E1  -1.794591100605951E2  -4.286865705932182E1  -9.587415367507455E1  -4.285673402683905E1  -9.538998362760690E1  -1.627716454230648E1   1.721519568469686E2  
 7.550400000000000E9    -1.534933916574001E1  -1.799351978547977E2  -4.367804710415672E1  -1.091686620719757E2  -4.368071835845879E1  -1.089075080819034E2  -1.628386722000591E1   1.714922961564758E2  
 7.551200000000000E9    -1.535559381593553E1   1.796396165084852E2  -4.502000719003630E1  -1.219511367986047E2  -4.491110626017904E1  -1.215962162243801E2  -1.632023411774184E1   1.710895289388548E2  
 7.552000000000000E9    -1.541723728823930E1   1.793025494960030E2  -4.682113927820637E1  -1.346694661270653E2  -4.686024380176797E1  -1.342720266095857E2  -1.635724606450595E1   1.706551660050484E2  
 7.552800000000000E9    -1.549046605271900E1   1.791203849114046E2  -4.949300576521348E1  -1.464944722952837E2  -4.951806849760383E1  -1.459006237252378E2  -1.642229852822923E1   1.702248472207765E2  
 7.553600000000000E9    -1.555750235092881E1   1.791135538573548E2  -5.342208606908376E1  -1.569880351015619E2  -5.350859021996932E1  -1.563600538243737E2  -1.650141174421711E1   1.697760995674123E2  
 7.554400000000000E9    -1.560193690323651E1   1.794781018046290E2  -6.055982002179788E1  -1.649243259636955E2  -6.058197963148715E1  -1.642650295377482E2  -1.661695519919260E1   1.697006847372590E2  
 7.555200000000000E9    -1.564479335039278E1   1.798134659764483E2  -7.068121658109322E1  -1.485246397965535E1  -7.064371586810319E1  -1.282375945974654E1  -1.669869823536426E1   1.697658447780059E2  
 7.556000000000000E9    -1.566608566701213E1  -1.797377366914908E2  -5.698007578248613E1  -1.311322124555433E1  -5.706113495731558E1  -1.329553589508085E1  -1.679682745217288E1   1.701427190746399E2  
 7.556800000000000E9    -1.566328987979164E1  -1.793739421860042E2  -5.195799707374807E1  -2.231943489900077E1  -5.204066260934781E1  -2.277576031243040E1  -1.684928299182848E1   1.706063154737149E2  
 7.557600000000000E9    -1.563184119035213E1  -1.790364031886014E2  -4.910401401803515E1  -3.336191296385757E1  -4.903682145349341E1  -3.350546937867750E1  -1.689366055748250E1   1.712835579365988E2  
 7.558400000000000E9    -1.559114876277402E1  -1.786733740164339E2  -4.716443866515742E1  -4.456515675240508E1  -4.715699636204211E1  -4.448999543100592E1  -1.685389350432280E1   1.717466033741294E2  
 7.559200000000000E9    -1.552304514506262E1  -1.785501364255207E2  -4.581104702037759E1  -5.591911156221531E1  -4.581636764122524E1  -5.556475061697181E1  -1.680199525667947E1   1.720756942858460E2  
 7.560000000000000E9    -1.544429847680129E1  -1.785947121020769E2  -4.501803884029539E1  -6.750166171357860E1  -4.501776202132834E1  -6.742743277136613E1  -1.675666738588705E1   1.724123747796173E2  
 7.560800000000000E9    -1.535357318671760E1  -1.788236645616579E2  -4.467867077697436E1  -7.897567189264609E1  -4.466972444918301E1  -7.891313864048661E1  -1.667530907744888E1   1.724523852368277E2  
 7.561600000000000E9    -1.529317451884571E1  -1.792124289413806E2  -4.469501888568743E1  -8.996602138778577E1  -4.467853543997283E1  -8.980043557129604E1  -1.659807008943779E1   1.723380267720700E2  
 7.562400000000000E9    -1.525046450713331E1  -1.797599093707322E2  -4.511189738342229E1  -1.001259826205264E2  -4.508732153772679E1  -9.963113753417771E1  -1.657980123121809E1   1.719104645636042E2  
 7.563200000000000E9    -1.525406607306784E1   1.796080854964808E2  -4.581110474108110E1  -1.092550150233421E2  -4.582062182250821E1  -1.087455232325959E2  -1.651731117388377E1   1.714929817649166E2  
 7.564000000000000E9    -1.527780596976393E1   1.790928665842454E2  -4.692289847925689E1  -1.168715787524717E2  -4.684423686494201E1  -1.170148291952992E2  -1.650567056843706E1   1.710327691571327E2  
 7.564800000000000E9    -1.533061927078313E1   1.787174806081393E2  -4.830201289918189E1  -1.227698317401104E2  -4.825274554693296E1  -1.224217399029901E2  -1.650686893235539E1   1.707001158791972E2  
 7.565600000000000E9    -1.539281741406227E1   1.784452035485345E2  -5.019997022551498E1  -1.254687037730053E2  -5.017534378406324E1  -1.251058929859860E2  -1.652807678702555E1   1.703378062248490E2  
 7.566400000000000E9    -1.547477701244131E1   1.781530907939699E2  -5.247720258960847E1  -1.217608047344492E2  -5.259535364213817E1  -1.215556983247543E2  -1.654772309337323E1   1.700250308182030E2  
 7.567200000000000E9    -1.551623867803383E1   1.781259203253243E2  -5.439504438374948E1  -1.042421781321544E2  -5.443821714811284E1  -1.035090434987884E2  -1.660097168810297E1   1.697990181575269E2  
 7.568000000000000E9    -1.556785446659704E1   1.783554371008004E2  -5.336779729056706E1  -8.103173606522924E1  -5.336279152906161E1  -8.055536075372159E1  -1.664305773592589E1   1.696441180872946E2  
 7.568800000000000E9    -1.557865179927109E1   1.785636353405189E2  -5.068429400155848E1  -7.241996348722888E1  -5.068673105856538E1  -7.170691406376686E1  -1.667991428337781E1   1.696078803903280E2  
 7.569600000000000E9    -1.559300752158172E1   1.787247440899729E2  -4.825880897209244E1  -7.429508460007294E1  -4.829176772596473E1  -7.433776341366622E1  -1.672155911319541E1   1.696090426246812E2  
 7.570400000000000E9    -1.557452903443812E1   1.787143926655153E2  -4.648553746550928E1  -8.060990186558276E1  -4.649008437830788E1  -8.032151298663646E1  -1.675091574356186E1   1.698574707719141E2  
 7.571200000000000E9    -1.556657271384054E1   1.788026432815034E2  -4.518029501944494E1  -8.952267246099487E1  -4.523882962790957E1  -8.944897754131007E1  -1.673837434104453E1   1.700915742983435E2  
 7.572000000000000E9    -1.555297976928737E1   1.786571349941135E2  -4.427727043919845E1  -9.955122809184461E1  -4.429412293476185E1  -9.961677632633628E1  -1.669534308184346E1   1.700836150095838E2  
 7.572800000000000E9    -1.556054175696143E1   1.785230764029215E2  -4.374720909452142E1  -1.110245943347703E2  -4.375392107312363E1  -1.107573837339699E2  -1.666070455093431E1   1.700750308922198E2  
 7.573600000000000E9    -1.555988010421889E1   1.783607355227811E2  -4.353087690710630E1  -1.232133932997826E2  -4.355982919927936E1  -1.228778152612501E2  -1.661664514325219E1   1.698192657725655E2  
 7.574400000000000E9    -1.555375770135392E1   1.781267751810243E2  -4.371318030559489E1  -1.357877097251817E2  -4.371396789042963E1  -1.357170743012364E2  -1.660788352148047E1   1.694642318797429E2  
 7.575200000000000E9    -1.558570010151929E1   1.778534428851035E2  -4.428909990949211E1  -1.492758443886036E2  -4.427883113987450E1  -1.490538635355439E2  -1.660408252302533E1   1.690738576935856E2  
 7.576000000000000E9    -1.561800685092352E1   1.777085535810566E2  -4.524027796471468E1  -1.634410913334065E2  -4.529255233202274E1  -1.631705598180100E2  -1.662502367451206E1   1.685977074349657E2  
 7.576800000000000E9    -1.568214603993799E1   1.775696413934903E2  -4.678413100653503E1  -1.786229591237821E2  -4.674409495609423E1  -1.783288419678602E2  -1.664590451712068E1   1.682781679736438E2  
 7.577600000000000E9    -1.575271464065359E1   1.774998878773191E2  -4.888586722052677E1   1.638404404294206E2  -4.888381824432410E1   1.640709260735057E2  -1.670561260832852E1   1.679722635200298E2  
