#  HZ   S   DB   R     50.00 
! Rohde & Schwarz ZVA40 2Ports - Version 4.11 - 1145.1110k40 SN: 100216
! Date: 2025-05-18 21:17:03
! Measurements: S11 S21 S12 S22 
! 
 7.500000000000000E9    -1.630865604435566E1   1.780276225835733E2  -5.120054029780084E1   1.226990225806624E2  -5.120031304106895E1   1.225885417811261E2  -1.498242106588931E1  -1.775854396152862E2  
 7.500800000000000E9    -1.625543410317004E1   1.782919868219917E2  -5.537500797182760E1   1.200516685719971E2  -5.550703196946138E1   1.191786231250050E2  -1.497053081673031E1  -1.777687574223941E2  
 7.501600000000000E9    -1.621249549942383E1   1.784336001715065E2  -6.320105163444484E1   1.477969896353569E2  -6.305926087479646E1   1.469213622034711E2  -1.498013752700693E1  -1.778309549978797E2  
 7.502400000000000E9    -1.611555169496150E1   1.785347303099943E2  -5.899901057559703E1  -1.352970166262041E2  -5.924439410950706E1  -1.360625097576026E2  -1.498677531148790E1  -1.780150370533663E2  
 7.503200000000000E9    -1.604676919421520E1   1.782823644156921E2  -5.303315591679619E1  -1.286649494909204E2  -5.302275055747500E1  -1.301784353051834E2  -1.500310075495504E1  -1.781800623075100E2  
 7.504000000000000E9    -1.597593125161379E1   1.780351708762295E2  -4.941016109669928E1  -1.336898051517738E2  -4.935323452465890E1  -1.342751121496376E2  -1.502977147856657E1  -1.782771701339802E2  
 7.504800000000000E9    -1.591011520221919E1   1.775079767382738E2  -4.698618892937173E1  -1.406265944852665E2  -4.697355288623745E1  -1.414328592884214E2  -1.505697594557611E1  -1.783506104697885E2  
 7.505600000000000E9    -1.587456234796825E1   1.769898615712416E2  -4.521841595672030E1  -1.488529088669785E2  -4.518501756000342E1  -1.492977174725834E2  -1.508847700394091E1  -1.783337972695584E2  
 7.506400000000000E9    -1.587481184132854E1   1.765051222975949E2  -4.389593912386996E1  -1.567969510839258E2  -4.386155888677252E1  -1.574679315780493E2  -1.511445800178213E1  -1.783586908498802E2  
 7.507200000000000E9    -1.586585093233334E1   1.758266319639599E2  -4.280736891475645E1  -1.651017852736858E2  -4.283817974046206E1  -1.658476009648918E2  -1.512268660884640E1  -1.782212457174531E2  
 7.508000000000000E9    -1.590348522489402E1   1.755470492443627E2  -4.201664880188474E1  -1.736312847851937E2  -4.200040991894873E1  -1.740342743691701E2  -1.512854146468522E1  -1.780528985705731E2  
 7.508800000000000E9    -1.596418262370504E1   1.752512702209986E2  -4.140073059441978E1   1.777800399907905E2  -4.136278343818117E1   1.770424375232348E2  -1.511708450041433E1  -1.780503023305767E2  
 7.509600000000000E9    -1.600139793425009E1   1.751069308576238E2  -4.095578606668455E1   1.687992315155213E2  -4.093595520442934E1   1.679193045547514E2  -1.508931840470599E1  -1.781144668565913E2  
 7.510400000000000E9    -1.604171911703270E1   1.750150898083911E2  -4.077976988896523E1   1.593513096671711E2  -4.074340687708943E1   1.588849964445670E2  -1.505301899251025E1  -1.782231175807065E2  
 7.511200000000000E9    -1.606533994998016E1   1.750357913860894E2  -4.087236923076984E1   1.503023738382295E2  -4.082156775672992E1   1.498040579468592E2  -1.504928478611258E1  -1.784096507013404E2  
 7.512000000000000E9    -1.607801634810232E1   1.750500819679355E2  -4.114663468788915E1   1.421056270889916E2  -4.114178441846011E1   1.413317652350742E2  -1.506798810776549E1  -1.786607255791139E2  
 7.512800000000000E9    -1.607959218973162E1   1.748914514827509E2  -4.158331442159039E1   1.349759626701087E2  -4.152176023932460E1   1.344782214557718E2  -1.509557050411776E1  -1.788365469023764E2  
 7.513600000000000E9    -1.609101691448832E1   1.747570084178840E2  -4.207772627011510E1   1.294541881187444E2  -4.200494920348708E1   1.288313603815100E2  -1.512636308186153E1  -1.788280121998708E2  
 7.514400000000000E9    -1.611909997512032E1   1.746285107705254E2  -4.244770118614999E1   1.244030461230644E2  -4.240341156598441E1   1.234892136891307E2  -1.514239474999522E1  -1.787150463063418E2  
 7.515200000000000E9    -1.614917187876635E1   1.746243041723015E2  -4.286782594685415E1   1.187950008945777E2  -4.285477271202823E1   1.178881502658004E2  -1.512970107824192E1  -1.787178964882076E2  
 7.516000000000000E9    -1.619655802260935E1   1.745620678241952E2  -4.344116403636024E1   1.121470977626025E2  -4.344085762842180E1   1.114917581751467E2  -1.512220486887324E1  -1.788390714437732E2  
 7.516800000000000E9    -1.620736773531897E1   1.746021094285621E2  -4.429307588492434E1   1.060166633756708E2  -4.426278035348835E1   1.049650620397698E2  -1.511166288775428E1  -1.790487441394886E2  
 7.517600000000000E9    -1.623393936686844E1   1.748279321097649E2  -4.557700751990164E1   1.006402009606324E2  -4.558983855288003E1   9.968413818110045E1  -1.513300545503052E1  -1.792187426846097E2  
 7.518400000000000E9    -1.624655693228701E1   1.748998536229736E2  -4.734794771607626E1   9.823453776938575E1  -4.730708383006355E1   9.773949317886917E1  -1.518096316469437E1  -1.794175304508775E2  
 7.519200000000000E9    -1.623687491510070E1   1.752264591810931E2  -4.919657495810457E1   1.017701717481305E2  -4.918160714502839E1   1.009528495160211E2  -1.520444084197990E1  -1.794603910233562E2  
 7.520000000000000E9    -1.621480154632652E1   1.753634370564442E2  -5.064242920815953E1   1.120486781443605E2  -5.065268952777023E1   1.116470512446093E2  -1.524084861955671E1  -1.793227139157205E2  
 7.520800000000000E9    -1.617723148355417E1   1.755339848158604E2  -5.078855467728535E1   1.262690686324894E2  -5.081905044218992E1   1.248366980974938E2  -1.526920360718396E1  -1.792246618716595E2  
 7.521600000000000E9    -1.614845055015200E1   1.753781994272675E2  -4.971220570121044E1   1.362305361662595E2  -4.976346911498487E1   1.359683422681573E2  -1.525459430741257E1  -1.790540849493294E2  
 7.522400000000000E9    -1.610624195517437E1   1.752929389770697E2  -4.830221988938599E1   1.389400327390240E2  -4.820504569483315E1   1.380382169137325E2  -1.524964978011895E1  -1.788669187323471E2  
 7.523200000000000E9    -1.607739057938331E1   1.751377453001876E2  -4.721110189607904E1   1.375192494246097E2  -4.718991328237196E1   1.367715813034035E2  -1.520430710895133E1  -1.788466851348767E2  
 7.524000000000000E9    -1.605669781249051E1   1.749831862219884E2  -4.646453321275623E1   1.343579247395536E2  -4.651401352175925E1   1.333782082088136E2  -1.518726470013979E1  -1.789891426660265E2  
 7.524800000000000E9    -1.599825578287276E1   1.747689105783190E2  -4.607047900557009E1   1.306453367323467E2  -4.607437166237848E1   1.296427752208732E2  -1.514776662547717E1  -1.793059305754370E2  
 7.525600000000000E9    -1.600485910171014E1   1.744312611651418E2  -4.592799893515895E1   1.271073606884724E2  -4.590651951168908E1   1.261021165203350E2  -1.516032529576678E1  -1.796615697313048E2  
 7.526400000000000E9    -1.600272341285120E1   1.741841890157655E2  -4.587247744015760E1   1.245448697001098E2  -4.584454239104338E1   1.235410392871259E2  -1.517602218544643E1  -1.799629678009559E2  
 7.527200000000000E9    -1.600426731199897E1   1.738201421618504E2  -4.586947706359414E1   1.235217300067066E2  -4.586940346110196E1   1.223941663752475E2  -1.521808671741840E1   1.797475931817652E2  
 7.528000000000000E9    -1.600725403827429E1   1.735237488363032E2  -4.577383427806527E1   1.218408479174663E2  -4.581387306874153E1   1.212143352407147E2  -1.526425466176777E1   1.796270849425485E2  
 7.528800000000000E9    -1.602346886141277E1   1.733583720038857E2  -4.565611825898756E1   1.209762529189713E2  -4.565978301326782E1   1.202164300575891E2  -1.533239300092162E1   1.796113640332092E2  
 7.529600000000000E9    -1.602608117010997E1   1.730919562868442E2  -4.549990392864394E1   1.205130071305339E2  -4.547817815839549E1   1.197850773426037E2  -1.537169237056352E1   1.797132986693535E2  
 7.530400000000000E9    -1.604953508716577E1   1.729052998101331E2  -4.525926381312578E1   1.202316439807212E2  -4.526815154363483E1   1.191594630067350E2  -1.539364120324146E1   1.798116306816379E2  
 7.531200000000000E9    -1.610689827864684E1   1.725364133418004E2  -4.487959165126167E1   1.197225597154152E2  -4.486380211575995E1   1.186357665613168E2  -1.544256955174120E1   1.799700750387413E2  
 7.532000000000000E9    -1.614326419573122E1   1.724006283666869E2  -4.441877551106370E1   1.181640285511816E2  -4.438470726587016E1   1.173776785205114E2  -1.544363412014071E1  -1.797434839838529E2  
 7.532800000000000E9    -1.619764466399239E1   1.722391257293246E2  -4.388805500148889E1   1.160329059319629E2  -4.381386091828411E1   1.152247111773133E2  -1.544501393676510E1  -1.796942707653277E2  
 7.533600000000000E9    -1.623655030061293E1   1.722848086829812E2  -4.324591970186769E1   1.124965904812907E2  -4.326274873391083E1   1.115061574449420E2  -1.545542442813329E1  -1.794968786494875E2  
 7.534400000000000E9    -1.628730455165729E1   1.723243353584736E2  -4.270283606381869E1   1.076942464305978E2  -4.276080528546248E1   1.065863560843661E2  -1.544333939874525E1  -1.794628085803573E2  
 7.535200000000000E9    -1.634640510768183E1   1.726026490887696E2  -4.239061016832492E1   1.017897717168940E2  -4.240392477202916E1   1.007124981635267E2  -1.543230930099605E1  -1.793300993416088E2  
 7.536000000000000E9    -1.635933368285190E1   1.729962691760404E2  -4.217784768715308E1   9.484456896114506E1  -4.220895394818076E1   9.391246135270583E1  -1.541400845419033E1  -1.792787097776550E2  
 7.536800000000000E9    -1.634759153955756E1   1.733126106762364E2  -4.224489112268362E1   8.758239366796079E1  -4.228679587922863E1   8.677393117144942E1  -1.538949948385567E1  -1.794021128284222E2  
 7.537600000000000E9    -1.631413077666427E1   1.736751793789309E2  -4.258078610940238E1   8.073164348354239E1  -4.257892383919355E1   7.967855853913451E1  -1.538721232101531E1  -1.794343281046738E2  
 7.538400000000000E9    -1.625687006486928E1   1.738095825241908E2  -4.310810611065843E1   7.446997973379615E1  -4.315450375009763E1   7.353009929457060E1  -1.537728573519297E1  -1.797261378241536E2  
 7.539200000000000E9    -1.618721400579576E1   1.738464551233942E2  -4.384683713190750E1   6.928514327911034E1  -4.384103566091333E1   6.813655440393711E1  -1.536909255043793E1  -1.799463891279707E2  
 7.540000000000000E9    -1.611802321254292E1   1.737463347155724E2  -4.476075592245011E1   6.500513071036387E1  -4.476437726328905E1   6.421734739739550E1  -1.538857709734116E1  -1.799518197596718E2  
 7.540800000000000E9    -1.604963414367034E1   1.733233894327249E2  -4.581992898876202E1   6.272668143460550E1  -4.580814272743917E1   6.205666131219576E1  -1.541739675822469E1   1.798984639673566E2  
 7.541600000000000E9    -1.601746330781277E1   1.727760676931402E2  -4.677211976590264E1   6.348474404395731E1  -4.684569961480285E1   6.194756224194236E1  -1.544507070208345E1   1.798863296317526E2  
 7.542400000000000E9    -1.598646443150626E1   1.723056197361622E2  -4.758853540137093E1   6.565719058469901E1  -4.769179212096943E1   6.493723727687477E1  -1.543919295394784E1   1.797984959232904E2  
 7.543200000000000E9    -1.598592900931858E1   1.716763529075463E2  -4.803370717638816E1   6.851480896222158E1  -4.815792091485532E1   6.767868362408677E1  -1.546581669449484E1   1.797593385876421E2  
 7.544000000000000E9    -1.600493436697888E1   1.711263052991666E2  -4.848299308444752E1   7.070431557124725E1  -4.842266450424087E1   7.034711921440463E1  -1.548964973589045E1   1.796994957830633E2  
 7.544800000000000E9    -1.604020265331247E1   1.706404951307435E2  -4.891461463439603E1   7.336918001933714E1  -4.908035202774440E1   7.338459714140359E1  -1.553329700114453E1   1.796989021258748E2  
 7.545600000000000E9    -1.608404219096036E1   1.701262482477171E2  -4.934060531622709E1   7.871886592636581E1  -4.942167432102744E1   7.788368017858839E1  -1.555478623469463E1   1.796637788521726E2  
 7.546400000000000E9    -1.613571362167277E1   1.696922094202643E2  -4.940176477199169E1   8.592614730893875E1  -4.938744717908239E1   8.525618388522867E1  -1.555585251458902E1   1.799215510909705E2  
 7.547200000000000E9    -1.621485185345234E1   1.692525043131683E2  -4.875508311679305E1   9.341573320615532E1  -4.875629916745894E1   9.237546565941680E1  -1.555071886454507E1  -1.798296509719511E2  
 7.548000000000000E9    -1.629043816876300E1   1.690292122924732E2  -4.761958558855242E1   9.838987515793384E1  -4.763739243444881E1   9.790984051370904E1  -1.554081745453407E1  -1.797557417894629E2  
 7.548800000000000E9    -1.637879964985709E1   1.688496174400838E2  -4.621205381003542E1   9.954780726005953E1  -4.625672383904850E1   9.919491533713173E1  -1.553257939304901E1  -1.797639649708136E2  
 7.549600000000000E9    -1.647521400041300E1   1.688790609417012E2  -4.487783578573392E1   9.776141232229792E1  -4.483419634710008E1   9.704815079615501E1  -1.548609139308767E1  -1.798069816587041E2  
 7.550400000000000E9    -1.656948974278961E1   1.689927144428188E2  -4.369842718461752E1   9.343926158831896E1  -4.374320446769226E1   9.231902363302818E1  -1.545149036506242E1   1.799786137766397E2  
 7.551200000000000E9    -1.662992019312586E1   1.693813655372538E2  -4.281996888104465E1   8.682240329691770E1  -4.283524467812188E1   8.620920701086766E1  -1.543995258754719E1   1.797454217210693E2  
 7.552000000000000E9    -1.670728176171089E1   1.697161101103082E2  -4.218188940497753E1   7.956723606461470E1  -4.220534115623759E1   7.874522061875673E1  -1.545251348226440E1   1.794434745425638E2  
 7.552800000000000E9    -1.673828206512540E1   1.701038437086640E2  -4.177597953168401E1   7.188573328034558E1  -4.182092190714172E1   7.117409825637411E1  -1.547861697680650E1   1.790177432183454E2  
 7.553600000000000E9    -1.674963058112049E1   1.707560080126783E2  -4.162700418579073E1   6.398840187009027E1  -4.168426815578683E1   6.330807527188436E1  -1.550542885457201E1   1.787466863936168E2  
 7.554400000000000E9    -1.673999556700774E1   1.712905646502255E2  -4.170719602946212E1   5.593803651296110E1  -4.171354684497586E1   5.560252512383482E1  -1.555831819792585E1   1.784901687287258E2  
 7.555200000000000E9    -1.671918873455580E1   1.716824343021144E2  -4.188801867209834E1   4.831420810432298E1  -4.192630146162067E1   4.777263023868422E1  -1.562241932188007E1   1.783906987563753E2  
 7.556000000000000E9    -1.667029801154015E1   1.720977165119993E2  -4.233975689973684E1   4.077196341319841E1  -4.239948611170392E1   4.030971255472383E1  -1.566293310731008E1   1.782955337523513E2  
 7.556800000000000E9    -1.659358709486081E1   1.723055708117402E2  -4.304118562904923E1   3.378588336143552E1  -4.303659889541849E1   3.309095094707892E1  -1.574194534170510E1   1.783704919765248E2  
 7.557600000000000E9    -1.653259423229157E1   1.724191855304166E2  -4.393624231015802E1   2.710636523890664E1  -4.398570031999846E1   2.649785300263847E1  -1.581689269156732E1   1.785557854445910E2  
 7.558400000000000E9    -1.644395641430051E1   1.724199075653406E2  -4.518537821500082E1   2.178171072114933E1  -4.519409749798285E1   2.138147761376390E1  -1.587007183119523E1   1.788624982640811E2  
 7.559200000000000E9    -1.636099564635898E1   1.722502752579210E2  -4.672091279025672E1   1.834551017234784E1  -4.668675857283287E1   1.775245611629634E1  -1.591380472880794E1   1.792957836469435E2  
 7.560000000000000E9    -1.628800760500398E1   1.719158588212309E2  -4.855856661412647E1   1.885217479589283E1  -4.857281248703202E1   1.844902950783364E1  -1.591607836860184E1   1.797682353929558E2  
 7.560800000000000E9    -1.622283353067341E1   1.713730598466473E2  -5.032946983604927E1   2.597867206947300E1  -5.032584866716933E1   2.503600033736047E1  -1.589782906763125E1  -1.798474303469600E2  
 7.561600000000000E9    -1.616999575667841E1   1.708716595766366E2  -5.150713349769802E1   3.932941448074328E1  -5.145028044101908E1   3.804683284196188E1  -1.586222606092481E1  -1.795624508311663E2  
 7.562400000000000E9    -1.615972595015688E1   1.702184286752331E2  -5.092876147375722E1   5.247956179532169E1  -5.096118623647811E1   5.262985449606909E1  -1.580978050404967E1  -1.793106518659841E2  
 7.563200000000000E9    -1.617314799635236E1   1.695855282101300E2  -4.965085219295077E1   6.059643286122162E1  -4.962921981312669E1   5.948199020715236E1  -1.576608396381316E1  -1.792651637832053E2  
 7.564000000000000E9    -1.619417369661711E1   1.691068773880151E2  -4.847060463931067E1   6.237390825059961E1  -4.847725965537018E1   6.140110444818454E1  -1.573092765298424E1  -1.792628648261062E2  
 7.564800000000000E9    -1.621399051389485E1   1.685736014016852E2  -4.766331865746286E1   6.136848122383897E1  -4.758345124134744E1   6.026056085363294E1  -1.568999687201358E1  -1.793970244495546E2  
 7.565600000000000E9    -1.627541926436642E1   1.682000552883186E2  -4.693560974434931E1   6.084923943796688E1  -4.699766148787932E1   5.991601236613914E1  -1.567777356259707E1  -1.795425358002260E2  
 7.566400000000000E9    -1.631660227981568E1   1.677072438804518E2  -4.634853249768786E1   5.914225228027129E1  -4.636239277780193E1   5.809922811876410E1  -1.566016386196356E1  -1.796768474512256E2  
 7.567200000000000E9    -1.636541470096088E1   1.676056106948930E2  -4.580071389023222E1   5.662032801367202E1  -4.571997055850066E1   5.590303297267685E1  -1.563931630668434E1  -1.798675522414476E2  
 7.568000000000000E9    -1.640538141585455E1   1.673702166264875E2  -4.537755675030785E1   5.400003306123649E1  -4.538772538069961E1   5.318250460358704E1  -1.563876682391991E1  -1.799960875713304E2  
 7.568800000000000E9    -1.647056338145891E1   1.672260672756206E2  -4.502135689214522E1   5.157701202172176E1  -4.501854747726168E1   5.076968379697437E1  -1.563606667094812E1   1.798986327510140E2  
 7.569600000000000E9    -1.654592425545762E1   1.669423816705982E2  -4.468665207625008E1   4.942169875643424E1  -4.469109507665879E1   4.886253791917390E1  -1.561943091160190E1   1.797101669166588E2  
 7.570400000000000E9    -1.660820710958451E1   1.668033580652586E2  -4.426510645133696E1   4.730853463238468E1  -4.428855439286734E1   4.588154550219583E1  -1.562487705456313E1   1.795611446790711E2  
 7.571200000000000E9    -1.667382715588678E1   1.666852433844985E2  -4.385241736565516E1   4.407270810871582E1  -4.385685901742617E1   4.284861393743708E1  -1.563977858608087E1   1.794544418781759E2  
 7.572000000000000E9    -1.673747982072003E1   1.667009510811588E2  -4.348248987031068E1   4.032408769052424E1  -4.348672541559950E1   3.951810156451462E1  -1.563170101598133E1   1.792681075629948E2  
 7.572800000000000E9    -1.678870673993686E1   1.669699339559571E2  -4.313530500566827E1   3.594812797888697E1  -4.311690332930621E1   3.522979097787295E1  -1.562857836469277E1   1.790652003869000E2  
 7.573600000000000E9    -1.682666916294769E1   1.673882526944000E2  -4.280258537140230E1   3.089454993590672E1  -4.280174622468953E1   2.996023222184768E1  -1.564457624920764E1   1.789287382711096E2  
 7.574400000000000E9    -1.686797673001484E1   1.675749759462891E2  -4.261019585481242E1   2.528012902959935E1  -4.263957576144989E1   2.433327193497583E1  -1.565779688131551E1   1.786943591720540E2  
 7.575200000000000E9    -1.687835992339248E1   1.677940281634882E2  -4.260444894868834E1   1.897844763987895E1  -4.263470389949003E1   1.809101057649222E1  -1.568389266372480E1   1.786351436950102E2  
 7.576000000000000E9    -1.688050923740005E1   1.680038642493889E2  -4.276943116857216E1   1.212682115007573E1  -4.275756316268547E1   1.160245330878895E1  -1.569721432381765E1   1.784774821870304E2  
 7.576800000000000E9    -1.686881660847669E1   1.684290883799270E2  -4.309252382464155E1   5.711266460551181  -4.311727625013312E1   5.000535810669899  -1.574120720477019E1   1.783648416380127E2  
 7.577600000000000E9    -1.686288529833534E1   1.684724954917073E2  -4.363738570665167E1  -4.218701341967595E-1  -4.361699409037995E1  -1.064146729292032  -1.578029705207604E1   1.783205376189468E2  
