#  HZ   S   DB   R     50.00 
! Rohde & Schwarz ZVA40 2Ports - Version 4.11 - 1145.1110k40 SN: 100216
! Date: 2025-04-29 18:23:23
! Measurements: S11 S21 S12 S22 
! 
 7.500000000000000E9    -1.474535228625412E1  -1.760407077381154E2  -4.641745273822458E1  -9.204072944042417E1  -4.632649985303136E1  -9.115246786406054E1  -1.578529718657512E1   1.772665878430167E2  
 7.500800000000000E9    -1.475591133557902E1  -1.764545093018177E2  -4.852294979413484E1  -1.147028941252334E2  -4.851920262228662E1  -1.133611818094922E2  -1.581458938551525E1   1.764954095820095E2  
 7.501600000000000E9    -1.474988573556763E1  -1.769023690175725E2  -5.072511722371167E1  -1.452695880713516E2  -5.079757027237452E1  -1.446424751633408E2  -1.585540230808980E1   1.758769468242641E2  
 7.502400000000000E9    -1.478335272076497E1  -1.772617435567353E2  -5.166729390418334E1   1.741547323009952E2  -5.167012943997096E1   1.749032565705147E2  -1.590532047545605E1   1.754897879151858E2  
 7.503200000000000E9    -1.482631582652969E1  -1.774732150089049E2  -5.023130515624856E1   1.354523836261100E2  -5.028466486226152E1   1.357004799795271E2  -1.598745442786824E1   1.751831507458173E2  
 7.504000000000000E9    -1.490095413581213E1  -1.780054213077558E2  -4.799247730730235E1   1.062011207732863E2  -4.792433314076722E1   1.072669762057007E2  -1.606732355969427E1   1.749500435664760E2  
 7.504800000000000E9    -1.500155499215818E1  -1.778643381249381E2  -4.586380388973495E1   8.532342505988073E1  -4.578993413078869E1   8.563681772130222E1  -1.615510348673542E1   1.748776211532516E2  
 7.505600000000000E9    -1.506733868175716E1  -1.778623056239772E2  -4.404480330057065E1   6.724804789901073E1  -4.407143143373449E1   6.778639933568742E1  -1.622087104346027E1   1.749212419859784E2  
 7.506400000000000E9    -1.513545793769823E1  -1.775245980633059E2  -4.275437250057112E1   5.160447229762628E1  -4.274159192488691E1   5.204297459046026E1  -1.628738549830983E1   1.751741788344422E2  
 7.507200000000000E9    -1.519571287901712E1  -1.769753310166975E2  -4.182544553732958E1   3.694152191051089E1  -4.174596273778269E1   3.760690298034488E1  -1.634824736705486E1   1.756479854689916E2  
 7.508000000000000E9    -1.520478928580834E1  -1.764204616407184E2  -4.123537680160702E1   2.300466725740225E1  -4.116534882118073E1   2.353823794590223E1  -1.636442913321809E1   1.760163496039019E2  
 7.508800000000000E9    -1.515713512557349E1  -1.759983150742958E2  -4.092335779879137E1   9.989655258038820  -4.086867056644565E1   1.056424087384065E1  -1.635605676972552E1   1.765315145943826E2  
 7.509600000000000E9    -1.508845955603724E1  -1.753950091386927E2  -4.091509564491068E1  -2.258334267884376  -4.083563925279494E1  -1.756734760760264  -1.632681887210926E1   1.768593756071176E2  
 7.510400000000000E9    -1.500208059667066E1  -1.753317198869984E2  -4.115615442948890E1  -1.407333772820349E1  -4.109088417478587E1  -1.361828453003786E1  -1.627815456676154E1   1.771177688797247E2  
 7.511200000000000E9    -1.492155665061700E1  -1.754561024397297E2  -4.165437916295303E1  -2.515057426835649E1  -4.158228804530276E1  -2.483530636453254E1  -1.621362531825595E1   1.771910843662134E2  
 7.512000000000000E9    -1.484885241166204E1  -1.758715381282239E2  -4.243713533273643E1  -3.495070887966271E1  -4.235439819279447E1  -3.463653394617517E1  -1.614105670442170E1   1.771996558699686E2  
 7.512800000000000E9    -1.481693397239902E1  -1.762547205603875E2  -4.352367046617975E1  -4.345519298706695E1  -4.341241753687299E1  -4.279362157276918E1  -1.607614099892124E1   1.768357158522138E2  
 7.513600000000000E9    -1.479457642440932E1  -1.767603174248120E2  -4.478238256976393E1  -4.908970205981983E1  -4.476262028135562E1  -4.889466563098090E1  -1.603626654140718E1   1.763677226843332E2  
 7.514400000000000E9    -1.479733678499843E1  -1.772755329088927E2  -4.618645087903138E1  -5.204864156148129E1  -4.611587339354546E1  -5.201444558987566E1  -1.603221149064638E1   1.756970856710982E2  
 7.515200000000000E9    -1.482580931885056E1  -1.777089705180179E2  -4.757675308148156E1  -5.256537045976103E1  -4.746569021673219E1  -5.220893510893669E1  -1.605803441242794E1   1.751962996243889E2  
 7.516000000000000E9    -1.489458938803865E1  -1.782185062567598E2  -4.862898696938533E1  -5.002137440202244E1  -4.854344905887043E1  -4.959765360558239E1  -1.611809352184098E1   1.748372825003734E2  
 7.516800000000000E9    -1.495307627119138E1  -1.784295863057204E2  -4.945196883531678E1  -4.516979872272714E1  -4.933397871693395E1  -4.491983507447342E1  -1.618257270353250E1   1.745492430411072E2  
 7.517600000000000E9    -1.501356699491600E1  -1.784978941510683E2  -4.954924075393205E1  -3.843040570339102E1  -4.950560525956233E1  -3.842716688297278E1  -1.625563630754643E1   1.745505825722505E2  
 7.518400000000000E9    -1.507469607896644E1  -1.783941598537154E2  -4.895191724978713E1  -3.368165833415402E1  -4.885384729373619E1  -3.388268695935872E1  -1.632026102918496E1   1.745551751387514E2  
 7.519200000000000E9    -1.509803580738541E1  -1.782744703326740E2  -4.793111129452338E1  -3.312202847173326E1  -4.795988078342057E1  -3.356463229098334E1  -1.639536364936629E1   1.747738181294582E2  
 7.520000000000000E9    -1.512423252254632E1  -1.779837026051291E2  -4.713330005793712E1  -3.639341254630235E1  -4.704484308125119E1  -3.637704535801596E1  -1.644438984019628E1   1.752244124931798E2  
 7.520800000000000E9    -1.513611524018907E1  -1.778690362224280E2  -4.645673375986009E1  -4.331228467320209E1  -4.641550127860141E1  -4.333336528600121E1  -1.643343059457198E1   1.755850729431922E2  
 7.521600000000000E9    -1.509244567651254E1  -1.778464576514677E2  -4.619933593405109E1  -5.216457049673289E1  -4.614124947583576E1  -5.174957395612166E1  -1.641030031697489E1   1.760502649095836E2  
 7.522400000000000E9    -1.506967333073683E1  -1.778051035540540E2  -4.634947010445682E1  -6.191042659870585E1  -4.627492633440311E1  -6.158386244642812E1  -1.634885633268092E1   1.762672995239476E2  
 7.523200000000000E9    -1.504924314987277E1  -1.779388062013899E2  -4.689969483547276E1  -7.235678688467434E1  -4.689434556766574E1  -7.228111576608539E1  -1.629188572747960E1   1.763260486127121E2  
 7.524000000000000E9    -1.504323771711173E1  -1.782872768589795E2  -4.806023139537981E1  -8.390550835751731E1  -4.795421581978404E1  -8.369119017416693E1  -1.621538916506840E1   1.763992468144860E2  
 7.524800000000000E9    -1.505438798470504E1  -1.786328167565619E2  -4.968135508092684E1  -9.657243814027926E1  -4.967927612731202E1  -9.599997478765029E1  -1.616525474339985E1   1.758369413692517E2  
 7.525600000000000E9    -1.508298626408213E1  -1.789580584834760E2  -5.230626830209942E1  -1.106571695566912E2  -5.245912389272292E1  -1.102907144861031E2  -1.615291920222763E1   1.753638888776671E2  
 7.526400000000000E9    -1.514793743839443E1  -1.792804775654431E2  -5.694764794164970E1  -1.297143431388691E2  -5.681108371276932E1  -1.299954640808128E2  -1.615469802013476E1   1.750288026340133E2  
 7.527200000000000E9    -1.523466471946470E1  -1.794114524383612E2  -6.560009322022401E1   1.744464382767461E2  -6.581204568095791E1   1.735703432986989E2  -1.619340905991252E1   1.746424407513489E2  
 7.528000000000000E9    -1.531804290642698E1  -1.792095832837779E2  -5.932836126436985E1   7.165617181231444E1  -5.926064227862739E1   7.187414791797963E1  -1.622442558304977E1   1.743271745686987E2  
 7.528800000000000E9    -1.536022722896970E1  -1.789361330350020E2  -5.303709539120094E1   4.669598981981560E1  -5.305290059599179E1   4.689785606167443E1  -1.625937476584412E1   1.742159471734702E2  
 7.529600000000000E9    -1.541719937852262E1  -1.784769540049002E2  -4.948233764539577E1   3.128511388764067E1  -4.944107282193557E1   3.061892230551418E1  -1.630477570977030E1   1.740315839356951E2  
 7.530400000000000E9    -1.542426981861449E1  -1.779965148565726E2  -4.700329102259875E1   1.779809373952757E1  -4.700331215174062E1   1.775732482926414E1  -1.633287671032609E1   1.742101260909972E2  
 7.531200000000000E9    -1.543149518398384E1  -1.774438943420088E2  -4.525870921590300E1   4.688397856940676  -4.516839242972771E1   5.086331062364367  -1.638228939350947E1   1.742081873165496E2  
 7.532000000000000E9    -1.536244516773241E1  -1.771609863576161E2  -4.388671119767808E1  -7.997457246530096  -4.388276887240575E1  -7.996090980237476  -1.637719642638259E1   1.743637409044895E2  
 7.532800000000000E9    -1.530557801354066E1  -1.768360728538415E2  -4.298470727784918E1  -2.116811069690203E1  -4.302373289409003E1  -2.087316564212366E1  -1.637999080775216E1   1.747130777722926E2  
 7.533600000000000E9    -1.522180868400369E1  -1.767110118144358E2  -4.243121030676235E1  -3.422025317479834E1  -4.245942466306919E1  -3.403881234346534E1  -1.635911132892973E1   1.747302200227697E2  
 7.534400000000000E9    -1.515995988357828E1  -1.768094631912178E2  -4.227926717990464E1  -4.699433942545988E1  -4.227035902433343E1  -4.688808526323551E1  -1.629795569561664E1   1.747666416981271E2  
 7.535200000000000E9    -1.509764233711128E1  -1.769892369184675E2  -4.232077787446696E1  -6.009297566303022E1  -4.230359377601722E1  -5.995864964170815E1  -1.625956365728467E1   1.746998731304606E2  
 7.536000000000000E9    -1.502917284028484E1  -1.772338087945602E2  -4.265568291146926E1  -7.316738662834032E1  -4.269879814910663E1  -7.317813124984552E1  -1.623349524522698E1   1.742779034565356E2  
 7.536800000000000E9    -1.498417577607404E1  -1.778508895092150E2  -4.337514404573214E1  -8.627035729921514E1  -4.338344710062430E1  -8.642522063668434E1  -1.621333483715724E1   1.739574293431774E2  
 7.537600000000000E9    -1.495184430639278E1  -1.783425714395843E2  -4.447226435666541E1  -1.000798006906844E2  -4.445785790248893E1  -9.983702546729441E1  -1.621353734217510E1   1.735103988011674E2  
 7.538400000000000E9    -1.495283734681584E1  -1.789240310661886E2  -4.604719337447653E1  -1.144340249046550E2  -4.604988027418953E1  -1.142629507474155E2  -1.623303337541940E1   1.731256905035807E2  
 7.539200000000000E9    -1.497783601371690E1  -1.795501099428608E2  -4.827781937701784E1  -1.307166573383910E2  -4.826462582878713E1  -1.305088566713267E2  -1.627645564386767E1   1.726067890103911E2  
 7.540000000000000E9    -1.500312614723796E1   1.799098579666839E2  -5.173248427568544E1  -1.511914215714928E2  -5.169805707951711E1  -1.512041736816803E2  -1.632837747522053E1   1.724771983740471E2  
 7.540800000000000E9    -1.508702653999897E1   1.794859737744691E2  -5.710044252931499E1   1.725717219938800E2  -5.693271874446472E1   1.727705487039966E2  -1.637222256368390E1   1.722867222588567E2  
 7.541600000000000E9    -1.515726089826531E1   1.791789224497465E2  -5.903304596106658E1   8.790524580276438E1  -5.897819113489219E1   8.921703296066508E1  -1.644194010650399E1   1.723026126100747E2  
 7.542400000000000E9    -1.526117643001850E1   1.790320574916621E2  -5.312928558019522E1   3.921775409711059E1  -5.315932643967282E1   3.969895603668896E1  -1.651062470641675E1   1.725138907793798E2  
 7.543200000000000E9    -1.533777714839963E1   1.790956835125908E2  -4.926799734952554E1   1.604479501759673E1  -4.928557329848717E1   1.614401550081412E1  -1.652204815576688E1   1.727276684100188E2  
 7.544000000000000E9    -1.541373297502242E1   1.793127736994819E2  -4.675545799629290E1  -1.828746258092112  -4.673063983309296E1  -1.296891846046535  -1.654296140877018E1   1.730578534632766E2  
 7.544800000000000E9    -1.544867664711460E1   1.797067574812429E2  -4.500888000407625E1  -1.680690235575169E1  -4.500451941215015E1  -1.646959130847106E1  -1.652996191478751E1   1.733716033460654E2  
 7.545600000000000E9    -1.547639094750062E1  -1.799115688173005E2  -4.390266255383958E1  -3.065869137377775E1  -4.386684649073808E1  -3.025267862211865E1  -1.649818715047328E1   1.735888719214582E2  
 7.546400000000000E9    -1.546434215781946E1  -1.796952045334171E2  -4.307647347872447E1  -4.344286965295336E1  -4.309433572705569E1  -4.318519787503631E1  -1.642196745141746E1   1.736342998235305E2  
 7.547200000000000E9    -1.545261016403184E1  -1.794954118951693E2  -4.264142045538144E1  -5.623536492929023E1  -4.264920786703343E1  -5.578101109333717E1  -1.636457362199418E1   1.734869434126748E2  
 7.548000000000000E9    -1.541623098865679E1  -1.793352943342290E2  -4.243539200394692E1  -6.909698454837859E1  -4.244477638715335E1  -6.901729707848320E1  -1.631553865369979E1   1.730700693978388E2  
 7.548800000000000E9    -1.537742307763499E1  -1.792841331355579E2  -4.254488725007810E1  -8.245128961427385E1  -4.253184844869606E1  -8.215943400208273E1  -1.628361926748856E1   1.725839033851564E2  
 7.549600000000000E9    -1.534371213655242E1  -1.795317109726589E2  -4.303999603192170E1  -9.616674223417489E1  -4.299859798558077E1  -9.607124100731635E1  -1.627954375930298E1   1.720809003428821E2  
 7.550400000000000E9    -1.532573564257226E1  -1.799589883395977E2  -4.393670248312840E1  -1.096801677217207E2  -4.395937316059292E1  -1.091448346407269E2  -1.628453115772946E1   1.716256677602434E2  
 7.551200000000000E9    -1.534040591071525E1   1.796292431231215E2  -4.529720910944936E1  -1.228656833979690E2  -4.530912242492415E1  -1.225953963636137E2  -1.631882721603145E1   1.710915671821741E2  
 7.552000000000000E9    -1.539659970695026E1   1.793265238552901E2  -4.727104984698535E1  -1.356610975637609E2  -4.730258194081930E1  -1.358435763378454E2  -1.635165770230828E1   1.705990826718413E2  
 7.552800000000000E9    -1.546663968422842E1   1.791242264952445E2  -5.011202343070499E1  -1.490979401577534E2  -5.009175755917925E1  -1.487858192540127E2  -1.641303868742337E1   1.701924045662868E2  
 7.553600000000000E9    -1.553597281319155E1   1.791609400624088E2  -5.444092231176296E1  -1.616130783168921E2  -5.442968601566701E1  -1.606254873237260E2  -1.648564538431561E1   1.698183522547471E2  
 7.554400000000000E9    -1.558548965666710E1   1.795250176106657E2  -6.312127563434584E1  -1.776629747765378E2  -6.318685200873931E1  -1.767404423391944E2  -1.660202324338261E1   1.697860678323820E2  
 7.555200000000000E9    -1.562657823845238E1   1.798086704349583E2  -6.656510745932897E1   1.745220485858748E1  -6.668875802788112E1   1.441312925863707E1  -1.669374226518666E1   1.698632785830592E2  
 7.556000000000000E9    -1.564346557479661E1  -1.798074095540167E2  -5.600987696474064E1  -4.970650399675430  -5.604826283344963E1  -4.553137515997242  -1.679347374783369E1   1.700421377378581E2  
 7.556800000000000E9    -1.563968090333167E1  -1.794153140311037E2  -5.149328388796393E1  -1.794083281320420E1  -5.154867436049247E1  -1.813909317977825E1  -1.683912739526820E1   1.707220916220336E2  
 7.557600000000000E9    -1.561484071662567E1  -1.790723340757036E2  -4.879817547142302E1  -3.023153998525626E1  -4.882363980701005E1  -2.974248197378235E1  -1.688068542147678E1   1.712998236480851E2  
 7.558400000000000E9    -1.555557212870296E1  -1.788007994769440E2  -4.695583594041388E1  -4.182951338412565E1  -4.694346717506096E1  -4.164983124058722E1  -1.684598433396132E1   1.717275902434212E2  
 7.559200000000000E9    -1.549016767873669E1  -1.786331084810392E2  -4.573849670155648E1  -5.374892498437006E1  -4.573554745896708E1  -5.333900676103359E1  -1.681619574913420E1   1.721911315005903E2  
 7.560000000000000E9    -1.541580538718496E1  -1.787018155240573E2  -4.500998038184454E1  -6.552028114450278E1  -4.498809599149138E1  -6.568486679511597E1  -1.673589645432242E1   1.724453944062183E2  
 7.560800000000000E9    -1.532634570553965E1  -1.789555493287691E2  -4.475933596350699E1  -7.765389320819217E1  -4.470597397748183E1  -7.707071212243289E1  -1.665589242283681E1   1.725042943896071E2  
 7.561600000000000E9    -1.527010225982859E1  -1.792939453698090E2  -4.485275319564628E1  -8.840857136923422E1  -4.479831989237385E1  -8.831664186170632E1  -1.658607855483596E1   1.723052536419393E2  
 7.562400000000000E9    -1.523444998273535E1  -1.799143127888570E2  -4.529351475396372E1  -9.857855420855080E1  -4.526647062796349E1  -9.848622747098669E1  -1.654712563523749E1   1.719856426032181E2  
 7.563200000000000E9    -1.523321172035817E1   1.795371388229811E2  -4.606492258996503E1  -1.077253703819603E2  -4.602373821323084E1  -1.075334214712238E2  -1.649408338113937E1   1.714559806465857E2  
 7.564000000000000E9    -1.525355058128367E1   1.790057671258276E2  -4.716469795571540E1  -1.154136667245979E2  -4.712104267442396E1  -1.153786994180175E2  -1.649263730749102E1   1.711196550631582E2  
 7.564800000000000E9    -1.531016190986458E1   1.786456035644435E2  -4.869304279092570E1  -1.208786063621847E2  -4.866069250063404E1  -1.204422187807011E2  -1.649915101721706E1   1.707214034301144E2  
 7.565600000000000E9    -1.537525701795277E1   1.783366898626940E2  -5.069654541714015E1  -1.233294878745394E2  -5.059356756907614E1  -1.231541946661397E2  -1.649749159568656E1   1.703207488282212E2  
 7.566400000000000E9    -1.544907444166143E1   1.781199313135048E2  -5.296264869328971E1  -1.181757615750360E2  -5.300458318353305E1  -1.180283353446880E2  -1.653950467926022E1   1.700042315578048E2  
 7.567200000000000E9    -1.548338509769891E1   1.780933358550199E2  -5.477063114418103E1  -9.848696930730506E1  -5.472579149875622E1  -9.875275872122671E1  -1.658875989709425E1   1.697034368254168E2  
 7.568000000000000E9    -1.553647786683013E1   1.782995293454008E2  -5.339491314798418E1  -7.620085198910678E1  -5.329041063689923E1  -7.672370902996876E1  -1.662849308333975E1   1.695929593365064E2  
 7.568800000000000E9    -1.555060726288576E1   1.784791997510587E2  -5.050643262137712E1  -6.981377949703854E1  -5.054676313796971E1  -6.932952722762894E1  -1.667399110144938E1   1.695296446835839E2  
 7.569600000000000E9    -1.556740775083688E1   1.786161745309548E2  -4.823938070745874E1  -7.252847298826492E1  -4.831971195063268E1  -7.186833068334821E1  -1.670818739396768E1   1.696626153140550E2  
 7.570400000000000E9    -1.555350688807374E1   1.786681738224084E2  -4.657988575252995E1  -7.884977143190250E1  -4.654623071325207E1  -7.871979060357761E1  -1.673596629225439E1   1.698818510944914E2  
 7.571200000000000E9    -1.554825839537614E1   1.786491446300248E2  -4.534597676426900E1  -8.797797442686532E1  -4.531912161145534E1  -8.751762121011780E1  -1.672443350064834E1   1.701754274963214E2  
 7.572000000000000E9    -1.554097722237785E1   1.785951202911706E2  -4.452001608873756E1  -9.815513260131542E1  -4.445276218640030E1  -9.783988860641573E1  -1.668706665360231E1   1.701518104544504E2  
 7.572800000000000E9    -1.552542032256822E1   1.784594795792357E2  -4.401403986312944E1  -1.093727836043836E2  -4.399101687823647E1  -1.093515536768130E2  -1.665049438937147E1   1.701115751283879E2  
 7.573600000000000E9    -1.553438411782771E1   1.782362682983300E2  -4.380648690522464E1  -1.217045918713003E2  -4.379417963202046E1  -1.215921712865463E2  -1.660002640463520E1   1.698362044615794E2  
 7.574400000000000E9    -1.553883650294204E1   1.780309631496040E2  -4.397533397441376E1  -1.348551195770640E2  -4.403909680856152E1  -1.348470147938848E2  -1.659537494462329E1   1.695369846690591E2  
 7.575200000000000E9    -1.557034247950920E1   1.777202763863290E2  -4.462345105552809E1  -1.485803930964437E2  -4.463500378980100E1  -1.482694213226081E2  -1.659597061669885E1   1.690578852385724E2  
 7.576000000000000E9    -1.559842466300520E1   1.776273927982682E2  -4.567001097982270E1  -1.632581464232400E2  -4.570245255044897E1  -1.628027662373937E2  -1.662100144341959E1   1.686050292990859E2  
 7.576800000000000E9    -1.566263019291298E1   1.774746224698246E2  -4.733880409974300E1  -1.784836502864435E2  -4.729811911488955E1  -1.784764941055841E2  -1.663440788762738E1   1.683780861470971E2  
 7.577600000000000E9    -1.575213714369698E1   1.775313009325829E2  -4.952475540121984E1   1.626452074584002E2  -4.953013453749689E1   1.624472124542259E2  -1.668372240136332E1   1.680153130148006E2  
