#  HZ   S   DB   R     50.00 
! Rohde & Schwarz ZVA40 2Ports - Version 4.11 - 1145.1110k40 SN: 100216
! Date: 2025-05-18 21:18:21
! Measurements: S11 S21 S12 S22 
! 
 7.500000000000000E9    -1.631822379696572E1   1.780691287421450E2  -5.106110923422498E1   1.237977442675006E2  -5.103038335643933E1   1.226083111285239E2  -1.497432407041961E1  -1.776280191570990E2  
 7.500800000000000E9    -1.626457765076520E1   1.783066633396526E2  -5.507405426321910E1   1.207208845100971E2  -5.499010643588614E1   1.193288647116222E2  -1.497277698863469E1  -1.777342138805931E2  
 7.501600000000000E9    -1.620504478940898E1   1.784609712080618E2  -6.260179026794420E1   1.437427812041500E2  -6.288118213337322E1   1.414688844012694E2  -1.498274744531834E1  -1.777568847379066E2  
 7.502400000000000E9    -1.612327638958837E1   1.785730155179053E2  -5.956271568068838E1  -1.359961012053570E2  -5.977768749434073E1  -1.376363396845683E2  -1.498332130175809E1  -1.779931740222215E2  
 7.503200000000000E9    -1.604675073060858E1   1.783487917666052E2  -5.313544307750333E1  -1.281755068184881E2  -5.315012222643816E1  -1.290713111615007E2  -1.499969884746612E1  -1.781817436832422E2  
 7.504000000000000E9    -1.596881724116164E1   1.780578685660289E2  -4.946420821807616E1  -1.328653944670564E2  -4.951000986925958E1  -1.334472303170860E2  -1.502507588169832E1  -1.782392787374209E2  
 7.504800000000000E9    -1.591321994049624E1   1.776237646023138E2  -4.698560100993112E1  -1.401238996175646E2  -4.694178099149820E1  -1.406143149769442E2  -1.505395486081013E1  -1.783401304151626E2  
 7.505600000000000E9    -1.588951304216160E1   1.770525145289403E2  -4.517982339570841E1  -1.481027938523107E2  -4.513176095841172E1  -1.485184219815212E2  -1.508345865209077E1  -1.784030749152564E2  
 7.506400000000000E9    -1.586783010193253E1   1.766172142045539E2  -4.382320588281635E1  -1.564128629126184E2  -4.384295657031807E1  -1.571352314689583E2  -1.511495691060033E1  -1.783202765603389E2  
 7.507200000000000E9    -1.586997617951747E1   1.759923324675736E2  -4.279377199262280E1  -1.647287880176157E2  -4.275667758125343E1  -1.655975024581733E2  -1.511906317486639E1  -1.781933654553747E2  
 7.508000000000000E9    -1.590926171899954E1   1.756523496141398E2  -4.203099087468856E1  -1.732528302046712E2  -4.197016946178160E1  -1.741378047864742E2  -1.513398354025367E1  -1.780418301902278E2  
 7.508800000000000E9    -1.596669353099806E1   1.753987770457184E2  -4.140847464750362E1   1.775114150165054E2  -4.137087417952375E1   1.770173570323519E2  -1.511532613810913E1  -1.779441657522440E2  
 7.509600000000000E9    -1.599371756255296E1   1.751363574926865E2  -4.097592702095950E1   1.684570442724227E2  -4.095134467753501E1   1.679946047796593E2  -1.508209537334378E1  -1.780089718309606E2  
 7.510400000000000E9    -1.603865612793652E1   1.751017601367351E2  -4.081097685778153E1   1.595986088084966E2  -4.077084955536284E1   1.588795248408445E2  -1.504531661583688E1  -1.781580410610220E2  
 7.511200000000000E9    -1.604403757662380E1   1.750631332591579E2  -4.083823798802016E1   1.508650892943439E2  -4.079486099375250E1   1.501111283004497E2  -1.504538352470889E1  -1.784041150028627E2  
 7.512000000000000E9    -1.609587372045842E1   1.749734196378635E2  -4.110279031308172E1   1.425416507078960E2  -4.108903014874318E1   1.418654567270638E2  -1.506500140861294E1  -1.786452684198601E2  
 7.512800000000000E9    -1.608706002536636E1   1.748999050552995E2  -4.152130798729419E1   1.356138924050879E2  -4.152569451773864E1   1.350070321864532E2  -1.509170574606839E1  -1.787640345643994E2  
 7.513600000000000E9    -1.608245237725650E1   1.747818368541055E2  -4.197508750712524E1   1.298811244458819E2  -4.195947721386830E1   1.291101542763114E2  -1.511942527986274E1  -1.787854271778112E2  
 7.514400000000000E9    -1.611563659377367E1   1.747248543611551E2  -4.235190897660009E1   1.246378995029156E2  -4.232654389963193E1   1.241129198010754E2  -1.514403382778615E1  -1.786631125224587E2  
 7.515200000000000E9    -1.614426741361800E1   1.747005502216942E2  -4.280300213976761E1   1.187903004636746E2  -4.271863991328424E1   1.179184012137048E2  -1.512325292440230E1  -1.786784404703333E2  
 7.516000000000000E9    -1.616431426479891E1   1.746389410573159E2  -4.330618734143096E1   1.124292647747654E2  -4.327624066809509E1   1.117223282800067E2  -1.511265049074513E1  -1.788785999038825E2  
 7.516800000000000E9    -1.621054126660647E1   1.746746326768508E2  -4.416963582389643E1   1.058200177311770E2  -4.416367815959612E1   1.052575874000979E2  -1.510516707489954E1  -1.790423572076193E2  
 7.517600000000000E9    -1.622546790076115E1   1.748387002333202E2  -4.543391677459663E1   1.004781340462339E2  -4.545873587645814E1   9.948328625901219E1  -1.512479482315626E1  -1.791606574908816E2  
 7.518400000000000E9    -1.625459774957263E1   1.749139299172560E2  -4.718120444685789E1   9.775670644390657E1  -4.718906503177061E1   9.714377960367325E1  -1.516389951047967E1  -1.793385167673195E2  
 7.519200000000000E9    -1.622690429878536E1   1.752727077245675E2  -4.908497169186144E1   1.011464200769877E2  -4.901935531133346E1   1.005630260712232E2  -1.520260062624115E1  -1.794950741534777E2  
 7.520000000000000E9    -1.620874844851334E1   1.754019650498337E2  -5.054878918508159E1   1.105621346173893E2  -5.042140258694159E1   1.097355215799611E2  -1.522972622018421E1  -1.792705090292635E2  
 7.520800000000000E9    -1.617048447662578E1   1.755844655233991E2  -5.089947113046510E1   1.240037337297728E2  -5.073973467574731E1   1.238296236864533E2  -1.525846935565045E1  -1.792053148814822E2  
 7.521600000000000E9    -1.613302355319316E1   1.754740545274058E2  -4.990016743727897E1   1.348231587232912E2  -4.985914691726569E1   1.338004037189713E2  -1.526002457965391E1  -1.790395333805925E2  
 7.522400000000000E9    -1.609824461894884E1   1.754187259894873E2  -4.842754259152805E1   1.386115082744703E2  -4.837489540115759E1   1.374862235366934E2  -1.525488113893106E1  -1.788391138264164E2  
 7.523200000000000E9    -1.606191365038078E1   1.752648765107772E2  -4.731361804233154E1   1.372831534182195E2  -4.726629512219293E1   1.366635011301903E2  -1.521428093773002E1  -1.787735574780453E2  
 7.524000000000000E9    -1.603746174059747E1   1.750367480427903E2  -4.664823020504582E1   1.339036060005892E2  -4.662217987906676E1   1.331922488235639E2  -1.518003760697012E1  -1.788692031593164E2  
 7.524800000000000E9    -1.599872419911849E1   1.748196839334120E2  -4.623360382503848E1   1.305798843533534E2  -4.615078722160725E1   1.294182628338371E2  -1.514516290148104E1  -1.792758448668943E2  
 7.525600000000000E9    -1.598703967064236E1   1.744843723273404E2  -4.606812260083596E1   1.276591467272701E2  -4.607950261082847E1   1.265368298738548E2  -1.514593008720975E1  -1.796029240365685E2  
 7.526400000000000E9    -1.599229971137320E1   1.742137980086701E2  -4.599806289490974E1   1.252319689829663E2  -4.596140446991687E1   1.243564222879352E2  -1.516510653808813E1  -1.798742906608124E2  
 7.527200000000000E9    -1.597737874817329E1   1.738226960054889E2  -4.596880369514822E1   1.237821146586590E2  -4.600560784847303E1   1.231714616666178E2  -1.520481242831747E1   1.798251261208644E2  
 7.528000000000000E9    -1.599166453592464E1   1.735457341449637E2  -4.580550072982923E1   1.232613349980654E2  -4.582326204397920E1   1.226799810840471E2  -1.525774563337467E1   1.796579538191637E2  
 7.528800000000000E9    -1.601563991515274E1   1.734782958213829E2  -4.567095584036428E1   1.224706604105611E2  -4.561850395767809E1   1.216490028483860E2  -1.532092886964200E1   1.796269256179461E2  
 7.529600000000000E9    -1.602321298161984E1   1.730979866615997E2  -4.539567617501511E1   1.217876097840189E2  -4.542913674523745E1   1.206300368629126E2  -1.536286172427412E1   1.797348759853182E2  
 7.530400000000000E9    -1.605621929588546E1   1.728808889381002E2  -4.512003844288360E1   1.206397103480772E2  -4.514519743884605E1   1.200945416846010E2  -1.538760287904237E1   1.798925848437756E2  
 7.531200000000000E9    -1.609907157049204E1   1.725514138543130E2  -4.475977531717594E1   1.198207447532816E2  -4.476841128859734E1   1.190152859178657E2  -1.542149507547910E1   1.799830105910310E2  
 7.532000000000000E9    -1.613599302543878E1   1.724688849646537E2  -4.425719176503013E1   1.184607457171986E2  -4.427767803557381E1   1.175608972713518E2  -1.544064424170046E1  -1.798141645507304E2  
 7.532800000000000E9    -1.619401852958858E1   1.723763549290081E2  -4.374381095802632E1   1.159881930980762E2  -4.377470040524086E1   1.149752632985981E2  -1.544339870346314E1  -1.796692090655605E2  
 7.533600000000000E9    -1.622927897839591E1   1.723000751497389E2  -4.321436718971214E1   1.124970847246430E2  -4.320766097425874E1   1.113554423744984E2  -1.544066816343186E1  -1.795878891141327E2  
 7.534400000000000E9    -1.628038202415398E1   1.723286801389311E2  -4.272242475013996E1   1.077597488638278E2  -4.271102299656180E1   1.067930809652056E2  -1.543468096615515E1  -1.794718821253815E2  
 7.535200000000000E9    -1.633040415571519E1   1.726538529540926E2  -4.235621333736692E1   1.020511356081258E2  -4.236589798976947E1   1.008953770934537E2  -1.541656130961892E1  -1.794037594613031E2  
 7.536000000000000E9    -1.635358369614569E1   1.729850762874356E2  -4.218971173393899E1   9.517719050956890E1  -4.222056369050164E1   9.433523361110588E1  -1.540983670190018E1  -1.792641445688867E2  
 7.536800000000000E9    -1.634842843472247E1   1.732961554237312E2  -4.223943585178984E1   8.819333902106540E1  -4.224220385367135E1   8.742690955124839E1  -1.538979646516952E1  -1.794399354787711E2  
 7.537600000000000E9    -1.630514042974308E1   1.736951831804298E2  -4.257956324520865E1   8.166884990604579E1  -4.256686273075843E1   8.049878016790068E1  -1.538848169967655E1  -1.794181818956373E2  
 7.538400000000000E9    -1.624540917284867E1   1.738884174327590E2  -4.302490821344892E1   7.547293070471133E1  -4.308226918898967E1   7.462290483750719E1  -1.536109050245318E1  -1.795697659446542E2  
 7.539200000000000E9    -1.617792288874474E1   1.739255280187873E2  -4.371494518683214E1   7.021728180248947E1  -4.377554557918616E1   6.935414793088941E1  -1.538276289457336E1  -1.797346931402902E2  
 7.540000000000000E9    -1.610475071138821E1   1.736675516454504E2  -4.458694840371457E1   6.580551690240804E1  -4.459265647303567E1   6.526810526857281E1  -1.539922771390329E1  -1.799256758123461E2  
 7.540800000000000E9    -1.602714309603883E1   1.733428771629722E2  -4.556444532789836E1   6.352593893212693E1  -4.556982633888195E1   6.255335050604743E1  -1.540448005643518E1   1.798996147169330E2  
 7.541600000000000E9    -1.599499731363481E1   1.728419971288543E2  -4.653857554454974E1   6.354722446932600E1  -4.654382832370825E1   6.280753367260404E1  -1.544084769042328E1   1.799320740271199E2  
 7.542400000000000E9    -1.596630021522328E1   1.723110408658826E2  -4.733354878787616E1   6.506849103300438E1  -4.730697248193457E1   6.433782088405161E1  -1.544647482875559E1   1.798583420739327E2  
 7.543200000000000E9    -1.596362494023906E1   1.716075380862029E2  -4.790189493978892E1   6.755955123964614E1  -4.791577704070139E1   6.692579492336091E1  -1.545521745409265E1   1.796801659279416E2  
 7.544000000000000E9    -1.598249523390659E1   1.710612325115487E2  -4.841251747555371E1   6.996753573154105E1  -4.845833259125260E1   6.883232952245697E1  -1.548673722905891E1   1.797412936887024E2  
 7.544800000000000E9    -1.602003265212814E1   1.705412352856672E2  -4.904459719315553E1   7.315958112973452E1  -4.902461210299911E1   7.254805163218313E1  -1.551998857125947E1   1.796783173914357E2  
 7.545600000000000E9    -1.606772819258377E1   1.699521232807601E2  -4.936740646390218E1   7.922257149810601E1  -4.941423367006802E1   7.876144696416220E1  -1.554960469406271E1   1.797660953310589E2  
 7.546400000000000E9    -1.613137972288994E1   1.695985344150803E2  -4.931531684280189E1   8.752936136216724E1  -4.938693088325242E1   8.665905786187578E1  -1.556124853539927E1   1.799216413436098E2  
 7.547200000000000E9    -1.621243966375823E1   1.691515703856439E2  -4.861504580451017E1   9.471698504338524E1  -4.851136447714024E1   9.383591417203931E1  -1.554883660348722E1  -1.798765843160903E2  
 7.548000000000000E9    -1.629879228496891E1   1.690275978872737E2  -4.730211591573307E1   9.908384075084304E1  -4.732445841255408E1   9.843065272470977E1  -1.554891526207923E1  -1.797454793564268E2  
 7.548800000000000E9    -1.638644857312218E1   1.688819449236875E2  -4.592344700113841E1   9.983620939021179E1  -4.591304749110387E1   9.904964661549155E1  -1.551453632410632E1  -1.796633937135062E2  
 7.549600000000000E9    -1.647161850959778E1   1.689180246464049E2  -4.464215251971059E1   9.704135892590072E1  -4.466439126729911E1   9.644083829051461E1  -1.549489946720313E1  -1.796349709239999E2  
 7.550400000000000E9    -1.655060017161194E1   1.690076541489407E2  -4.353202063072347E1   9.244507339593544E1  -4.353519468245428E1   9.177504195160007E1  -1.545395344083443E1  -1.799081462997789E2  
 7.551200000000000E9    -1.661969831200155E1   1.693174563878324E2  -4.265086989899875E1   8.618179520265171E1  -4.267750954523495E1   8.540492079920777E1  -1.542793924733961E1   1.797431413951752E2  
 7.552000000000000E9    -1.669066575469798E1   1.697034789539240E2  -4.203174192165292E1   7.897383378112104E1  -4.202694350629753E1   7.838053992165111E1  -1.543891529884665E1   1.794819092072324E2  
 7.552800000000000E9    -1.672777229553395E1   1.701222350535057E2  -4.163784370922853E1   7.134264454360169E1  -4.164926775437242E1   7.063349032486809E1  -1.546640717333832E1   1.790130516298255E2  
 7.553600000000000E9    -1.674192031374461E1   1.706598579986865E2  -4.152235045906100E1   6.358989774544229E1  -4.156626058965164E1   6.275350489827488E1  -1.549833735567324E1   1.786761374075027E2  
 7.554400000000000E9    -1.673902820499266E1   1.712376062776977E2  -4.157002358470966E1   5.564147009231900E1  -4.160687571784671E1   5.502039673100668E1  -1.557067167140100E1   1.784851841672362E2  
 7.555200000000000E9    -1.670928248570018E1   1.716559969211170E2  -4.184125081562811E1   4.782819426746718E1  -4.185942575960983E1   4.731065736489823E1  -1.560929897744220E1   1.784770047440513E2  
 7.556000000000000E9    -1.667084091557845E1   1.720251813564582E2  -4.225239102010115E1   4.062139458333154E1  -4.229546875556662E1   3.977158658585692E1  -1.566263276568318E1   1.782906343475601E2  
 7.556800000000000E9    -1.658991383679178E1   1.722734740931254E2  -4.291620189438021E1   3.345350642585775E1  -4.293856299456078E1   3.295374153181358E1  -1.575800218423050E1   1.783512481835528E2  
 7.557600000000000E9    -1.652173298388513E1   1.724567761080961E2  -4.383620632496474E1   2.714015777649158E1  -4.386358398201885E1   2.635262694734458E1  -1.581065164269608E1   1.784996935443832E2  
 7.558400000000000E9    -1.643553525679087E1   1.724170683657431E2  -4.499907397757442E1   2.201270265589703E1  -4.502040519428248E1   2.139790419776510E1  -1.586738609533003E1   1.789130183831264E2  
 7.559200000000000E9    -1.635036657441714E1   1.722036561397388E2  -4.645608974830691E1   1.879341146037676E1  -4.646501353554526E1   1.842221755268280E1  -1.590666718167865E1   1.793801007802221E2  
 7.560000000000000E9    -1.628481242598290E1   1.719251651138295E2  -4.817574059035393E1   1.908354908920484E1  -4.823296194151083E1   1.862234698978800E1  -1.591705992513389E1   1.797911684499213E2  
 7.560800000000000E9    -1.622229655042316E1   1.714208800464146E2  -5.002916605145169E1   2.515057909139426E1  -4.992955955598612E1   2.364768549664470E1  -1.589217782067133E1  -1.798490495000638E2  
 7.561600000000000E9    -1.616952302487650E1   1.708681812559398E2  -5.118561817705015E1   3.662239533769610E1  -5.109605289430037E1   3.595466163969857E1  -1.584286349493771E1  -1.794583867023798E2  
 7.562400000000000E9    -1.615510990640351E1   1.701893162957464E2  -5.094327508094531E1   5.086117824814938E1  -5.090005673643340E1   4.963586059209840E1  -1.581297291446873E1  -1.792472638171809E2  
 7.563200000000000E9    -1.616943888390125E1   1.696154773829860E2  -4.961592134186084E1   5.885858016804630E1  -4.969184931470747E1   5.814844335986361E1  -1.576294009752182E1  -1.791424857364520E2  
 7.564000000000000E9    -1.618999385802763E1   1.690422348705152E2  -4.849693259051581E1   6.123111292003608E1  -4.844257715443180E1   6.007689284091870E1  -1.572740601775636E1  -1.791760561407917E2  
 7.564800000000000E9    -1.621587312136567E1   1.685316227558991E2  -4.767026358496825E1   6.077424776279170E1  -4.765075875319698E1   6.003690614188182E1  -1.567836571164392E1  -1.794038948130044E2  
 7.565600000000000E9    -1.627292192850840E1   1.681746547503386E2  -4.689678757718727E1   6.000522730604516E1  -4.695115956181498E1   5.961849494857773E1  -1.565700432045265E1  -1.794194678811130E2  
 7.566400000000000E9    -1.631243379276800E1   1.677675052736026E2  -4.624965260853784E1   5.859247787272562E1  -4.620476453906218E1   5.775015781259685E1  -1.565170675461862E1  -1.795641957860839E2  
 7.567200000000000E9    -1.635467561186770E1   1.676164330379945E2  -4.570374088024875E1   5.641715340625631E1  -4.571519169011339E1   5.599781507924666E1  -1.562614577746842E1  -1.797273287208083E2  
 7.568000000000000E9    -1.640473298343154E1   1.674560328925731E2  -4.524159965243369E1   5.380327615998601E1  -4.521069968759682E1   5.297722297290935E1  -1.562954087199725E1  -1.799490733819467E2  
 7.568800000000000E9    -1.646468447482420E1   1.673029225139433E2  -4.488515601782233E1   5.104514073853459E1  -4.485587915537463E1   5.051909114482204E1  -1.562559799149481E1   1.799354896744476E2  
 7.569600000000000E9    -1.654534586558125E1   1.670497530819837E2  -4.452200297437199E1   4.845759571017267E1  -4.447106520151622E1   4.760278193905643E1  -1.560599464672469E1   1.797891680286336E2  
 7.570400000000000E9    -1.660123509717553E1   1.668828982039612E2  -4.410973879234444E1   4.579815321168974E1  -4.412499460978191E1   4.466840066119410E1  -1.560524718020708E1   1.795978615542266E2  
 7.571200000000000E9    -1.665200566427256E1   1.667745475393567E2  -4.373199779084461E1   4.274098124613849E1  -4.365369174680014E1   4.145973209664552E1  -1.562070939231288E1   1.795195331348214E2  
 7.572000000000000E9    -1.672944517390219E1   1.667744930130071E2  -4.338437636010584E1   3.877906577452882E1  -4.335775044793897E1   3.797020821034547E1  -1.561225434575769E1   1.792794696443800E2  
 7.572800000000000E9    -1.677361129403277E1   1.669194953528977E2  -4.304771493429909E1   3.421134728713206E1  -4.306755603375618E1   3.318082860653581E1  -1.562230432834189E1   1.790362001131490E2  
 7.573600000000000E9    -1.682975667829775E1   1.673142234258513E2  -4.279955602057662E1   2.926429948123844E1  -4.281395451166634E1   2.854312330294604E1  -1.564611292663202E1   1.790321456695324E2  
 7.574400000000000E9    -1.686231361845911E1   1.675335926820340E2  -4.267015731798566E1   2.354519074557454E1  -4.267888722863992E1   2.323003437484071E1  -1.565472958613318E1   1.787929212779785E2  
 7.575200000000000E9    -1.687894291884179E1   1.677321769586265E2  -4.261532838923514E1   1.752520275974778E1  -4.265082222932343E1   1.703850550479355E1  -1.567486195222418E1   1.786848822173702E2  
 7.576000000000000E9    -1.688802676338486E1   1.680432221273752E2  -4.281449902475066E1   1.135116945750553E1  -4.280831788392265E1   1.071748995043577E1  -1.569214516602999E1   1.785738576940191E2  
 7.576800000000000E9    -1.686518027779562E1   1.683663604293099E2  -4.314443334064609E1   5.205368033005919  -4.311767426236024E1   4.498975596996176  -1.572353877449031E1   1.784657441969290E2  
 7.577600000000000E9    -1.686373354109230E1   1.684882107626071E2  -4.363042460837955E1  -6.502465476618466E-1  -4.361483677185545E1  -1.611033639452386  -1.575600436849559E1   1.784640137654460E2  
