#  HZ   S   DB   R     50.00 
! Rohde & Schwarz ZVA40 2Ports - Version 4.11 - 1145.1110k40 SN: 100216
! Date: 2025-04-29 18:24:26
! Measurements: S11 S21 S12 S22 
! 
 7.500000000000000E9    -1.473145504859450E1  -1.760499060636449E2  -4.633261615472801E1  -8.942469574661784E1  -4.634235606035229E1  -8.925821225284932E1  -1.577610226309225E1   1.773154490409748E2  
 7.500800000000000E9    -1.472460311244583E1  -1.765396679799077E2  -4.851350887992170E1  -1.114934831252303E2  -4.846271757234050E1  -1.108963152705954E2  -1.580061931036602E1   1.765910134764743E2  
 7.501600000000000E9    -1.473279331653622E1  -1.768191100211588E2  -5.081179942433015E1  -1.416054042019282E2  -5.077806936719458E1  -1.410849268329970E2  -1.584592479153377E1   1.759230537173545E2  
 7.502400000000000E9    -1.476303791023697E1  -1.772479020332245E2  -5.200027580832329E1   1.778777779629780E2  -5.191467152918146E1   1.781605582933234E2  -1.589150308131739E1   1.754935303884435E2  
 7.503200000000000E9    -1.482189066082554E1  -1.776212381286696E2  -5.067299854476945E1   1.371970602025721E2  -5.066946503466110E1   1.381452909132638E2  -1.597368092111783E1   1.751719709988493E2  
 7.504000000000000E9    -1.487941892057409E1  -1.779691228406321E2  -4.825680208711405E1   1.083357940366700E2  -4.829787313670635E1   1.086038374238076E2  -1.605180298655511E1   1.749253492308787E2  
 7.504800000000000E9    -1.497689654097501E1  -1.779043446862348E2  -4.615576029974091E1   8.621742535413040E1  -4.603369682232678E1   8.660668088092960E1  -1.613616438479110E1   1.748371694817976E2  
 7.505600000000000E9    -1.506337680013659E1  -1.778519846866053E2  -4.430261959507750E1   6.856112842646800E1  -4.421023190985195E1   6.946095738079863E1  -1.621817720309323E1   1.748968577834737E2  
 7.506400000000000E9    -1.512376842899386E1  -1.775537529496098E2  -4.291069104837627E1   5.271008420509507E1  -4.285488590433067E1   5.339606154293711E1  -1.628453038334895E1   1.750795006163639E2  
 7.507200000000000E9    -1.518388526147004E1  -1.770333240702933E2  -4.195726631802451E1   3.827845712714120E1  -4.187363057163221E1   3.892593098488423E1  -1.634448223245745E1   1.755807383346601E2  
 7.508000000000000E9    -1.520269881439753E1  -1.764660832968004E2  -4.130207933362478E1   2.445153416072437E1  -4.127847594816719E1   2.486247612156088E1  -1.635713321729186E1   1.760010441040989E2  
 7.508800000000000E9    -1.516556946399729E1  -1.760580273068306E2  -4.095230133904267E1   1.124485998344293E1  -4.093510510342946E1   1.196586164334276E1  -1.634832760220462E1   1.764698905494223E2  
 7.509600000000000E9    -1.510108754509115E1  -1.755382174761642E2  -4.094273686270937E1  -9.643895453502593E-1  -4.086627139653412E1  -4.399251521376943E-1  -1.632383069230096E1   1.768816757784207E2  
 7.510400000000000E9    -1.500743277752783E1  -1.753756246877493E2  -4.113652176434479E1  -1.274028723668396E1  -4.110087473354070E1  -1.209829312309066E1  -1.627364498051610E1   1.771281071347912E2  
 7.511200000000000E9    -1.492754041358565E1  -1.754588649136631E2  -4.163558002392271E1  -2.357683073465127E1  -4.156507362660001E1  -2.313306662350926E1  -1.620932997123510E1   1.772260920235142E2  
 7.512000000000000E9    -1.485889026149686E1  -1.757816989772008E2  -4.239446828693829E1  -3.349282073912137E1  -4.231022151674882E1  -3.327713872384258E1  -1.614045890037616E1   1.771943497817165E2  
 7.512800000000000E9    -1.481638707488085E1  -1.761865582758754E2  -4.343430125361194E1  -4.178921885088677E1  -4.333049785264589E1  -4.131468231274356E1  -1.608254474770225E1   1.769034719909465E2  
 7.513600000000000E9    -1.479110508764949E1  -1.766998642540746E2  -4.470774891500728E1  -4.764850978596301E1  -4.461113815266792E1  -4.772826596559304E1  -1.603422294958372E1   1.764191113306138E2  
 7.514400000000000E9    -1.479802050748351E1  -1.772125535875048E2  -4.604937740238295E1  -5.099313163949662E1  -4.600212425938890E1  -5.048292912903052E1  -1.602479213602795E1   1.757785818266772E2  
 7.515200000000000E9    -1.481741035837131E1  -1.777849498641898E2  -4.725335454941504E1  -5.117791813261275E1  -4.724842377580869E1  -5.091344031362508E1  -1.605454385530447E1   1.752947468555090E2  
 7.516000000000000E9    -1.487403882835035E1  -1.781032275870618E2  -4.840514646109886E1  -4.909638453653221E1  -4.828692750943526E1  -4.857657910662517E1  -1.610637928845904E1   1.748893172264393E2  
 7.516800000000000E9    -1.494070576676221E1  -1.784578427980288E2  -4.911348632353884E1  -4.482443263615657E1  -4.910957911958071E1  -4.505181909629979E1  -1.615535847103787E1   1.745631405939219E2  
 7.517600000000000E9    -1.499663407313091E1  -1.784804094402178E2  -4.931921341440022E1  -3.921206985975304E1  -4.927619914729210E1  -3.873273611471050E1  -1.624475958947831E1   1.745312408336842E2  
 7.518400000000000E9    -1.506338876100053E1  -1.783961548804247E2  -4.885567259614996E1  -3.413049604000015E1  -4.881188523796050E1  -3.389773977401544E1  -1.630308956953526E1   1.745908508652160E2  
 7.519200000000000E9    -1.510259778538205E1  -1.782055152293154E2  -4.794325273890183E1  -3.283927983249995E1  -4.784668039216361E1  -3.346075105652590E1  -1.638041512306442E1   1.747239742753233E2  
 7.520000000000000E9    -1.510753653096681E1  -1.780226032796889E2  -4.707240350702590E1  -3.673312540016611E1  -4.699952962067478E1  -3.623865741090016E1  -1.642670082699806E1   1.751130475472865E2  
 7.520800000000000E9    -1.512667986185162E1  -1.778159652068092E2  -4.638945123167591E1  -4.335916276119738E1  -4.640999849017472E1  -4.323093518587237E1  -1.643563585920538E1   1.755536191719642E2  
 7.521600000000000E9    -1.511233761679917E1  -1.777367559508615E2  -4.614890237828390E1  -5.194122186730012E1  -4.610740316512726E1  -5.133016004951303E1  -1.638878853977764E1   1.760075907448664E2  
 7.522400000000000E9    -1.508513327083552E1  -1.776828052826759E2  -4.625687357585527E1  -6.134955858766794E1  -4.619645217798901E1  -6.120337859336242E1  -1.636478538253038E1   1.762478180411080E2  
 7.523200000000000E9    -1.505149304406832E1  -1.779897013511036E2  -4.682745350227833E1  -7.247057834378782E1  -4.678492769313538E1  -7.223254396779039E1  -1.629684207086126E1   1.764039330318593E2  
 7.524000000000000E9    -1.503148553682433E1  -1.781807615546636E2  -4.781018929321361E1  -8.357280798361516E1  -4.782509440802750E1  -8.325318000891512E1  -1.622002353772601E1   1.762840353163237E2  
 7.524800000000000E9    -1.503818466649366E1  -1.785772232658664E2  -4.946911489644780E1  -9.573845589607983E1  -4.946580939032420E1  -9.541044875263970E1  -1.616223402854000E1   1.758944748775821E2  
 7.525600000000000E9    -1.508077179444241E1  -1.788587302253670E2  -5.210019226458938E1  -1.096398277808498E2  -5.204138457365540E1  -1.094554088710942E2  -1.614374558696972E1   1.755410766292175E2  
 7.526400000000000E9    -1.514070562821085E1  -1.792912344051849E2  -5.661631848387192E1  -1.273282905830241E2  -5.654181325726797E1  -1.282298820972842E2  -1.614346144397749E1   1.751509898572624E2  
 7.527200000000000E9    -1.521831327661344E1  -1.793510879594752E2  -6.502500674042197E1  -1.784657617656861E2  -6.525253264212861E1  -1.783804184053963E2  -1.617743794441767E1   1.746128889807112E2  
 7.528000000000000E9    -1.531456478356889E1  -1.793129133375291E2  -6.028954897453378E1   7.350767760467988E1  -6.009837850382975E1   7.373364960977332E1  -1.621070040722658E1   1.743513623359553E2  
 7.528800000000000E9    -1.535583899550239E1  -1.789508708155534E2  -5.357438176044100E1   4.800146814331728E1  -5.349667602448646E1   4.739272567830930E1  -1.625109910091330E1   1.742724443442488E2  
 7.529600000000000E9    -1.540872969922207E1  -1.785001279733152E2  -4.976977528380135E1   3.253556470313914E1  -4.969876871655760E1   3.187734042952651E1  -1.629168534464329E1   1.742007895587142E2  
 7.530400000000000E9    -1.542896162039432E1  -1.780501123598774E2  -4.717698488401329E1   1.878306913385666E1  -4.715955103888911E1   1.885399027908992E1  -1.631341917881829E1   1.740749082638242E2  
 7.531200000000000E9    -1.540997711415547E1  -1.775384760223262E2  -4.527646166005626E1   6.080785712127748  -4.531188685611658E1   6.252270261543714  -1.636203812459379E1   1.742011952772112E2  
 7.532000000000000E9    -1.536289079937061E1  -1.772361150464418E2  -4.394632420859875E1  -7.233912835570935  -4.393590556593085E1  -6.773737599294115  -1.638206525131119E1   1.744291975145695E2  
 7.532800000000000E9    -1.531807104250415E1  -1.768601722720694E2  -4.302763756389963E1  -1.990200592850146E1  -4.304109443205106E1  -2.002210868342173E1  -1.637399236445161E1   1.746978223764228E2  
 7.533600000000000E9    -1.524434780753716E1  -1.767492490369218E2  -4.246264877924697E1  -3.291828952529685E1  -4.245531323064257E1  -3.302212190524072E1  -1.635391016293864E1   1.746910242119684E2  
 7.534400000000000E9    -1.517281453065194E1  -1.767651966863831E2  -4.222717477244737E1  -4.576069545298179E1  -4.216776949386257E1  -4.590903834486191E1  -1.629176791971608E1   1.748121202089572E2  
 7.535200000000000E9    -1.509849404935849E1  -1.769749832581120E2  -4.224880555899560E1  -5.890317133821648E1  -4.227047130218563E1  -5.878648092596669E1  -1.627064217976487E1   1.746985987891841E2  
 7.536000000000000E9    -1.503797906484497E1  -1.772051246002892E2  -4.259614641700743E1  -7.183934673271915E1  -4.256659142315974E1  -7.168142240763646E1  -1.622457533691467E1   1.744012436784039E2  
 7.536800000000000E9    -1.498749341063738E1  -1.777555149516395E2  -4.324139549563139E1  -8.539038894483150E1  -4.325197651907822E1  -8.495148143852248E1  -1.618927392398717E1   1.740484298731614E2  
 7.537600000000000E9    -1.495614468406618E1  -1.782129253616831E2  -4.423509572832855E1  -9.874104977422357E1  -4.427315935927100E1  -9.856000684402019E1  -1.620641728051138E1   1.735369619846911E2  
 7.538400000000000E9    -1.495133738476367E1  -1.788234984212922E2  -4.573585441918056E1  -1.133329224833865E2  -4.569361243823808E1  -1.130265734141097E2  -1.622590678413945E1   1.730607246597948E2  
 7.539200000000000E9    -1.496492238486550E1  -1.794343818262584E2  -4.786249190209983E1  -1.292143357821715E2  -4.789030009215026E1  -1.289985497190009E2  -1.626080953480230E1   1.726638636293161E2  
 7.540000000000000E9    -1.498716610112676E1  -1.799942738267903E2  -5.104382355802771E1  -1.495330912093461E2  -5.106761832612219E1  -1.494344450474578E2  -1.631572190869145E1   1.724585580220709E2  
 7.540800000000000E9    -1.506769102822741E1   1.795528357752555E2  -5.606616554348747E1   1.771070933341235E2  -5.599859568146992E1   1.768578054428059E2  -1.637777666974166E1   1.723098884296279E2  
 7.541600000000000E9    -1.514820868753482E1   1.792176331066547E2  -5.898885074517064E1   9.934396028258104E1  -5.895109814958397E1   9.910602923772626E1  -1.642194446810807E1   1.724028911038870E2  
 7.542400000000000E9    -1.525087331236741E1   1.791256060128135E2  -5.358289303485583E1   4.386795959767832E1  -5.352620415999776E1   4.437256901654763E1  -1.649189522675455E1   1.724994210678885E2  
 7.543200000000000E9    -1.531603952723954E1   1.791260719398353E2  -4.947794397986632E1   1.864602601990482E1  -4.952203483656276E1   1.923732153976873E1  -1.651001901868277E1   1.727172676868611E2  
 7.544000000000000E9    -1.538756218620456E1   1.794301239155709E2  -4.683368563271127E1   6.952378838544724E-1  -4.684639802930632E1   8.936866432107991E-1  -1.654628052742672E1   1.730116039732078E2  
 7.544800000000000E9    -1.543320765764576E1   1.796748767041158E2  -4.511588308274639E1  -1.460961063353305E1  -4.511668889759573E1  -1.427088445646576E1  -1.654122052983548E1   1.733105580369329E2  
 7.545600000000000E9    -1.546489384722095E1  -1.799382787413737E2  -4.388592741826371E1  -2.875520281484945E1  -4.387429792638803E1  -2.840466024363743E1  -1.649780614359078E1   1.735611494656882E2  
 7.546400000000000E9    -1.545569602065127E1  -1.797671547839028E2  -4.310066851295469E1  -4.196786166986283E1  -4.308892325586359E1  -4.149718645987900E1  -1.641857249135997E1   1.734653050939874E2  
 7.547200000000000E9    -1.544017941107361E1  -1.794903760230746E2  -4.257058153849032E1  -5.472160157756592E1  -4.257115932898083E1  -5.430428277359515E1  -1.635499565259357E1   1.734949184734093E2  
 7.548000000000000E9    -1.540509300099282E1  -1.793413058490116E2  -4.233026466029309E1  -6.756165134114076E1  -4.234420674415588E1  -6.718181272788637E1  -1.631435493096935E1   1.731743300058107E2  
 7.548800000000000E9    -1.536268636213482E1  -1.793674062379053E2  -4.244120319696598E1  -8.097389587136753E1  -4.242077395574610E1  -8.045688053150674E1  -1.627402256009354E1   1.726894500541389E2  
 7.549600000000000E9    -1.533593392764787E1  -1.795296605335768E2  -4.284549572490450E1  -9.415918055335457E1  -4.286721213003523E1  -9.387808779994309E1  -1.626266687995478E1   1.722031833984303E2  
 7.550400000000000E9    -1.532948189742872E1  -1.799446527339146E2  -4.368688799505694E1  -1.079501029540599E2  -4.369053162615243E1  -1.073378363490669E2  -1.626996255726994E1   1.716210191914055E2  
 7.551200000000000E9    -1.533185399902086E1   1.796801383141647E2  -4.502000180817749E1  -1.211566544757390E2  -4.498755258731121E1  -1.206210197656091E2  -1.629897675682188E1   1.711570095779167E2  
 7.552000000000000E9    -1.538182151888624E1   1.792992629690416E2  -4.687130090159242E1  -1.338977788027366E2  -4.683552988189065E1  -1.333431811960767E2  -1.634591766692953E1   1.706531028737954E2  
 7.552800000000000E9    -1.546658623099569E1   1.791380605493949E2  -4.953089396254444E1  -1.464063548590275E2  -4.940884731178900E1  -1.454585422914846E2  -1.639746543386103E1   1.702111113230985E2  
 7.553600000000000E9    -1.552850884949240E1   1.791360723893237E2  -5.329452034687211E1  -1.587697727360431E2  -5.335775654970959E1  -1.577797069005394E2  -1.648666406428125E1   1.698793172091256E2  
 7.554400000000000E9    -1.557603764686090E1   1.794584537796969E2  -6.042941675524615E1  -1.707777240392930E2  -6.036887464848474E1  -1.711444868710136E2  -1.658737007612377E1   1.697567528734681E2  
 7.555200000000000E9    -1.561547306811421E1   1.797596084253464E2  -7.307519503354294E1   1.886162237785963E1  -7.229417740466727E1   2.474980061030557E1  -1.669105066120217E1   1.697478667700463E2  
 7.556000000000000E9    -1.564475148223458E1  -1.798192609061899E2  -5.741934014230961E1  -5.443027296196895  -5.752183053197241E1  -6.209716311671534  -1.677809328102313E1   1.700476087181217E2  
 7.556800000000000E9    -1.563453118921313E1  -1.794084594517240E2  -5.232011642411778E1  -1.744947111251529E1  -5.220631863858475E1  -1.710871136609888E1  -1.683729225667081E1   1.705788168451022E2  
 7.557600000000000E9    -1.561039608895807E1  -1.790723305001678E2  -4.937636155991562E1  -2.974462416377848E1  -4.932621229995030E1  -2.891489515930217E1  -1.687398123088814E1   1.710964339440573E2  
 7.558400000000000E9    -1.556139148753537E1  -1.788093612385954E2  -4.736826661165992E1  -4.079408116692082E1  -4.737205455036310E1  -4.088013176282205E1  -1.684741360614970E1   1.716082487963555E2  
 7.559200000000000E9    -1.550246286681687E1  -1.786369582722160E2  -4.602823127407771E1  -5.303408584555473E1  -4.601270793288713E1  -5.225494542050411E1  -1.680613565591301E1   1.720656507607336E2  
 7.560000000000000E9    -1.542589446778702E1  -1.786612118334566E2  -4.522371950099628E1  -6.462347007716997E1  -4.518241179352924E1  -6.418994152307842E1  -1.673685215351612E1   1.723540988500976E2  
 7.560800000000000E9    -1.533645914586182E1  -1.788356123363869E2  -4.484881298402519E1  -7.656197553302215E1  -4.484870168127227E1  -7.606640232959299E1  -1.667450715919456E1   1.724731713943894E2  
 7.561600000000000E9    -1.526845669538369E1  -1.792163480382850E2  -4.485792823388817E1  -8.748118965791367E1  -4.489307047101610E1  -8.724141431281575E1  -1.660935391082516E1   1.722054386067142E2  
 7.562400000000000E9    -1.523076415309040E1  -1.797844215450250E2  -4.528145540332275E1  -9.794728432634422E1  -4.522245479516704E1  -9.775061582465973E1  -1.655375194944063E1   1.719168916034906E2  
 7.563200000000000E9    -1.522180720199448E1   1.795703662599948E2  -4.599447773050381E1  -1.069902188272377E2  -4.600526074631968E1  -1.067140475036689E2  -1.650189766949242E1   1.715456603320846E2  
 7.564000000000000E9    -1.524562616969423E1   1.790471551194064E2  -4.714997834587037E1  -1.149592549780329E2  -4.710053838571530E1  -1.147540837255844E2  -1.650797670480912E1   1.711167874286415E2  
 7.564800000000000E9    -1.529671370135455E1   1.786860112947210E2  -4.852766755753565E1  -1.210878499938765E2  -4.855463962425306E1  -1.207315121556640E2  -1.649875905124250E1   1.707489649461098E2  
 7.565600000000000E9    -1.537489974216896E1   1.784024184283475E2  -5.053067332004056E1  -1.242698154828188E2  -5.053195626426880E1  -1.239660567384315E2  -1.650960957773751E1   1.703002682897441E2  
 7.566400000000000E9    -1.543488113453730E1   1.781515497724274E2  -5.313285543392774E1  -1.200621006679000E2  -5.309079846836599E1  -1.192704756555866E2  -1.654208449078872E1   1.700201427234057E2  
 7.567200000000000E9    -1.548088430957615E1   1.780656879552193E2  -5.495353182120543E1  -1.000673316521572E2  -5.507715584155398E1  -9.988089298128845E1  -1.659987879886943E1   1.697703072891843E2  
 7.568000000000000E9    -1.553411981455582E1   1.783000751836462E2  -5.356730303660506E1  -7.612594129528451E1  -5.362863116386367E1  -7.728648957880124E1  -1.662295435383919E1   1.695926371504037E2  
 7.568800000000000E9    -1.554966931353349E1   1.785355216703872E2  -5.087988132536099E1  -6.936705275644114E1  -5.081843359950342E1  -6.865208071057552E1  -1.667061845004942E1   1.695262306973995E2  
 7.569600000000000E9    -1.556473031956637E1   1.786335723184078E2  -4.848370841554131E1  -7.125844855127413E1  -4.848645999605092E1  -7.057956411813368E1  -1.669644848844344E1   1.696463070255757E2  
 7.570400000000000E9    -1.554851655442493E1   1.786402578137708E2  -4.667041726051161E1  -7.797910680481351E1  -4.670497803348710E1  -7.772800126228063E1  -1.673907709105087E1   1.698754001077670E2  
 7.571200000000000E9    -1.553904106514194E1   1.787345461644682E2  -4.537768681984497E1  -8.680133492138438E1  -4.537925297154864E1  -8.638171454593667E1  -1.672738100541795E1   1.700937607305009E2  
 7.572000000000000E9    -1.552812311006945E1   1.785712686193606E2  -4.449957141461496E1  -9.707446450310177E1  -4.450564888156175E1  -9.650213625598812E1  -1.668137653004539E1   1.701564457916664E2  
 7.572800000000000E9    -1.552295530745504E1   1.784390791881230E2  -4.399571736306768E1  -1.084822713376790E2  -4.394976885618300E1  -1.080187340741726E2  -1.665322355297549E1   1.701047201004883E2  
 7.573600000000000E9    -1.552557089587798E1   1.782944615755661E2  -4.376108654967125E1  -1.205574079971349E2  -4.375902408836418E1  -1.202658411972635E2  -1.660385828593645E1   1.698457104491662E2  
 7.574400000000000E9    -1.552900125482292E1   1.781699944339830E2  -4.394238740434130E1  -1.336634763404203E2  -4.389744331458760E1  -1.334903903071765E2  -1.658621856061983E1   1.695280479870864E2  
 7.575200000000000E9    -1.554986232068874E1   1.777380544432521E2  -4.447839885244480E1  -1.475669645711902E2  -4.450593122952634E1  -1.473264584947617E2  -1.658529900538944E1   1.691081937239613E2  
 7.576000000000000E9    -1.558909293565291E1   1.776081405293222E2  -4.553220950664392E1  -1.620526887665429E2  -4.550333750080701E1  -1.615956886292115E2  -1.660997154506683E1   1.685725098593252E2  
 7.576800000000000E9    -1.563505062766747E1   1.773788007809201E2  -4.703344574015509E1  -1.775701603266580E2  -4.705389406222464E1  -1.773846012186083E2  -1.661752001035617E1   1.683485460700583E2  
 7.577600000000000E9    -1.572093867257600E1   1.773487361608357E2  -4.922822709106739E1   1.637214988290039E2  -4.919086075751135E1   1.638134525685335E2  -1.667458335091484E1   1.679864777472415E2  
