#  HZ   S   DB   R     50.00 
! Rohde & Schwarz ZVA40 2Ports - Version 4.11 - 1145.1110k40 SN: 100216
! Date: 2025-04-29 18:39:01
! Measurements: S11 S21 S12 S22 
! 
 7.500000000000000E9    -1.478291516833089E1  -1.746337197442843E2  -4.041716208578910E1  -1.285932901963038E2  -4.037239540493108E1  -1.280571116074777E2  -1.565787975996540E1   1.753096723972652E2  
 7.500800000000000E9    -1.478686354878684E1  -1.751066602830371E2  -4.062523385841881E1  -1.410254413455750E2  -4.058042191615954E1  -1.403097745638355E2  -1.569102880498164E1   1.745395988970716E2  
 7.501600000000000E9    -1.479127337410007E1  -1.754437636699227E2  -4.099085833861670E1  -1.534577776823667E2  -4.096415954002102E1  -1.528342282909737E2  -1.575131462961219E1   1.739046102805558E2  
 7.502400000000000E9    -1.482651134081837E1  -1.759357725076975E2  -4.153435083456966E1  -1.663741134679462E2  -4.150037916914068E1  -1.659637826817417E2  -1.581181409558683E1   1.734142566394610E2  
 7.503200000000000E9    -1.486858223972453E1  -1.762814119257786E2  -4.226588736914654E1  -1.799164106593386E2  -4.221435427010317E1  -1.793346121092156E2  -1.590499208965903E1   1.731047315693633E2  
 7.504000000000000E9    -1.494416441862303E1  -1.765162116031775E2  -4.323791107769111E1   1.655135832665134E2  -4.322443156663805E1   1.662008099395858E2  -1.599983601378046E1   1.727716432485631E2  
 7.504800000000000E9    -1.503875416315193E1  -1.764896525006892E2  -4.448780641241326E1   1.492397822948496E2  -4.446616886914794E1   1.496221575330955E2  -1.609180728148344E1   1.727225355510910E2  
 7.505600000000000E9    -1.511538545766159E1  -1.763403176279277E2  -4.609047137691537E1   1.306211889796773E2  -4.602085228975874E1   1.311940235398079E2  -1.617655652188961E1   1.727850560497231E2  
 7.506400000000000E9    -1.518735616933790E1  -1.760531845881794E2  -4.799833755781246E1   1.075628850860734E2  -4.805726980853368E1   1.082773105843614E2  -1.624695811028772E1   1.729783538632662E2  
 7.507200000000000E9    -1.523853282870729E1  -1.754163921819301E2  -5.024325880960960E1   7.788613244189897E1  -5.013177172718543E1   7.875982278775271E1  -1.632069827675964E1   1.734034664289160E2  
 7.508000000000000E9    -1.523446716568116E1  -1.747778862538115E2  -5.170409477264978E1   3.887548090457423E1  -5.163973594706246E1   3.908121485258388E1  -1.635985274545166E1   1.738981571963992E2  
 7.508800000000000E9    -1.519430482418832E1  -1.743521700550127E2  -5.137437524090302E1  -1.420346994020994  -5.124175019274504E1  -4.474612111368284E-1  -1.635769747617229E1   1.743835415103131E2  
 7.509600000000000E9    -1.510111170116563E1  -1.737860155264876E2  -4.975231360360817E1  -3.414153548747661E1  -4.965340832334930E1  -3.423842258886182E1  -1.632740779576557E1   1.747686942179246E2  
 7.510400000000000E9    -1.500932737842390E1  -1.736646126052024E2  -4.790248220482806E1  -5.836640712784518E1  -4.792478581948507E1  -5.814663888889986E1  -1.629565219238037E1   1.750258594937559E2  
 7.511200000000000E9    -1.493503489211763E1  -1.737299717262048E2  -4.673483245163480E1  -7.794258091482587E1  -4.661572606024726E1  -7.741470880174182E1  -1.623424916747651E1   1.752139465995388E2  
 7.512000000000000E9    -1.487286091358826E1  -1.739755316065537E2  -4.573677300113682E1  -9.443159451683502E1  -4.567776550772739E1  -9.378403369258767E1  -1.616338157631902E1   1.751693203157835E2  
 7.512800000000000E9    -1.480567748543687E1  -1.744927954552248E2  -4.526996074401615E1  -1.089046776458108E2  -4.515865772327194E1  -1.082815289875277E2  -1.608904291104172E1   1.749536394890044E2  
 7.513600000000000E9    -1.477595837082153E1  -1.749629259727437E2  -4.512206140111229E1  -1.213776096645269E2  -4.501381467436528E1  -1.207815209901640E2  -1.605367207308933E1   1.743805662446519E2  
 7.514400000000000E9    -1.477370254254351E1  -1.754376377554322E2  -4.517866269148280E1  -1.321025894331476E2  -4.511651406665747E1  -1.314871555268294E2  -1.603448437676140E1   1.738212678620591E2  
 7.515200000000000E9    -1.479253108477147E1  -1.758014223031078E2  -4.543650037293721E1  -1.410188487007721E2  -4.536379713271254E1  -1.405631476160490E2  -1.606654353110991E1   1.731898041449998E2  
 7.516000000000000E9    -1.484357450787070E1  -1.762483702282529E2  -4.575243071518974E1  -1.485293123919177E2  -4.569466720131348E1  -1.483510114506248E2  -1.611830213842442E1   1.728152132130850E2  
 7.516800000000000E9    -1.489560231479991E1  -1.766301765206951E2  -4.622903892912154E1  -1.556580912369382E2  -4.617329284061530E1  -1.550670828593796E2  -1.618694350896267E1   1.724012197234558E2  
 7.517600000000000E9    -1.494880081734831E1  -1.766559654941012E2  -4.684258490219325E1  -1.611412090704819E2  -4.675507101543997E1  -1.603163482970695E2  -1.626858797135272E1   1.722639975381198E2  
 7.518400000000000E9    -1.499585120597590E1  -1.764955222722358E2  -4.767374715702879E1  -1.647304422663043E2  -4.754169129241236E1  -1.644633849431055E2  -1.635228751579909E1   1.721548477530945E2  
 7.519200000000000E9    -1.502632153280557E1  -1.762855190771838E2  -4.846455936185937E1  -1.647615931246260E2  -4.840886325929452E1  -1.645171183206141E2  -1.643264696659513E1   1.723853002988812E2  
 7.520000000000000E9    -1.502396818993546E1  -1.761506887951945E2  -4.883819708955221E1  -1.606205631241088E2  -4.883099340517025E1  -1.600985589361695E2  -1.650194176287576E1   1.727100327899950E2  
 7.520800000000000E9    -1.501327679804590E1  -1.759592751081924E2  -4.852684536885520E1  -1.564889669317344E2  -4.844156908330493E1  -1.561823523317184E2  -1.652812528432500E1   1.730384329817242E2  
 7.521600000000000E9    -1.498307406858267E1  -1.758674870794145E2  -4.751926195550384E1  -1.539963521744950E2  -4.743829437076811E1  -1.534105248024785E2  -1.650852442328558E1   1.736883010444567E2  
 7.522400000000000E9    -1.495384210436775E1  -1.758880759766390E2  -4.623451106999732E1  -1.550440974731651E2  -4.629881641558107E1  -1.549483611928969E2  -1.645926617687249E1   1.739046563720641E2  
 7.523200000000000E9    -1.493880611764599E1  -1.762165906814879E2  -4.509305787480137E1  -1.599015233808195E2  -4.501279093106536E1  -1.600549197870915E2  -1.641438173179266E1   1.739602117131436E2  
 7.524000000000000E9    -1.491132011765369E1  -1.764984429705007E2  -4.408951845719726E1  -1.670652154144566E2  -4.402405865683125E1  -1.671800254611828E2  -1.634328626627529E1   1.739073954851438E2  
 7.524800000000000E9    -1.490846728797767E1  -1.768929127561896E2  -4.328577576585697E1  -1.759859567980158E2  -4.325171524291243E1  -1.758787885121075E2  -1.630812872895847E1   1.734528593639908E2  
 7.525600000000000E9    -1.493785829624786E1  -1.772395916592104E2  -4.276733916514267E1   1.741741857147201E2  -4.274646540646984E1   1.743406845887505E2  -1.629795858229367E1   1.731008944099298E2  
 7.526400000000000E9    -1.499487887634055E1  -1.775631468212294E2  -4.248320986149091E1   1.633527073200627E2  -4.245722405424785E1   1.633893944330721E2  -1.630865951854948E1   1.726342198417270E2  
 7.527200000000000E9    -1.506621613528068E1  -1.776708280228443E2  -4.246693548980921E1   1.520728553836995E2  -4.239915155167525E1   1.523345284971609E2  -1.634913103165660E1   1.721587732892299E2  
 7.528000000000000E9    -1.515698994065921E1  -1.776157552490587E2  -4.265863336224846E1   1.404985989236611E2  -4.260716398101972E1   1.407451978468642E2  -1.640793463600096E1   1.718049272447281E2  
 7.528800000000000E9    -1.519523128493103E1  -1.772984505027848E2  -4.306273277461222E1   1.285774390401777E2  -4.302584906750457E1   1.288673313888051E2  -1.646624037604774E1   1.717552900422571E2  
 7.529600000000000E9    -1.523670913337231E1  -1.769125723386921E2  -4.380703229353731E1   1.162577480109042E2  -4.375035839344811E1   1.164135294933187E2  -1.653775323194052E1   1.715674357095910E2  
 7.530400000000000E9    -1.523319273054160E1  -1.764388837160200E2  -4.478566753440774E1   1.034455284244383E2  -4.479376330164145E1   1.036762711174465E2  -1.656823236169971E1   1.716303632376682E2  
 7.531200000000000E9    -1.522577849459498E1  -1.761158105357353E2  -4.621349278037182E1   8.947487810887277E1  -4.629580140291613E1   8.966803128734080E1  -1.666094183620259E1   1.718394796879773E2  
 7.532000000000000E9    -1.517398053413719E1  -1.757898087173079E2  -4.855136884272871E1   7.380396236746832E1  -4.839582623193294E1   7.370859528143706E1  -1.670124908456640E1   1.722353598157934E2  
 7.532800000000000E9    -1.512228089031129E1  -1.754339747613834E2  -5.168375474631103E1   5.562536197025528E1  -5.168238446588439E1   5.543222344947063E1  -1.669779644881251E1   1.726966656633508E2  
 7.533600000000000E9    -1.504645101628403E1  -1.753767920471021E2  -5.718432583493355E1   2.617638316497393E1  -5.707984868775669E1   2.635597868423795E1  -1.667506939979594E1   1.728547123344074E2  
 7.534400000000000E9    -1.497707585853035E1  -1.754825358168814E2  -6.191584259003339E1  -5.727870408393572E1  -6.195304743454027E1  -5.789333229676846E1  -1.663020395042659E1   1.731165278166381E2  
 7.535200000000000E9    -1.490767661284681E1  -1.756534509480780E2  -5.535199521924531E1  -1.188788437022017E2  -5.526157412378345E1  -1.183318708859702E2  -1.659829322784145E1   1.731064229824017E2  
 7.536000000000000E9    -1.483053314065178E1  -1.759570654587035E2  -5.083149096812868E1  -1.432208648598308E2  -5.080652094900928E1  -1.426616248288633E2  -1.655028711725461E1   1.728570167749762E2  
 7.536800000000000E9    -1.478487261088500E1  -1.765748159093311E2  -4.792441613029271E1  -1.601886163446389E2  -4.790465302136371E1  -1.600706584667363E2  -1.652736016152822E1   1.726098301339880E2  
 7.537600000000000E9    -1.475756412366192E1  -1.771182095039719E2  -4.602824066029515E1  -1.756928722828865E2  -4.601753655447887E1  -1.750966364886135E2  -1.652494921149211E1   1.723039951596240E2  
 7.538400000000000E9    -1.475354611992529E1  -1.776347297890607E2  -4.464016116509911E1   1.704835290859966E2  -4.462937129752819E1   1.704555948464438E2  -1.654006867628793E1   1.718773744452337E2  
 7.539200000000000E9    -1.476924043673010E1  -1.782914455009563E2  -4.366186925903513E1   1.568481490391058E2  -4.370590760997458E1   1.568501463592293E2  -1.657720687091775E1   1.714789991344434E2  
 7.540000000000000E9    -1.480348774860618E1  -1.788396525114659E2  -4.309589364418348E1   1.433355225837951E2  -4.311478211960159E1   1.433801014526853E2  -1.663220791512311E1   1.713838128798526E2  
 7.540800000000000E9    -1.487512392874210E1  -1.792031824862652E2  -4.284920406082208E1   1.292794161741406E2  -4.284082242136031E1   1.296198513750584E2  -1.666847867146144E1   1.712561779246852E2  
 7.541600000000000E9    -1.495834684685081E1  -1.795220571259918E2  -4.292559094616585E1   1.159900661236663E2  -4.293838789042325E1   1.159494855000776E2  -1.672416659829412E1   1.713584302219111E2  
 7.542400000000000E9    -1.504847626579494E1  -1.796515400807890E2  -4.336667155915824E1   1.021950505239980E2  -4.339924303102717E1   1.024409546625654E2  -1.677461974056214E1   1.715006109404449E2  
 7.543200000000000E9    -1.511503589214186E1  -1.794204311945606E2  -4.418491349187789E1   8.883782613969846E1  -4.420936803824712E1   8.922168902876338E1  -1.678888592865544E1   1.717211082471702E2  
 7.544000000000000E9    -1.517083352587738E1  -1.792751487994720E2  -4.541361281218437E1   7.515143688756471E1  -4.538097510763507E1   7.557837907223079E1  -1.681661921276773E1   1.719399747886819E2  
 7.544800000000000E9    -1.519957474628275E1  -1.789173781340978E2  -4.712076952908669E1   6.198748104328008E1  -4.705982389679481E1   6.229055273607735E1  -1.680085589146229E1   1.722353134688809E2  
 7.545600000000000E9    -1.520577429071709E1  -1.784904634212116E2  -4.965611035692663E1   4.817490395542045E1  -4.968226353395988E1   4.927226551556966E1  -1.677260364773570E1   1.723787974718436E2  
 7.546400000000000E9    -1.517200788963063E1  -1.783974006248901E2  -5.351463505853982E1   3.310252745799040E1  -5.350693195230045E1   3.286494267547126E1  -1.670876544668407E1   1.723810237523055E2  
 7.547200000000000E9    -1.514138991278755E1  -1.782437465107367E2  -6.117153518841317E1   5.755614309034751  -6.133514556969774E1   5.921943670942215  -1.666725373157667E1   1.721443210314095E2  
 7.548000000000000E9    -1.509603359448564E1  -1.781924089861737E2  -6.321940237974923E1  -1.249437547117176E2  -6.357362747684557E1  -1.237793302589529E2  -1.663466210469203E1   1.718582443586010E2  
 7.548800000000000E9    -1.503858408742087E1  -1.782572243782920E2  -5.376913052044295E1  -1.618610846717716E2  -5.377198682305173E1  -1.617605466469100E2  -1.661925522073166E1   1.713621064176405E2  
 7.549600000000000E9    -1.500917415210834E1  -1.785797893988905E2  -4.928473773741930E1  -1.796963031216838E2  -4.932618033572641E1  -1.795459178173059E2  -1.662904808214029E1   1.707680602215107E2  
 7.550400000000000E9    -1.499627497240898E1  -1.791988378832096E2  -4.647406572613108E1   1.648481167084890E2  -4.643199295145127E1   1.655326684400165E2  -1.665951556441637E1   1.702902765921294E2  
 7.551200000000000E9    -1.499611374171598E1  -1.796063662030572E2  -4.460566883124253E1   1.506025607679949E2  -4.460354265395448E1   1.511098702873034E2  -1.669106166196426E1   1.699054023870792E2  
 7.552000000000000E9    -1.505135699676703E1   1.799082101369439E2  -4.333118500024690E1   1.370132312114495E2  -4.327679699104962E1   1.375905434902100E2  -1.674936012000666E1   1.694373350301700E2  
 7.552800000000000E9    -1.512680181410583E1   1.796540368958471E2  -4.247321194075120E1   1.243160071661927E2  -4.242466428165489E1   1.246834082720792E2  -1.684888160977614E1   1.690801335140474E2  
 7.553600000000000E9    -1.518167103216601E1   1.795967288636019E2  -4.192459523130983E1   1.120429459073945E2  -4.194815620093380E1   1.127120455077260E2  -1.695891317789590E1   1.689705356907926E2  
 7.554400000000000E9    -1.524017651230200E1   1.798589510488006E2  -4.169338942528520E1   1.004520336050139E2  -4.162319657511981E1   1.010129458866121E2  -1.708261586767748E1   1.690059467149941E2  
 7.555200000000000E9    -1.525980265884276E1  -1.799319095104231E2  -4.155963674214853E1   8.922996087746732E1  -4.155045988547077E1   8.972546803604952E1  -1.721110023575568E1   1.692240300050974E2  
 7.556000000000000E9    -1.529620709445351E1  -1.797113014838413E2  -4.165814669879521E1   7.797173116576832E1  -4.162156511928341E1   7.824612872555876E1  -1.730503899457205E1   1.698276981059278E2  
 7.556800000000000E9    -1.529802058422798E1  -1.793462653411602E2  -4.195222361379071E1   6.706092409472056E1  -4.194588562223795E1   6.715342354604111E1  -1.736239548006964E1   1.705779838107920E2  
 7.557600000000000E9    -1.529213525290337E1  -1.790974747511818E2  -4.254050084058292E1   5.612724904806974E1  -4.251515598912492E1   5.626271751370940E1  -1.738496481367691E1   1.713597191367198E2  
 7.558400000000000E9    -1.525153920631453E1  -1.788416156721780E2  -4.341155073899548E1   4.528496064142965E1  -4.344580381250717E1   4.573408057793473E1  -1.736441231167523E1   1.721826841086379E2  
 7.559200000000000E9    -1.519248861905914E1  -1.787902870332499E2  -4.470215540301671E1   3.570171535305659E1  -4.466205766779492E1   3.622806344544956E1  -1.730064232377744E1   1.726988884095993E2  
 7.560000000000000E9    -1.512332405837993E1  -1.788065499314975E2  -4.646196439566330E1   2.757931492698338E1  -4.643251350414257E1   2.769932728399379E1  -1.719597472263702E1   1.732217525193458E2  
 7.560800000000000E9    -1.503880392328341E1  -1.790390195760077E2  -4.879783703775854E1   2.299177014512620E1  -4.873911845118484E1   2.409397147766434E1  -1.709671715248589E1   1.734208553091623E2  
 7.561600000000000E9    -1.498890960686112E1  -1.793579192497347E2  -5.152937954919296E1   2.614559648076330E1  -5.161792191594505E1   2.705251866569196E1  -1.702534371306745E1   1.733076437657760E2  
 7.562400000000000E9    -1.494156745006538E1  -1.799903638515183E2  -5.374358131067346E1   4.181170314464308E1  -5.392502504167317E1   4.226952983846574E1  -1.694020504516776E1   1.729208653196030E2  
 7.563200000000000E9    -1.495815793918837E1   1.794326013827302E2  -5.368606064389753E1   6.377304238791383E1  -5.369584154023426E1   6.403791738086308E1  -1.688417613143137E1   1.725510150829615E2  
 7.564000000000000E9    -1.496505805072998E1   1.788607041948668E2  -5.166625848306816E1   7.547424689359686E1  -5.147017126262759E1   7.546627359768121E1  -1.686667440213111E1   1.720776467261241E2  
 7.564800000000000E9    -1.501995410454922E1   1.785939516832261E2  -4.950500775552808E1   7.722442406773530E1  -4.957501973308337E1   7.803704226563325E1  -1.687186377783585E1   1.717036343100527E2  
 7.565600000000000E9    -1.509142453395430E1   1.782701500983359E2  -4.785427844941033E1   7.351444152119528E1  -4.783814697088528E1   7.405305492696586E1  -1.686758902061186E1   1.714232575797841E2  
 7.566400000000000E9    -1.514972799623318E1   1.779785236236315E2  -4.653533649182394E1   6.725044815695850E1  -4.654811335359280E1   6.734548576161939E1  -1.690261284055489E1   1.709805683755074E2  
 7.567200000000000E9    -1.519077767851094E1   1.779344024992635E2  -4.564749442490057E1   5.796825402129836E1  -4.566769490208441E1   5.824332307786092E1  -1.694772549645607E1   1.707827044615340E2  
 7.568000000000000E9    -1.524048792365770E1   1.780455296314713E2  -4.526725484444088E1   4.791638860172160E1  -4.524052003619319E1   4.796586031443280E1  -1.699412201669551E1   1.707193759627158E2  
 7.568800000000000E9    -1.524006823973386E1   1.783233679582665E2  -4.528866366331967E1   3.691337720531803E1  -4.520621027607369E1   3.730770339513843E1  -1.703146612192589E1   1.706537413031866E2  
 7.569600000000000E9    -1.525441114524078E1   1.783037094860569E2  -4.570050286294131E1   2.635395883436284E1  -4.566352046484176E1   2.649117899043996E1  -1.706689251946994E1   1.708721215457400E2  
 7.570400000000000E9    -1.524395318599530E1   1.782932213852681E2  -4.657853154679218E1   1.549439215651868E1  -4.653368183638722E1   1.590427066309502E1  -1.708392896035191E1   1.712195957823993E2  
 7.571200000000000E9    -1.522982244299688E1   1.782610858515063E2  -4.807722448279443E1   4.676822975620075  -4.803383118487646E1   5.128795864735848  -1.704911684335675E1   1.714200271011272E2  
 7.572000000000000E9    -1.520885484393217E1   1.780072103477778E2  -5.037606147317705E1  -4.721455937950800  -5.035784527355794E1  -4.108982410131212  -1.700215993809454E1   1.715288796042581E2  
 7.572800000000000E9    -1.521148304212660E1   1.778999620846652E2  -5.455078242561091E1  -1.264266868642283E1  -5.440659481608594E1  -1.207102271951132E1  -1.696949177518038E1   1.714811682364760E2  
 7.573600000000000E9    -1.521557042157506E1   1.776439457813618E2  -6.323581050421345E1   1.548420827389024  -6.306876081387070E1  -1.679353516214231  -1.691024244302940E1   1.712081212346661E2  
 7.574400000000000E9    -1.523447111969882E1   1.773900298385259E2  -5.996161459972230E1   1.033463032016398E2  -6.000816753215980E1   1.040520263991121E2  -1.688569829660077E1   1.708607724789213E2  
 7.575200000000000E9    -1.525006103202166E1   1.770137565256324E2  -5.245017326886646E1   1.054498302982001E2  -5.246786880145233E1   1.061753413707378E2  -1.688258032990417E1   1.703361388406424E2  
 7.576000000000000E9    -1.529721948939722E1   1.767516392252329E2  -4.836524725981370E1   9.684224315552197E1  -4.833624407614918E1   9.705849945849174E1  -1.691320656881780E1   1.698673041064542E2  
 7.576800000000000E9    -1.535117589155132E1   1.765281581013743E2  -4.576417902721158E1   8.634204145331086E1  -4.578250682333596E1   8.671396787875374E1  -1.694785865579746E1   1.696300011527633E2  
 7.577600000000000E9    -1.543028874264314E1   1.765560200881861E2  -4.386837053643581E1   7.555082494337981E1  -4.388666827097384E1   7.562209601113696E1  -1.701271147580853E1   1.692730857329061E2  
