#  HZ   S   DB   R     50.00 
! Rohde & Schwarz ZVA40 2Ports - Version 4.11 - 1145.1110k40 SN: 100216
! Date: 2025-04-29 18:40:13
! Measurements: S11 S21 S12 S22 
! 
 7.500000000000000E9    -1.479583294063720E1  -1.746830922931353E2  -4.033656334819624E1  -1.283221159395942E2  -4.029702047225933E1  -1.276130686450347E2  -1.564012971927872E1   1.752809520091313E2  
 7.500800000000000E9    -1.478284376924142E1  -1.751812372012017E2  -4.051185589651622E1  -1.407756837335133E2  -4.046631512810490E1  -1.403083185539678E2  -1.568482387618444E1   1.745795834152701E2  
 7.501600000000000E9    -1.480740422041176E1  -1.755393455427618E2  -4.090473541649964E1  -1.533191233831563E2  -4.091072795695744E1  -1.525287030699286E2  -1.573981417384624E1   1.739486287785561E2  
 7.502400000000000E9    -1.482867638230757E1  -1.759921953398578E2  -4.148842251181350E1  -1.661690751405021E2  -4.142371538326842E1  -1.656047501178717E2  -1.579464307413837E1   1.735005969234348E2  
 7.503200000000000E9    -1.487846417773530E1  -1.762171625149549E2  -4.224128140589974E1  -1.797642437500244E2  -4.220592931179429E1  -1.790990672007168E2  -1.588985065178990E1   1.731310745715991E2  
 7.504000000000000E9    -1.495829533325717E1  -1.766311109416661E2  -4.321405798256338E1   1.658423309927877E2  -4.320089721597897E1   1.663665268751001E2  -1.598016927629567E1   1.728410707587808E2  
 7.504800000000000E9    -1.505023870214464E1  -1.765369689201092E2  -4.452443586605279E1   1.495397722456233E2  -4.449050274853903E1   1.503016204226642E2  -1.607344654550958E1   1.727703904351666E2  
 7.505600000000000E9    -1.512910597037891E1  -1.763516884240600E2  -4.618793223148661E1   1.312491942688285E2  -4.609387112661937E1   1.314786189888498E2  -1.615587575090276E1   1.728636810030908E2  
 7.506400000000000E9    -1.520432677463872E1  -1.759371679233883E2  -4.820164949887636E1   1.084688900208285E2  -4.818304922962027E1   1.086413928621571E2  -1.623243107820329E1   1.729539694694027E2  
 7.507200000000000E9    -1.524053460805293E1  -1.755060836294822E2  -5.038520250878126E1   7.752968715969188E1  -5.043614580644394E1   7.773303506790757E1  -1.630663968307739E1   1.734985109653819E2  
 7.508000000000000E9    -1.524493345574250E1  -1.747612828809788E2  -5.197153397502247E1   3.700884576054224E1  -5.183482316686401E1   3.813971688394545E1  -1.633683454964827E1   1.738961666442534E2  
 7.508800000000000E9    -1.518994126079910E1  -1.743225474493165E2  -5.126120868032700E1  -4.043867818690925  -5.135076752816158E1  -3.440410796384736  -1.633463349234470E1   1.744063789233655E2  
 7.509600000000000E9    -1.511312865270060E1  -1.738326231182680E2  -4.942537004606101E1  -3.629145662836113E1  -4.951633978303205E1  -3.653772941883256E1  -1.631200753378538E1   1.747350136938804E2  
 7.510400000000000E9    -1.502278522257544E1  -1.737063362203463E2  -4.777761919045501E1  -6.074930659803442E1  -4.767544234766063E1  -5.943874492997971E1  -1.627742908631168E1   1.749849673939300E2  
 7.511200000000000E9    -1.494193924867188E1  -1.737893954992402E2  -4.641576581944268E1  -7.885635411836041E1  -4.632052651392670E1  -7.847934048759851E1  -1.622031399887364E1   1.751858703767597E2  
 7.512000000000000E9    -1.487064470937317E1  -1.740696866910587E2  -4.543971239559222E1  -9.553402288288510E1  -4.549813739233470E1  -9.499777484590440E1  -1.615238678576451E1   1.751761049035507E2  
 7.512800000000000E9    -1.481705576120491E1  -1.744439520072858E2  -4.500937586012972E1  -1.097872763792295E2  -4.499895231048931E1  -1.090621860430708E2  -1.607531092240144E1   1.749339601033290E2  
 7.513600000000000E9    -1.478161546959605E1  -1.749603231688413E2  -4.487233719731501E1  -1.218452067689790E2  -4.479230241166052E1  -1.214413501084664E2  -1.603410249803876E1   1.743855408677696E2  
 7.514400000000000E9    -1.478110707108297E1  -1.753898224014750E2  -4.495981351438009E1  -1.323252745394329E2  -4.491411134628476E1  -1.324194555563342E2  -1.602189025981428E1   1.737352848560397E2  
 7.515200000000000E9    -1.481755554913820E1  -1.759233349956429E2  -4.526370056712229E1  -1.413272936525891E2  -4.514525619042718E1  -1.407206923790721E2  -1.605773785477286E1   1.731586260340663E2  
 7.516000000000000E9    -1.485709421532485E1  -1.763190131919903E2  -4.556556590776070E1  -1.492224029804792E2  -4.549732217318326E1  -1.488580642695508E2  -1.610902364470801E1   1.727735092850675E2  
 7.516800000000000E9    -1.490805042594453E1  -1.765965913758971E2  -4.600879058764974E1  -1.556928864789320E2  -4.596555112321503E1  -1.557670651442631E2  -1.616979127587228E1   1.723211873407926E2  
 7.517600000000000E9    -1.496321493608301E1  -1.766488182146331E2  -4.665911898084246E1  -1.615557652662148E2  -4.662331433875573E1  -1.610521227972932E2  -1.626019033009355E1   1.722455867041678E2  
 7.518400000000000E9    -1.501137693981421E1  -1.765080160215669E2  -4.742413444915034E1  -1.647793011974827E2  -4.740885530868956E1  -1.644629371179115E2  -1.633818770122621E1   1.721911465472639E2  
 7.519200000000000E9    -1.502703909788388E1  -1.763153598196212E2  -4.829731381266313E1  -1.644453094843977E2  -4.827258326919447E1  -1.643536030348761E2  -1.642260376091183E1   1.724009345460886E2  
 7.520000000000000E9    -1.503724701757745E1  -1.761075506231712E2  -4.875358224908351E1  -1.607142178071866E2  -4.863665326570330E1  -1.607577058815562E2  -1.649514111932898E1   1.727061935581753E2  
 7.520800000000000E9    -1.502423892261391E1  -1.759625818460834E2  -4.840772353815390E1  -1.561339400370492E2  -4.838688976803763E1  -1.558230415302857E2  -1.651270408500771E1   1.731270068123184E2  
 7.521600000000000E9    -1.498777422792499E1  -1.759124212005060E2  -4.740870942616368E1  -1.537432660071397E2  -4.736184211160326E1  -1.532388457476399E2  -1.648890950187482E1   1.736157734250957E2  
 7.522400000000000E9    -1.495582701449422E1  -1.759834630713550E2  -4.610212388547077E1  -1.550282191551276E2  -4.611106605822090E1  -1.548481941042983E2  -1.644827563535112E1   1.738993763262725E2  
 7.523200000000000E9    -1.493043005649840E1  -1.762315013992536E2  -4.491681173635386E1  -1.598233347189594E2  -4.486827431260630E1  -1.597158966356000E2  -1.639984773741517E1   1.739335210489686E2  
 7.524000000000000E9    -1.491652069065586E1  -1.764894953802642E2  -4.394625553805824E1  -1.671998204542844E2  -4.385825315763734E1  -1.669355502149008E2  -1.633254277174225E1   1.738003721890226E2  
 7.524800000000000E9    -1.492933640874757E1  -1.769643014846510E2  -4.317117231789131E1  -1.760175237547287E2  -4.311814147223572E1  -1.758187722596473E2  -1.628839956657656E1   1.734091943412221E2  
 7.525600000000000E9    -1.494100093549813E1  -1.772456329386124E2  -4.262415871800083E1   1.740801528947730E2  -4.261210566459990E1   1.741208199516623E2  -1.628512934039890E1   1.729816103635630E2  
 7.526400000000000E9    -1.499366245753136E1  -1.775458462010666E2  -4.235635838461467E1   1.633620434885221E2  -4.234189980450030E1   1.635067697163574E2  -1.629971056486572E1   1.725274834925595E2  
 7.527200000000000E9    -1.507124557274711E1  -1.776124782732992E2  -4.232245371108265E1   1.520838133095015E2  -4.232546732065848E1   1.521687468805833E2  -1.633656084922263E1   1.721708354914322E2  
 7.528000000000000E9    -1.514834901747635E1  -1.774773548768390E2  -4.252306366335085E1   1.405017417550841E2  -4.255618826787995E1   1.406382408830577E2  -1.640345061102899E1   1.717380680967207E2  
 7.528800000000000E9    -1.519944488413400E1  -1.773573419438851E2  -4.301176742777625E1   1.287788419550659E2  -4.302361627497256E1   1.289634653358633E2  -1.645956138759131E1   1.717126656593355E2  
 7.529600000000000E9    -1.524084510270963E1  -1.769582231815034E2  -4.378284147267902E1   1.164393770312430E2  -4.374716114415364E1   1.163829984560656E2  -1.651909816805549E1   1.715205815027799E2  
 7.530400000000000E9    -1.524546803728674E1  -1.763968632150460E2  -4.483681951510042E1   1.038730774835599E2  -4.486151684453601E1   1.039287133246603E2  -1.656819326003489E1   1.716559507962186E2  
 7.531200000000000E9    -1.522333282984793E1  -1.760637338998926E2  -4.636809203802002E1   8.959251667852865E1  -4.635309565034405E1   9.011731630745699E1  -1.664220011434084E1   1.718590992374410E2  
 7.532000000000000E9    -1.518017759240295E1  -1.758161307988778E2  -4.864444022981680E1   7.401675719816537E1  -4.864012572316153E1   7.492521241199172E1  -1.668778578475201E1   1.721653838968065E2  
 7.532800000000000E9    -1.512487113938440E1  -1.754148290607177E2  -5.205823059114547E1   5.595997556860456E1  -5.203982451272292E1   5.537367263619094E1  -1.668181256701326E1   1.726294726178143E2  
 7.533600000000000E9    -1.504563412851332E1  -1.753138210163725E2  -5.782859283249228E1   2.504082402511909E1  -5.809523583204280E1   2.578871775862033E1  -1.667489061094496E1   1.728198788609883E2  
 7.534400000000000E9    -1.496124393245748E1  -1.754552149921330E2  -6.202926309848309E1  -6.517851150901542E1  -6.226442892499660E1  -6.785818259421829E1  -1.662211234659333E1   1.730721648166405E2  
 7.535200000000000E9    -1.490653407680786E1  -1.755755534092700E2  -5.488377616829190E1  -1.219997288804715E2  -5.490793807701935E1  -1.226332048049812E2  -1.657864000600145E1   1.730184831341910E2  
 7.536000000000000E9    -1.483345042573463E1  -1.759952076167355E2  -5.063462847335462E1  -1.441277151351131E2  -5.047775953713792E1  -1.445259796266209E2  -1.654205631571843E1   1.728048654658172E2  
 7.536800000000000E9    -1.477892906708331E1  -1.765477607791418E2  -4.769130575871134E1  -1.610776823828899E2  -4.769042449568822E1  -1.601465126156876E2  -1.652043169290311E1   1.725927256667724E2  
 7.537600000000000E9    -1.475474294777150E1  -1.770997544643240E2  -4.576924021289801E1  -1.756749245303023E2  -4.577008191130494E1  -1.753027675135926E2  -1.651793733472365E1   1.721901861067860E2  
 7.538400000000000E9    -1.475293531955492E1  -1.777022183877185E2  -4.442635917467285E1   1.707825527988746E2  -4.441028345582736E1   1.709004818700510E2  -1.651434617841103E1   1.717664633963430E2  
 7.539200000000000E9    -1.476580016533236E1  -1.783070716191058E2  -4.348783872488845E1   1.570294421760549E2  -4.345145126796167E1   1.571848943688960E2  -1.657261523166112E1   1.713532694754453E2  
 7.540000000000000E9    -1.480713551321768E1  -1.789125094198318E2  -4.290845556339441E1   1.434128371896723E2  -4.291213331465858E1   1.436639508644747E2  -1.662014011248503E1   1.712581969827645E2  
 7.540800000000000E9    -1.488301864886362E1  -1.792721911358985E2  -4.269442491503067E1   1.297792559750503E2  -4.269664553996724E1   1.300193932425104E2  -1.666875618866100E1   1.712288549627900E2  
 7.541600000000000E9    -1.495741215564441E1  -1.795745380590365E2  -4.280726947998608E1   1.162869001331737E2  -4.281320219539263E1   1.164439041689286E2  -1.672742313010373E1   1.712888238595031E2  
 7.542400000000000E9    -1.505371975370678E1  -1.796052208421918E2  -4.321590992247398E1   1.024444114244609E2  -4.325010988953831E1   1.031465780053936E2  -1.675745835914299E1   1.714437245612591E2  
 7.543200000000000E9    -1.511467572410468E1  -1.794260755314564E2  -4.405090947718667E1   8.928496709612605E1  -4.413091118060320E1   8.961147984617105E1  -1.677390950971023E1   1.716137683380617E2  
 7.544000000000000E9    -1.516690935985404E1  -1.791573226703202E2  -4.537529565134652E1   7.585078900628946E1  -4.532301258966368E1   7.606639364095994E1  -1.680766404452373E1   1.718413495188860E2  
 7.544800000000000E9    -1.520139034797088E1  -1.788740750716549E2  -4.713626404286733E1   6.297313725104274E1  -4.712318314897309E1   6.335580564500715E1  -1.678764693834830E1   1.721528504634359E2  
 7.545600000000000E9    -1.521110584080691E1  -1.785286706181436E2  -4.973065861329931E1   4.968535382478314E1  -4.969587262640683E1   4.965182974683119E1  -1.673869053270262E1   1.723086274892150E2  
 7.546400000000000E9    -1.517739721550911E1  -1.783767345180540E2  -5.391471028784669E1   3.439556782990984E1  -5.386327784191757E1   3.528452537554894E1  -1.670713189779241E1   1.722323646960578E2  
 7.547200000000000E9    -1.514992845208878E1  -1.781709613206012E2  -6.214572018588625E1   6.110818554633108  -6.206152799290823E1   1.005228668909430E1  -1.665293872833331E1   1.719975303561633E2  
 7.548000000000000E9    -1.509689794534859E1  -1.781609544009715E2  -6.279239206399269E1  -1.340964842262443E2  -6.236663556550501E1  -1.358706899878489E2  -1.662696553385297E1   1.717466106122521E2  
 7.548800000000000E9    -1.503746390695520E1  -1.782727326502780E2  -5.327621701806821E1  -1.641697309100426E2  -5.350522938286611E1  -1.643586422198404E2  -1.660437164795783E1   1.712320711643929E2  
 7.549600000000000E9    -1.501013819080963E1  -1.785692870006548E2  -4.888073329360107E1   1.792743975585840E2  -4.894434449941314E1   1.793358567193160E2  -1.662390325261090E1   1.707469555043241E2  
 7.550400000000000E9    -1.499450563558323E1  -1.790865960878339E2  -4.621770210407502E1   1.640610841635426E2  -4.618097063492643E1   1.644906792129267E2  -1.665986332332681E1   1.702371103619181E2  
 7.551200000000000E9    -1.499285470128419E1  -1.795883164684707E2  -4.438127293205121E1   1.498556060994080E2  -4.435976805881327E1   1.503109117557224E2  -1.669495387199396E1   1.697633405547738E2  
 7.552000000000000E9    -1.505167543731558E1   1.799282754896102E2  -4.312718989117068E1   1.368513458629373E2  -4.311313915239705E1   1.371987002199983E2  -1.676276503307560E1   1.694485136309871E2  
 7.552800000000000E9    -1.511760913605683E1   1.797021606166927E2  -4.224603123329977E1   1.238304261658972E2  -4.231332150500121E1   1.242819598434839E2  -1.684269978077360E1   1.690132478374507E2  
 7.553600000000000E9    -1.518263363926566E1   1.796363482161495E2  -4.179099939455491E1   1.120369944781428E2  -4.178474706447524E1   1.122218089504265E2  -1.695234193495471E1   1.688730192850750E2  
 7.554400000000000E9    -1.523697013236051E1   1.798455860451625E2  -4.152083984944911E1   1.008644632025846E2  -4.153008200714652E1   1.010379205244841E2  -1.707926063027059E1   1.690085951073611E2  
 7.555200000000000E9    -1.528008286061103E1  -1.799901874867891E2  -4.145061274378502E1   8.934661577446867E1  -4.143096675851241E1   8.987451571885060E1  -1.719530790745115E1   1.691692310067090E2  
 7.556000000000000E9    -1.529713649311060E1  -1.796394320312307E2  -4.154832150628315E1   7.844487510348306E1  -4.155510210813873E1   7.883999507347797E1  -1.730464993285176E1   1.698506387195615E2  
 7.556800000000000E9    -1.529620478543738E1  -1.793149134181390E2  -4.186154874596149E1   6.718693436212168E1  -4.188702445888482E1   6.783091979514946E1  -1.735830302975385E1   1.705332636438955E2  
 7.557600000000000E9    -1.527940163548949E1  -1.790693293531146E2  -4.248591096844892E1   5.659411245434006E1  -4.246736910439518E1   5.705551371628383E1  -1.739156392207969E1   1.714028808478570E2  
 7.558400000000000E9    -1.523873436519546E1  -1.788304587775634E2  -4.339303931804184E1   4.633877407063599E1  -4.337306236290179E1   4.678757527024732E1  -1.735529111943956E1   1.721319841723066E2  
 7.559200000000000E9    -1.518919038308777E1  -1.787279560905368E2  -4.468162013060881E1   3.681157390910735E1  -4.465000486094683E1   3.709561917466456E1  -1.729535720308419E1   1.727572718146055E2  
 7.560000000000000E9    -1.511585744106722E1  -1.788140110819313E2  -4.646834275202852E1   2.913250770504866E1  -4.645517170875660E1   2.938655124736912E1  -1.719922519558678E1   1.732047643631339E2  
 7.560800000000000E9    -1.504290064357757E1  -1.790262792656759E2  -4.877045487458688E1   2.590625438077075E1  -4.871780155565211E1   2.576031167981000E1  -1.710522865651084E1   1.734048684098170E2  
 7.561600000000000E9    -1.497554494572031E1  -1.794129988848163E2  -5.140333662793663E1   2.960112285404217E1  -5.138989970333556E1   2.961921049223063E1  -1.700200615199646E1   1.733162501662723E2  
 7.562400000000000E9    -1.494135356847418E1   1.799594020733814E2  -5.346189159898427E1   4.552786059045238E1  -5.344791306430183E1   4.629338718868659E1  -1.695025775776747E1   1.729458914060807E2  
 7.563200000000000E9    -1.494263411423955E1   1.794533031942931E2  -5.299616254835275E1   6.608996921180781E1  -5.319912176452520E1   6.656549603840112E1  -1.686998199676026E1   1.725056358852053E2  
 7.564000000000000E9    -1.497038327927909E1   1.788711714486358E2  -5.115817495014021E1   7.666879611536069E1  -5.113823928674448E1   7.648489705819141E1  -1.685402646797384E1   1.720494854761649E2  
 7.564800000000000E9    -1.501986627087157E1   1.785219837776583E2  -4.918442461979611E1   7.774249975453644E1  -4.914604406295412E1   7.808112195997492E1  -1.686388241252891E1   1.716472693194775E2  
 7.565600000000000E9    -1.509195176801516E1   1.782115798115313E2  -4.758340434400493E1   7.387870033944122E1  -4.757746483260831E1   7.448286391722228E1  -1.686328622336254E1   1.713326554639337E2  
 7.566400000000000E9    -1.514871856537354E1   1.779674193589343E2  -4.633542577444747E1   6.738141488739753E1  -4.624954239172185E1   6.782795519919294E1  -1.690426305182388E1   1.709446263679956E2  
 7.567200000000000E9    -1.517972288437509E1   1.779082703879730E2  -4.545308358076067E1   5.874297953853021E1  -4.539038582898121E1   5.884196905207379E1  -1.694712063458784E1   1.707039560656166E2  
 7.568000000000000E9    -1.523700463825666E1   1.780130555681731E2  -4.497047234070557E1   4.832709605209736E1  -4.501913271392596E1   4.860640817048827E1  -1.699012400975667E1   1.707067297087530E2  
 7.568800000000000E9    -1.524918249960199E1   1.782455382989135E2  -4.506364604421631E1   3.747845142815314E1  -4.506475913062168E1   3.767893236793143E1  -1.703245836660482E1   1.706735837117651E2  
 7.569600000000000E9    -1.524444313269348E1   1.782495459158277E2  -4.555449226176559E1   2.718841815953709E1  -4.549057806861350E1   2.695501771075706E1  -1.705705059011229E1   1.708405882962211E2  
 7.570400000000000E9    -1.523252299754864E1   1.782630808492198E2  -4.643168514315258E1   1.646788478440223E1  -4.641025927697850E1   1.639907039063537E1  -1.708380296196756E1   1.711482159150405E2  
 7.571200000000000E9    -1.523100796799676E1   1.781690321505496E2  -4.790754494885602E1   6.336057930536530  -4.787182775975185E1   5.955114109730529  -1.704784029258256E1   1.714451617007333E2  
 7.572000000000000E9    -1.521889928562729E1   1.779608243369253E2  -5.033570050822762E1  -3.523388417315478  -5.029169215597677E1  -3.101095605004311  -1.699168905579665E1   1.715510120599346E2  
 7.572800000000000E9    -1.521601330483508E1   1.777952376783803E2  -5.426917754490057E1  -8.720389641924287  -5.435491516637235E1  -9.558303218625273  -1.695439954877451E1   1.714647550560697E2  
 7.573600000000000E9    -1.522368346480001E1   1.776423013786725E2  -6.230355660820545E1   7.954001163585711  -6.218084987350535E1   8.169015579891486  -1.690398450974520E1   1.712229980196524E2  
 7.574400000000000E9    -1.523597689622388E1   1.773193188138111E2  -5.938473868502826E1   9.922253283850660E1  -5.955424053989261E1   9.923761456249081E1  -1.688182337780744E1   1.708317821436617E2  
 7.575200000000000E9    -1.525307998269427E1   1.769272370188323E2  -5.218546379943113E1   1.041431641811647E2  -5.216026366756305E1   1.043494597153033E2  -1.689080482844922E1   1.703587308333376E2  
 7.576000000000000E9    -1.529862830754722E1   1.767657314375079E2  -4.814057030756072E1   9.666430187167079E1  -4.814367686901757E1   9.681227828977082E1  -1.691136301050765E1   1.698609570063785E2  
 7.576800000000000E9    -1.534829045674429E1   1.765266769250203E2  -4.561467318731037E1   8.622191041593520E1  -4.566482142199246E1   8.632977010083023E1  -1.693932609286646E1   1.696046690788648E2  
 7.577600000000000E9    -1.542907810905972E1   1.765190045062084E2  -4.376159318074795E1   7.535458288938968E1  -4.375517294067966E1   7.561971542532695E1  -1.700268414238834E1   1.692595285578481E2  
