#  HZ   S   DB   R     50.00 
! Rohde & Schwarz ZVA40 2Ports - Version 4.11 - 1145.1110k40 SN: 100216
! Date: 2025-04-29 18:41:02
! Measurements: S11 S21 S12 S22 
! 
 7.500000000000000E9    -1.479462108558926E1  -1.745903675953873E2  -4.035392044411500E1  -1.282385354411608E2  -4.032402366876601E1  -1.276624948649485E2  -1.563837523549201E1   1.753438070289007E2  
 7.500800000000000E9    -1.477621340901399E1  -1.751129402771922E2  -4.056490368694242E1  -1.405788554838420E2  -4.051940962631240E1  -1.399907835432291E2  -1.567804320998559E1   1.745865822316164E2  
 7.501600000000000E9    -1.478963811802633E1  -1.754585168339931E2  -4.091444096120804E1  -1.532179999115574E2  -4.090358357193416E1  -1.527616703512924E2  -1.573155378184138E1   1.739261552730676E2  
 7.502400000000000E9    -1.482657565291522E1  -1.758770921590017E2  -4.149777563956862E1  -1.663137224772420E2  -4.145147493882374E1  -1.654653704243145E2  -1.579945906764637E1   1.734158524508843E2  
 7.503200000000000E9    -1.488542825393795E1  -1.760994133245100E2  -4.225799143561373E1  -1.795478342759592E2  -4.221579612384204E1  -1.789297471479059E2  -1.588991046877743E1   1.731306587072124E2  
 7.504000000000000E9    -1.494483467843414E1  -1.765797617416415E2  -4.322836982277921E1   1.659274574412966E2  -4.321639412448307E1   1.668594399868622E2  -1.597511735770719E1   1.728415981656839E2  
 7.504800000000000E9    -1.503128671811597E1  -1.764994784275621E2  -4.455721950732361E1   1.499957611752664E2  -4.445558948648392E1   1.507284403166288E2  -1.607146524297024E1   1.727201596705195E2  
 7.505600000000000E9    -1.511010905036165E1  -1.763082092195608E2  -4.610710270527572E1   1.314704012112933E2  -4.611855750144044E1   1.320597460140444E2  -1.614996652022196E1   1.728522366933887E2  
 7.506400000000000E9    -1.519164918956015E1  -1.759525884231963E2  -4.813833559292228E1   1.089850413260656E2  -4.815114283019484E1   1.089754043268450E2  -1.623343013065732E1   1.730640854797523E2  
 7.507200000000000E9    -1.524262409402654E1  -1.753259753528966E2  -5.039797433612878E1   7.868607734102659E1  -5.047779609139774E1   7.882539074791792E1  -1.629845350331446E1   1.735235365113650E2  
 7.508000000000000E9    -1.523521236433209E1  -1.746610602679705E2  -5.190935268376305E1   3.862470582782341E1  -5.180053211052079E1   3.913983742735465E1  -1.633459938587310E1   1.739403798734811E2  
 7.508800000000000E9    -1.519162131195109E1  -1.741567226710163E2  -5.144882923830617E1  -3.642706046701554  -5.123593820887314E1  -2.262072813084698  -1.633689487838510E1   1.743623948493635E2  
 7.509600000000000E9    -1.512029878308014E1  -1.737861498799357E2  -4.954462608022536E1  -3.534444616038055E1  -4.947402950645743E1  -3.486400046824083E1  -1.630760301147411E1   1.748105792056223E2  
 7.510400000000000E9    -1.502531968521476E1  -1.735851964443468E2  -4.784788705317369E1  -5.940677949828324E1  -4.779937729768626E1  -5.933417211722254E1  -1.627989352138637E1   1.750474881986849E2  
 7.511200000000000E9    -1.493333138548764E1  -1.736590367336507E2  -4.648028417241582E1  -7.848865063127516E1  -4.647053912137288E1  -7.802489749767409E1  -1.622040078654116E1   1.751492220785108E2  
 7.512000000000000E9    -1.487914582281017E1  -1.739633553446850E2  -4.558381122811031E1  -9.506835019152479E1  -4.551047181276175E1  -9.434927679800867E1  -1.614827828874035E1   1.751667895582196E2  
 7.512800000000000E9    -1.481112740221069E1  -1.744533591605651E2  -4.509312874309833E1  -1.090796510623880E2  -4.499812455030977E1  -1.088217734012286E2  -1.607791718536618E1   1.749003417456896E2  
 7.513600000000000E9    -1.478673650358489E1  -1.748653360947966E2  -4.493760185033058E1  -1.212651076174872E2  -4.485953060712430E1  -1.211777644329734E2  -1.603913914445884E1   1.744723879068030E2  
 7.514400000000000E9    -1.478862503992912E1  -1.753413956716078E2  -4.501407189775713E1  -1.320873679705516E2  -4.495843935288301E1  -1.318316225428518E2  -1.602555907908645E1   1.737482470313038E2  
 7.515200000000000E9    -1.481140196066863E1  -1.758640068225265E2  -4.526952944277152E1  -1.411089583667993E2  -4.518665624912921E1  -1.404993089715583E2  -1.605003688588779E1   1.731730170170803E2  
 7.516000000000000E9    -1.484650089323451E1  -1.762015335358069E2  -4.560883745926731E1  -1.486831458187473E2  -4.554865848789202E1  -1.482114271128268E2  -1.610475202193511E1   1.728348541346512E2  
 7.516800000000000E9    -1.489939574133856E1  -1.763912291470043E2  -4.609711849040367E1  -1.554490832472320E2  -4.601692610860361E1  -1.551537278302432E2  -1.616548309492312E1   1.723959563828960E2  
 7.517600000000000E9    -1.495676231488901E1  -1.765658975475920E2  -4.666744703768567E1  -1.609382969590127E2  -4.662368752722149E1  -1.605447072719607E2  -1.625348281383635E1   1.723098034008369E2  
 7.518400000000000E9    -1.500451543853681E1  -1.763784632025667E2  -4.753332331656367E1  -1.642033653445644E2  -4.745937085890497E1  -1.637985427430498E2  -1.632354741409256E1   1.721305466654161E2  
 7.519200000000000E9    -1.503084199836041E1  -1.762825014518168E2  -4.828218479394230E1  -1.641393504746190E2  -4.823875967312610E1  -1.640013351322575E2  -1.641747199343541E1   1.722821919898845E2  
 7.520000000000000E9    -1.503844054722591E1  -1.760356076366299E2  -4.870759578964400E1  -1.600221911484075E2  -4.871971384711591E1  -1.602671026309224E2  -1.649112870281267E1   1.726528877410820E2  
 7.520800000000000E9    -1.502192532723775E1  -1.757806971104078E2  -4.833480728851439E1  -1.558240485880920E2  -4.829902320186681E1  -1.555962927983227E2  -1.649680082766737E1   1.730860220175160E2  
 7.521600000000000E9    -1.497695868846327E1  -1.759454607693559E2  -4.737474145272611E1  -1.534866954978397E2  -4.736743286594793E1  -1.535387592309345E2  -1.649038991893259E1   1.736115104217560E2  
 7.522400000000000E9    -1.495419436151531E1  -1.758233320868844E2  -4.616230013743584E1  -1.552842691222628E2  -4.608771564615717E1  -1.546880396883005E2  -1.645789802666897E1   1.738558014507629E2  
 7.523200000000000E9    -1.492411020766057E1  -1.761382892381079E2  -4.495845864176166E1  -1.600577536871811E2  -4.494495537884159E1  -1.598283651860861E2  -1.640516239122074E1   1.739406500131497E2  
 7.524000000000000E9    -1.491254767576452E1  -1.764464994621085E2  -4.398219361849799E1  -1.669412467746429E2  -4.396982757655134E1  -1.669561054442183E2  -1.634164465110567E1   1.739019309132557E2  
 7.524800000000000E9    -1.491554700885227E1  -1.768259706429062E2  -4.326107986161401E1  -1.758573945273768E2  -4.320674709810739E1  -1.756556072916880E2  -1.628992208111706E1   1.734879552876998E2  
 7.525600000000000E9    -1.493631415775564E1  -1.772409293859948E2  -4.271513554253504E1   1.744617844650064E2  -4.266131732815381E1   1.744813234097278E2  -1.628333954552205E1   1.730594192437726E2  
 7.526400000000000E9    -1.498900433939309E1  -1.775437803669620E2  -4.240915542170708E1   1.639647752399299E2  -4.242487125625803E1   1.638974868773900E2  -1.628907892284915E1   1.725843579614315E2  
 7.527200000000000E9    -1.507269989753959E1  -1.775944089602560E2  -4.236871225733634E1   1.526596492051335E2  -4.235078980883935E1   1.526224414716907E2  -1.633164968804526E1   1.722504524868406E2  
 7.528000000000000E9    -1.515306142177460E1  -1.775477227358003E2  -4.258152873534915E1   1.411143961370640E2  -4.255251618900600E1   1.410656172828250E2  -1.638850313324178E1   1.717718397639663E2  
 7.528800000000000E9    -1.518926037886694E1  -1.772115514520868E2  -4.304293927172927E1   1.291863031663245E2  -4.302332513121534E1   1.294288204296485E2  -1.645151740210075E1   1.717914133809306E2  
 7.529600000000000E9    -1.523708423609966E1  -1.768689787342732E2  -4.377359056398672E1   1.170197435293116E2  -4.371533840215811E1   1.170822809018989E2  -1.650353942683855E1   1.716196646649759E2  
 7.530400000000000E9    -1.524730504008129E1  -1.764529082812680E2  -4.483542626925281E1   1.039879126631867E2  -4.476276975600785E1   1.045766060284987E2  -1.655797531165779E1   1.717723212157945E2  
 7.531200000000000E9    -1.522489395320272E1  -1.759984796631835E2  -4.628440031388470E1   9.038646298002414E1  -4.633048023728105E1   9.046123975873431E1  -1.664765189894139E1   1.718817398194625E2  
 7.532000000000000E9    -1.517441530691633E1  -1.757455307860033E2  -4.848922848745024E1   7.455035675996489E1  -4.851185378450447E1   7.503697409775013E1  -1.668068595204351E1   1.721973631590739E2  
 7.532800000000000E9    -1.511251574933854E1  -1.753610859964698E2  -5.194794247593956E1   5.586358130758569E1  -5.189680504469396E1   5.659944541324952E1  -1.667692473287898E1   1.726628126444269E2  
 7.533600000000000E9    -1.504593990060056E1  -1.753352268679863E2  -5.761944925678085E1   2.498541039045487E1  -5.769098762121045E1   2.497772795790368E1  -1.666556787296520E1   1.728930607279268E2  
 7.534400000000000E9    -1.497869521694224E1  -1.754452100690934E2  -6.222895242373676E1  -6.200675640148232E1  -6.221900874951587E1  -6.342978626390168E1  -1.661136886918975E1   1.730204902030464E2  
 7.535200000000000E9    -1.490537215569868E1  -1.756035925856928E2  -5.511895908312585E1  -1.213471365767440E2  -5.506062357738163E1  -1.198833264246007E2  -1.658422055595157E1   1.730376431673411E2  
 7.536000000000000E9    -1.483510673079846E1  -1.759185605952733E2  -5.070334894503610E1  -1.435202341261917E2  -5.061542912154150E1  -1.434488774980223E2  -1.654799926482415E1   1.729330732874045E2  
 7.536800000000000E9    -1.479507680956376E1  -1.764249903701724E2  -4.773816068169052E1  -1.601859115689804E2  -4.786116224526672E1  -1.600982117087171E2  -1.650134275452751E1   1.726932428055060E2  
 7.537600000000000E9    -1.474947253008812E1  -1.770085090079841E2  -4.581435874751713E1  -1.750373416951064E2  -4.588231998120796E1  -1.749250109970459E2  -1.651418721765946E1   1.721840868246199E2  
 7.538400000000000E9    -1.475592870861519E1  -1.776768884590600E2  -4.453599990307053E1   1.710113242445497E2  -4.453310191259633E1   1.708455621015373E2  -1.652698492228864E1   1.718098509970010E2  
 7.539200000000000E9    -1.477032056759495E1  -1.782272864465411E2  -4.352316527685962E1   1.574077166073373E2  -4.352978494057994E1   1.577060565079663E2  -1.657243836317689E1   1.715846185260175E2  
 7.540000000000000E9    -1.480815337634350E1  -1.787742067092249E2  -4.297727185273266E1   1.436117633169993E2  -4.297783875230753E1   1.442202475498793E2  -1.662148243951461E1   1.714757541684826E2  
 7.540800000000000E9    -1.488636087506385E1  -1.791979984992851E2  -4.273768330096636E1   1.299577519484646E2  -4.276019733811371E1   1.301830000833010E2  -1.666432155185867E1   1.712549640820239E2  
 7.541600000000000E9    -1.495298268164544E1  -1.795127249053114E2  -4.281567051698632E1   1.166155304874822E2  -4.284316567396367E1   1.166186551035170E2  -1.671814263980580E1   1.713864095855075E2  
 7.542400000000000E9    -1.503988229837249E1  -1.796107705013708E2  -4.327254354380165E1   1.029181198939605E2  -4.328625986029914E1   1.027775426975793E2  -1.675219738939646E1   1.715461899960390E2  
 7.543200000000000E9    -1.511005756270748E1  -1.794352873788500E2  -4.410101080303858E1   8.928188825120138E1  -4.412494853106040E1   8.972990466479874E1  -1.678159542108060E1   1.717359924744220E2  
 7.544000000000000E9    -1.516819404139040E1  -1.791865040608129E2  -4.534540394511732E1   7.598471339112943E1  -4.531718575633669E1   7.633554717211362E1  -1.679265183453291E1   1.718957883816551E2  
 7.544800000000000E9    -1.519100154522973E1  -1.789129525791296E2  -4.711438516929879E1   6.233895732641749E1  -4.706038793018359E1   6.289817713748320E1  -1.678968905535421E1   1.720952945184483E2  
 7.545600000000000E9    -1.520393858140828E1  -1.785665469120714E2  -4.966269470711458E1   4.881631330928062E1  -4.961093335462852E1   4.927277239797630E1  -1.675328283846754E1   1.723571293303151E2  
 7.546400000000000E9    -1.517488715601459E1  -1.783768959947263E2  -5.371743526828401E1   3.285563354766792E1  -5.377618734754834E1   3.304439684409960E1  -1.669991388690510E1   1.722962128914570E2  
 7.547200000000000E9    -1.515220713841105E1  -1.782301221209904E2  -6.181146158819775E1   6.641885031734391  -6.170883771445919E1   3.991274472521622  -1.664064272233222E1   1.721215760120083E2  
 7.548000000000000E9    -1.510044765669229E1  -1.781636035872803E2  -6.266252415455834E1  -1.291499995560859E2  -6.218306781855558E1  -1.294752517760362E2  -1.661406471513686E1   1.717486735481793E2  
 7.548800000000000E9    -1.505276525001721E1  -1.783240734348475E2  -5.339641584166997E1  -1.624541848924777E2  -5.327532005007685E1  -1.621893205664970E2  -1.658563705410895E1   1.712852468455945E2  
 7.549600000000000E9    -1.501347194421059E1  -1.785750197552466E2  -4.891484732981974E1  -1.799333459276807E2  -4.899203571561930E1  -1.794166654619092E2  -1.660797654721502E1   1.707250963498267E2  
 7.550400000000000E9    -1.499836314460670E1  -1.790756591529242E2  -4.624471782744664E1   1.646884146037873E2  -4.625348662030044E1   1.655783774528244E2  -1.664036007290071E1   1.701249630573418E2  
 7.551200000000000E9    -1.500416509060008E1  -1.795719193737477E2  -4.441555128743106E1   1.508299686804701E2  -4.439376810933366E1   1.513094323109098E2  -1.670528441130742E1   1.698543332611734E2  
 7.552000000000000E9    -1.504942863920907E1   1.799281447710216E2  -4.316206131820334E1   1.373278887544596E2  -4.315302999439331E1   1.375455788960289E2  -1.675988684730849E1   1.695071086369626E2  
 7.552800000000000E9    -1.511759813043575E1   1.797136955906502E2  -4.233421010006929E1   1.244741563962034E2  -4.232517826476191E1   1.249216929266240E2  -1.683723459959830E1   1.691348681295681E2  
 7.553600000000000E9    -1.518149489238544E1   1.796520767957525E2  -4.184990059506873E1   1.124732983110798E2  -4.186137853873930E1   1.128702664288991E2  -1.694832689957233E1   1.688199325836307E2  
 7.554400000000000E9    -1.523121583916549E1   1.798460311919903E2  -4.160010813522894E1   1.008293632615819E2  -4.158009043014689E1   1.013077608396166E2  -1.708027453565947E1   1.689058921727185E2  
 7.555200000000000E9    -1.526866826490334E1  -1.798897959621599E2  -4.148830306744764E1   8.976823988799367E1  -4.144453222630376E1   9.009140283975988E1  -1.720105917597301E1   1.691324164725684E2  
 7.556000000000000E9    -1.529630351339405E1  -1.796631008633372E2  -4.162485186569791E1   7.882352932546407E1  -4.155734589132993E1   7.905205427178575E1  -1.728622052825342E1   1.697994287339049E2  
 7.556800000000000E9    -1.529732558314577E1  -1.793091496189102E2  -4.192480022562969E1   6.778274395705503E1  -4.193567892260116E1   6.796282831738878E1  -1.736111625573883E1   1.705533800132056E2  
 7.557600000000000E9    -1.528272523399818E1  -1.790688474178010E2  -4.252913333107549E1   5.717200386902307E1  -4.252274126822292E1   5.720214162460964E1  -1.737833158696315E1   1.713930926227055E2  
 7.558400000000000E9    -1.523387103067597E1  -1.788469563781454E2  -4.341774945697814E1   4.657772067291063E1  -4.339331096805135E1   4.700869939938288E1  -1.734778953676488E1   1.720947936865672E2  
 7.559200000000000E9    -1.518316988082982E1  -1.786880813381045E2  -4.473922533658076E1   3.727393874558009E1  -4.471436497264744E1   3.725921526957563E1  -1.730262387790756E1   1.727459638148427E2  
 7.560000000000000E9    -1.511311369031736E1  -1.788033496011788E2  -4.646409819094994E1   2.926279684045500E1  -4.651110890170677E1   2.974825995191937E1  -1.719722600049455E1   1.732215793022020E2  
 7.560800000000000E9    -1.503246639098894E1  -1.790288794969751E2  -4.883196670154931E1   2.536878360794315E1  -4.881583086147671E1   2.592935769676052E1  -1.711387797472818E1   1.733649700499409E2  
 7.561600000000000E9    -1.497174798586515E1  -1.794342415789334E2  -5.160640081837599E1   2.930711601787048E1  -5.163823998359725E1   2.971141946667280E1  -1.700784400642131E1   1.732133048727525E2  
 7.562400000000000E9    -1.494326877920511E1  -1.799526039968932E2  -5.373479838979804E1   4.617960502699550E1  -5.371183935077217E1   4.657799705310986E1  -1.694099389795317E1   1.729270163421860E2  
 7.563200000000000E9    -1.493264700726980E1   1.794543748962663E2  -5.323794594378002E1   6.712506959734924E1  -5.320641965078313E1   6.709329044977241E1  -1.687896222510887E1   1.724947367245932E2  
 7.564000000000000E9    -1.496611939938048E1   1.788920975516576E2  -5.119761064349568E1   7.722413960842876E1  -5.113653652828510E1   7.765950209164615E1  -1.685718835251107E1   1.720122114166385E2  
 7.564800000000000E9    -1.501164536649823E1   1.786123969274258E2  -4.920879839926118E1   7.866635998054332E1  -4.909914398159105E1   7.853332699466364E1  -1.685104078557381E1   1.716962666706133E2  
 7.565600000000000E9    -1.507871671646265E1   1.782241155961637E2  -4.754984108144922E1   7.462812095294154E1  -4.755745929901546E1   7.547373016627296E1  -1.686314279620166E1   1.712857117849018E2  
 7.566400000000000E9    -1.514565563424031E1   1.779396718066510E2  -4.629840438083895E1   6.795947160905141E1  -4.625184699512089E1   6.842599381727258E1  -1.690184821153484E1   1.709389396047529E2  
 7.567200000000000E9    -1.518125318076669E1   1.779082588580818E2  -4.544709941520734E1   5.892762025232431E1  -4.541169437338143E1   5.924002470212669E1  -1.694186429256238E1   1.707259300035974E2  
 7.568000000000000E9    -1.522373305734804E1   1.781234937064214E2  -4.503733478917759E1   4.890296015264101E1  -4.502345035406385E1   4.882477492544134E1  -1.699136190185782E1   1.707355154118980E2  
 7.568800000000000E9    -1.523252896472306E1   1.782564195178717E2  -4.504491869536156E1   3.787683098440415E1  -4.502850208192839E1   3.794870637175409E1  -1.703023428329676E1   1.707068194133950E2  
 7.569600000000000E9    -1.525610623338717E1   1.783125021938791E2  -4.550992054363979E1   2.719887740079674E1  -4.553613334726357E1   2.713122682615435E1  -1.706361573424195E1   1.709275793289004E2  
 7.570400000000000E9    -1.523055164698528E1   1.782303615308100E2  -4.639020149488695E1   1.659410451994422E1  -4.637938688128846E1   1.695384811145638E1  -1.707661549009386E1   1.712227728450520E2  
 7.571200000000000E9    -1.522120657136315E1   1.781371351699187E2  -4.790380782887027E1   6.414300773875318  -4.789441848696190E1   6.039706442796682  -1.704769972257812E1   1.714852990177647E2  
 7.572000000000000E9    -1.520728046202602E1   1.780420713064400E2  -5.035358774623303E1  -2.755161229480362  -5.033421281848940E1  -2.825521226420670  -1.700186098282383E1   1.715657868675997E2  
 7.572800000000000E9    -1.520591835294189E1   1.778583827634350E2  -5.446555697971702E1  -9.793993175422374  -5.437212965708961E1  -8.591335986116398  -1.696118734096744E1   1.715091231969650E2  
 7.573600000000000E9    -1.520836877288897E1   1.775655925289451E2  -6.246715926694398E1   8.145490426339919  -6.259651982043261E1   9.362658613919860  -1.690755301507821E1   1.712629416736279E2  
 7.574400000000000E9    -1.521376626934404E1   1.773537883323177E2  -5.956313997804968E1   1.004686252026534E2  -5.925389397437439E1   9.972132708985555E1  -1.688498856604395E1   1.708436304518445E2  
 7.575200000000000E9    -1.524091884094544E1   1.769722462028223E2  -5.217163262777425E1   1.048460150003564E2  -5.219264653369326E1   1.049707309935431E2  -1.688306452816396E1   1.704161488742377E2  
 7.576000000000000E9    -1.528194347147605E1   1.767751444284693E2  -4.819294535827203E1   9.659456339207934E1  -4.822024105211357E1   9.699039023939415E1  -1.690893983192463E1   1.698606744970580E2  
 7.576800000000000E9    -1.533418790367772E1   1.765502871217471E2  -4.563380282528596E1   8.639156172310622E1  -4.564394524961269E1   8.691433505814662E1  -1.692883060160260E1   1.696659429982473E2  
 7.577600000000000E9    -1.541841844638164E1   1.765071113923043E2  -4.378980734787756E1   7.553271847654102E1  -4.379815207970673E1   7.581681731450378E1  -1.699556433939074E1   1.692548981638275E2  
