#  HZ   S   DB   R     50.00 
! Rohde & Schwarz ZVA40 2Ports - Version 4.11 - 1145.1110k40 SN: 100216
! Date: 2025-05-17 20:22:44
! Measurements: S11 S21 S12 S22 
! 
 7.500000000000000E9    -1.634706822536461E1   1.746911922900267E2  -4.588907405277811E1  -2.544311123093596  -4.582946821837096E1  -1.831652266198347  -1.504147291629637E1  -1.780323616146130E2  
 7.500800000000000E9    -1.632935678750050E1   1.750343526309728E2  -4.675888019422516E1  -1.792307809198077E1  -4.668749712737672E1  -1.747186864907004E1  -1.511032623099812E1  -1.783946514477124E2  
 7.501600000000000E9    -1.631768770139244E1   1.749617484766974E2  -4.792874553361207E1  -3.490655484589337E1  -4.785511128088073E1  -3.459956593898477E1  -1.519003704479072E1  -1.785125105739364E2  
 7.502400000000000E9    -1.628958937928423E1   1.750463247824617E2  -4.937654105244241E1  -5.467800495428239E1  -4.933451593977604E1  -5.477145544547290E1  -1.529261738833351E1  -1.784384534367112E2  
 7.503200000000000E9    -1.624545914426138E1   1.749179908889344E2  -5.118043128243382E1  -7.821805407826248E1  -5.112327474322785E1  -7.763596228980414E1  -1.535493611779530E1  -1.780575299572189E2  
 7.504000000000000E9    -1.622750615098544E1   1.747528476897605E2  -5.280163039394574E1  -1.070256258076230E2  -5.279715219944487E1  -1.071607539498110E2  -1.541752005486050E1  -1.777564692957202E2  
 7.504800000000000E9    -1.621744899388819E1   1.745183271879659E2  -5.369367043419784E1  -1.431953077961944E2  -5.376414814951922E1  -1.425958361359559E2  -1.545483651892934E1  -1.772824494983222E2  
 7.505600000000000E9    -1.620558199110603E1   1.742723641583994E2  -5.308748829296398E1  -1.788114156433317E2  -5.313416525789933E1  -1.793751578367265E2  -1.546520383406129E1  -1.769302672493093E2  
 7.506400000000000E9    -1.621496398375842E1   1.738745649904497E2  -5.153878505732783E1   1.516242037554091E2  -5.152900723462651E1   1.516295008788733E2  -1.543940605234175E1  -1.764301431909299E2  
 7.507200000000000E9    -1.623973130119732E1   1.736914412807247E2  -4.987851111901199E1   1.291566179824102E2  -4.988981096131352E1   1.291227514312657E2  -1.538545204094303E1  -1.760781686735541E2  
 7.508000000000000E9    -1.625043901189551E1   1.734548590683574E2  -4.844648269897969E1   1.109047857093875E2  -4.837362801887939E1   1.110014705345732E2  -1.532519803351590E1  -1.759114158311652E2  
 7.508800000000000E9    -1.628120354081353E1   1.733994537763214E2  -4.720577641666942E1   9.590539685299089E1  -4.714120284576109E1   9.577800292394502E1  -1.526284005008785E1  -1.759835058931432E2  
 7.509600000000000E9    -1.632067978211009E1   1.732119624776598E2  -4.617340996176073E1   8.200900733738651E1  -4.612919337454353E1   8.209921758827767E1  -1.520877727960297E1  -1.762239529687837E2  
 7.510400000000000E9    -1.635321049380778E1   1.730584801650701E2  -4.543833088213594E1   6.908082339358344E1  -4.533521420812314E1   6.920339379101621E1  -1.518144139372313E1  -1.765748720551386E2  
 7.511200000000000E9    -1.637779283955197E1   1.730016181925855E2  -4.491413633846259E1   5.726277781981133E1  -4.479561719495620E1   5.730993497162496E1  -1.518509822536810E1  -1.769345472613599E2  
 7.512000000000000E9    -1.643468916542135E1   1.730967081304498E2  -4.459316876727528E1   4.608737301919476E1  -4.447279058224916E1   4.621017028324467E1  -1.522581056596248E1  -1.772071837744240E2  
 7.512800000000000E9    -1.647191279219262E1   1.730790632218981E2  -4.438677607317420E1   3.615169651611861E1  -4.433965246621349E1   3.619397117776883E1  -1.522989208395439E1  -1.772073915212488E2  
 7.513600000000000E9    -1.650944410194022E1   1.732452186839230E2  -4.423223530308727E1   2.691295678555172E1  -4.419478663994177E1   2.678546494364294E1  -1.524857975796398E1  -1.772533424437930E2  
 7.514400000000000E9    -1.653221757841560E1   1.733978487322673E2  -4.413998752366915E1   1.845641355791787E1  -4.407264306916695E1   1.830289059971274E1  -1.525534344291663E1  -1.773748697649585E2  
 7.515200000000000E9    -1.657284470657727E1   1.736528960408322E2  -4.406719776349781E1   9.627039499961551  -4.396355546287437E1   9.620836957859989  -1.528212151806865E1  -1.775590230492026E2  
 7.516000000000000E9    -1.658219805637537E1   1.738179111145433E2  -4.399976568293607E1   5.370905354077562E-1  -4.394508125593446E1   4.126656122831895E-1  -1.528285989521676E1  -1.776394378065054E2  
 7.516800000000000E9    -1.657147554242276E1   1.741182252623407E2  -4.409791825920718E1  -8.725393969646005  -4.403339522833637E1  -9.150841905737011  -1.534389188364070E1  -1.776313242283405E2  
 7.517600000000000E9    -1.658407986005917E1   1.744674166200449E2  -4.436724538841234E1  -1.875410924556812E1  -4.434547773453331E1  -1.887446739479723E1  -1.538526185177019E1  -1.774391889650752E2  
 7.518400000000000E9    -1.655757341757284E1   1.747089894612544E2  -4.489297208419817E1  -2.802681540773569E1  -4.479440775559883E1  -2.801020407128655E1  -1.538462104879893E1  -1.769974813678842E2  
 7.519200000000000E9    -1.653386374323645E1   1.749404164592869E2  -4.558680315886777E1  -3.659487580762939E1  -4.547994511015997E1  -3.726367337767480E1  -1.536693746543495E1  -1.766538455044855E2  
 7.520000000000000E9    -1.646589573975662E1   1.751516586973169E2  -4.646423413832952E1  -4.446659455054338E1  -4.636940773961609E1  -4.514817404349384E1  -1.532430784934700E1  -1.763619492652755E2  
 7.520800000000000E9    -1.640548437889908E1   1.750037048602014E2  -4.751562224850436E1  -5.162026120326220E1  -4.747765553529960E1  -5.160048724921941E1  -1.525744092108549E1  -1.764304614629389E2  
 7.521600000000000E9    -1.638227678013869E1   1.746413294946055E2  -4.870498481466201E1  -5.646361930312732E1  -4.863972175009715E1  -5.642909916735093E1  -1.517346412986183E1  -1.764619240061895E2  
 7.522400000000000E9    -1.634485641930350E1   1.743312432537039E2  -4.991499148893601E1  -5.860763107261639E1  -4.988728527037906E1  -5.949727742277241E1  -1.511779178942935E1  -1.768048442901117E2  
 7.523200000000000E9    -1.635396938612636E1   1.740111557186364E2  -5.080509360702069E1  -6.085962798808511E1  -5.081270048077603E1  -6.096240235182615E1  -1.507890092243354E1  -1.772403720310239E2  
 7.524000000000000E9    -1.637238972977456E1   1.738449471254009E2  -5.169642145874730E1  -6.231022191641067E1  -5.174700080024174E1  -6.235475281078894E1  -1.506672070154134E1  -1.777946389283393E2  
 7.524800000000000E9    -1.642221312781368E1   1.734509995481683E2  -5.270060303230467E1  -6.564285391827457E1  -5.263696287484623E1  -6.522201230830675E1  -1.510081406054243E1  -1.782939332121508E2  
 7.525600000000000E9    -1.646544057094279E1   1.733155011541742E2  -5.400021069963641E1  -6.865910575987995E1  -5.371360994605717E1  -6.859047034615220E1  -1.515706782733797E1  -1.786802654102758E2  
 7.526400000000000E9    -1.651496811419291E1   1.731918089325614E2  -5.571806950190093E1  -6.991074282888081E1  -5.570353090408261E1  -7.009900631741651E1  -1.522342144268890E1  -1.789105986814230E2  
 7.527200000000000E9    -1.659288032507073E1   1.733278204846272E2  -5.815232537146145E1  -6.835190775369418E1  -5.807455985718292E1  -6.848708516616082E1  -1.530621162894152E1  -1.789025230446869E2  
 7.528000000000000E9    -1.661660953523208E1   1.733660114706514E2  -6.136742301877077E1  -5.563385828791057E1  -6.129859293771093E1  -5.485785279431748E1  -1.537259269610448E1  -1.786719488974605E2  
 7.528800000000000E9    -1.667172738587854E1   1.735869076556644E2  -6.302653374231901E1  -2.358927141556640E1  -6.294026075643607E1  -2.479842161185827E1  -1.539478079230234E1  -1.783548743377203E2  
 7.529600000000000E9    -1.671522366289578E1   1.738437792505214E2  -6.046501566976860E1   5.514860604313792  -6.010947760176222E1   7.616480878500361  -1.542388126736218E1  -1.779725631235001E2  
 7.530400000000000E9    -1.672543529990809E1   1.741409968443451E2  -5.670289342289726E1   1.627247391737110E1  -5.672009206838639E1   1.655697353386860E1  -1.541989778119906E1  -1.774638739098479E2  
 7.531200000000000E9    -1.674117728745548E1   1.744744979598987E2  -5.362591682072979E1   1.865865932799083E1  -5.351468978082831E1   1.808610780128777E1  -1.539907964222156E1  -1.771886692168364E2  
 7.532000000000000E9    -1.671154885351283E1   1.748673936465874E2  -5.107008272515044E1   1.581759959947697E1  -5.106460373734988E1   1.538549527556768E1  -1.533987504436201E1  -1.770290156711957E2  
 7.532800000000000E9    -1.669108329380412E1   1.749904084151617E2  -4.894352983778093E1   1.009852313113998E1  -4.883631305822874E1   9.560289830539899  -1.529107159812746E1  -1.768481882712666E2  
 7.533600000000000E9    -1.667738638693233E1   1.750333843796285E2  -4.717372247131598E1   2.076230859145535  -4.715735361654596E1   1.475314348275387  -1.523521978572126E1  -1.769185742549813E2  
 7.534400000000000E9    -1.667264924171337E1   1.752989901121838E2  -4.570805686611601E1  -7.091319298645342  -4.559204765918852E1  -7.328522183068944  -1.517638885473488E1  -1.769426302027808E2  
 7.535200000000000E9    -1.663523736591807E1   1.753598294493278E2  -4.451890826469780E1  -1.723939763969421E1  -4.444794995595592E1  -1.736105680815715E1  -1.513895155113820E1  -1.771715176224134E2  
 7.536000000000000E9    -1.661740357501614E1   1.753065150246243E2  -4.348970145942182E1  -2.791069996030658E1  -4.346789448482770E1  -2.829633570639949E1  -1.510464969933739E1  -1.773781115961669E2  
 7.536800000000000E9    -1.658817507867571E1   1.753874302004028E2  -4.277678322131733E1  -3.955132039621113E1  -4.275280096598807E1  -3.961311032979417E1  -1.509776087746706E1  -1.777231157399288E2  
 7.537600000000000E9    -1.654856286230382E1   1.753837640242885E2  -4.227480926619100E1  -5.134934189158330E1  -4.228316123124871E1  -5.159655427225908E1  -1.510211430425160E1  -1.780635704736791E2  
 7.538400000000000E9    -1.652670788793844E1   1.752509040840244E2  -4.206097418347598E1  -6.322068314828282E1  -4.206116460395761E1  -6.378029417093853E1  -1.511048740797181E1  -1.782542220902331E2  
 7.539200000000000E9    -1.649376563496458E1   1.749779074077644E2  -4.207976099477614E1  -7.567232914495121E1  -4.203286900492486E1  -7.598527191704157E1  -1.514278609036159E1  -1.784410285178268E2  
 7.540000000000000E9    -1.647197436438128E1   1.747308327018583E2  -4.234082038755660E1  -8.784246029679082E1  -4.229627186942424E1  -8.795234677073198E1  -1.517112587800027E1  -1.786600773788971E2  
 7.540800000000000E9    -1.648612409267730E1   1.744691077790246E2  -4.278997382097883E1  -9.979721698668998E1  -4.275325290493717E1  -9.967873498617388E1  -1.520534881192428E1  -1.785502995351011E2  
 7.541600000000000E9    -1.648202183740852E1   1.742908372658722E2  -4.350583154854806E1  -1.109695960920381E2  -4.346001436376781E1  -1.113088194896695E2  -1.520521947916200E1  -1.784300548365437E2  
 7.542400000000000E9    -1.650269117751176E1   1.741194643374643E2  -4.448998155430151E1  -1.218791351167950E2  -4.447080883772743E1  -1.220222047421748E2  -1.521733668962916E1  -1.783718508710660E2  
 7.543200000000000E9    -1.648965561943778E1   1.739410537058701E2  -4.574857340649172E1  -1.320035088957090E2  -4.569158618963751E1  -1.319971092408846E2  -1.521467032799212E1  -1.782759503050488E2  
 7.544000000000000E9    -1.648246067281344E1   1.737432307230888E2  -4.722029306816928E1  -1.408677017612862E2  -4.718961572593665E1  -1.409652560679928E2  -1.521022410496714E1  -1.781296950532020E2  
 7.544800000000000E9    -1.648104983270292E1   1.735050914951042E2  -4.899383411188133E1  -1.476803542683242E2  -4.904560976292984E1  -1.474163613043259E2  -1.520317119204649E1  -1.781269392329967E2  
 7.545600000000000E9    -1.647910770208623E1   1.732972486227660E2  -5.102020980055129E1  -1.520062354614486E2  -5.095415905531105E1  -1.521664114033903E2  -1.516618932132209E1  -1.780820878212287E2  
 7.546400000000000E9    -1.651886224332676E1   1.731147351219877E2  -5.336365478000113E1  -1.540162310958371E2  -5.334831759439769E1  -1.546403953573540E2  -1.513795984785867E1  -1.780348736312606E2  
 7.547200000000000E9    -1.652613873578091E1   1.727480319301372E2  -5.592115429692109E1  -1.506964572908877E2  -5.605424721571185E1  -1.511106803220071E2  -1.507679781319968E1  -1.780793854830148E2  
 7.548000000000000E9    -1.656687666354577E1   1.725803996172882E2  -5.886319167964695E1  -1.415199582676383E2  -5.845021711336986E1  -1.407024379151234E2  -1.505239982388409E1  -1.783716820656773E2  
 7.548800000000000E9    -1.659714696652335E1   1.724207526468610E2  -6.023765378723830E1  -1.175655398959363E2  -5.995715790126200E1  -1.168666897414389E2  -1.504152307019241E1  -1.787779660666726E2  
 7.549600000000000E9    -1.661699382283191E1   1.722521894179398E2  -5.909276004257124E1  -9.539893916113229E1  -5.935977606945682E1  -9.545500291964835E1  -1.503056963805412E1  -1.792054990097004E2  
 7.550400000000000E9    -1.665665349501962E1   1.721190327631318E2  -5.700162325195849E1  -8.474051560250565E1  -5.696284529406227E1  -8.471857543750173E1  -1.506054785801626E1  -1.796707447613198E2  
 7.551200000000000E9    -1.669856624556304E1   1.720932721957460E2  -5.502136334726239E1  -8.120367919205545E1  -5.493201959374804E1  -8.186877290290551E1  -1.508562741160925E1  -1.798671482161522E2  
 7.552000000000000E9    -1.675528344487539E1   1.721184876214456E2  -5.340208067910818E1  -8.282171157594304E1  -5.317670528974652E1  -8.191838575718192E1  -1.515676979513188E1   1.797779283635752E2  
 7.552800000000000E9    -1.678319869647768E1   1.722218308117415E2  -5.202804160040812E1  -8.494984238937172E1  -5.190494326403307E1  -8.548394287603614E1  -1.520721209588881E1   1.797297878799425E2  
 7.553600000000000E9    -1.679957595316465E1   1.724979992046108E2  -5.083575778940742E1  -9.000873552375106E1  -5.077660026175753E1  -9.053920860582690E1  -1.529268889623235E1   1.799043851174429E2  
 7.554400000000000E9    -1.681149934999223E1   1.727257833264433E2  -4.992996525445049E1  -9.521931181102015E1  -4.984767675934474E1  -9.487921001691831E1  -1.531915095866370E1   1.799901009052200E2  
 7.555200000000000E9    -1.679612188768144E1   1.728999413478909E2  -4.910731514628666E1  -1.011185225308878E2  -4.905492733801101E1  -1.012134464163478E2  -1.536008135520264E1  -1.796906635835659E2  
 7.556000000000000E9    -1.677390855644348E1   1.731333780517629E2  -4.832149237205871E1  -1.072029622708321E2  -4.827045967164957E1  -1.070205528985908E2  -1.536532978184913E1  -1.794414020788933E2  
 7.556800000000000E9    -1.672055547686997E1   1.732147024259753E2  -4.754813205713233E1  -1.139924510820338E2  -4.751371104907091E1  -1.143579790792665E2  -1.535500216222621E1  -1.791634957341894E2  
 7.557600000000000E9    -1.669770799203477E1   1.731288656260863E2  -4.691965053901171E1  -1.229130989786648E2  -4.689225125649740E1  -1.229797163875632E2  -1.532983870238476E1  -1.788945374728266E2  
 7.558400000000000E9    -1.665735329409144E1   1.730861704658764E2  -4.648748965236870E1  -1.323932216165631E2  -4.642040435410772E1  -1.323350855670711E2  -1.527653448535550E1  -1.787030047850854E2  
 7.559200000000000E9    -1.660434122152283E1   1.729283533114312E2  -4.621093533962480E1  -1.427504051232087E2  -4.616040450663693E1  -1.428016647560334E2  -1.520997147092095E1  -1.785155644850081E2  
 7.560000000000000E9    -1.658475631764264E1   1.726266838864807E2  -4.616107792780363E1  -1.542206109655231E2  -4.612755196311255E1  -1.542725569729907E2  -1.513425182085866E1  -1.787486853437453E2  
 7.560800000000000E9    -1.657569941361899E1   1.723659675036542E2  -4.642203750341342E1  -1.664914665110204E2  -4.636230618333715E1  -1.665681148187629E2  -1.506653735551308E1  -1.789476514802089E2  
 7.561600000000000E9    -1.657068216649873E1   1.719842655318555E2  -4.704437345041986E1  -1.794397479487438E2  -4.695945984034963E1  -1.796118206013456E2  -1.501613939494744E1  -1.795631362665791E2  
 7.562400000000000E9    -1.656466151177260E1   1.717870777630725E2  -4.809735987419065E1   1.688708515364830E2  -4.800792611010692E1   1.689488158817497E2  -1.501145839507618E1   1.798471314407198E2  
 7.563200000000000E9    -1.657690189555204E1   1.716314677949161E2  -4.943608192210601E1   1.578514583645238E2  -4.939249745368288E1   1.575705513874349E2  -1.502343691271644E1   1.791800320139574E2  
 7.564000000000000E9    -1.659495128417780E1   1.714389687265447E2  -5.105415900918599E1   1.486163784658479E2  -5.097810321242896E1   1.492000419677394E2  -1.506179450193785E1   1.786885390165715E2  
 7.564800000000000E9    -1.661301688841424E1   1.713569446239504E2  -5.276317526425966E1   1.408271370247620E2  -5.276564243456539E1   1.408156283618345E2  -1.511321750540369E1   1.782979191772710E2  
 7.565600000000000E9    -1.662993985482848E1   1.713018683437060E2  -5.467072900384738E1   1.317910471925244E2  -5.479760161396258E1   1.304871040760333E2  -1.518913355397063E1   1.779973551788485E2  
 7.566400000000000E9    -1.659643909421152E1   1.712012427761715E2  -5.710889388071796E1   1.213496413443068E2  -5.725328627848941E1   1.223456361323219E2  -1.526192794321618E1   1.779704780402601E2  
 7.567200000000000E9    -1.658363195216720E1   1.711575385698329E2  -6.086392376903761E1   1.108374850107451E2  -6.126646858552650E1   1.122343539493087E2  -1.532280221401884E1   1.780313664122012E2  
 7.568000000000000E9    -1.656238874443140E1   1.712303468506038E2  -6.785203686363525E1   1.023229642843799E2  -6.702179081229465E1   1.065623724747724E2  -1.536527915770934E1   1.781711594585121E2  
 7.568800000000000E9    -1.651128508230397E1   1.710267929064445E2  -7.687230884867346E1   9.252696725396585E1  -7.775018808588870E1   8.161346949274324E1  -1.537015820705588E1   1.784131234433470E2  
 7.569600000000000E9    -1.649417755755642E1   1.710299934060196E2  -7.464226939152070E1  -4.113437515908804E1  -7.531719524055245E1  -4.991004212069512E1  -1.538070485221050E1   1.785784330547050E2  
 7.570400000000000E9    -1.646807315185705E1   1.706377668424593E2  -6.600275678188707E1  -5.253176798631059E1  -6.584799601662283E1  -5.395213428653036E1  -1.535346269597958E1   1.786531602795114E2  
 7.571200000000000E9    -1.646789486054062E1   1.702912521373351E2  -6.035167914944879E1  -5.971263660850233E1  -6.053157682302311E1  -5.810063355894226E1  -1.530432365441139E1   1.785656206812227E2  
 7.572000000000000E9    -1.650462397704782E1   1.700096267911156E2  -5.655227417437941E1  -6.682980005823971E1  -5.641825228791026E1  -6.836953585446868E1  -1.528525142703676E1   1.784947069192931E2  
 7.572800000000000E9    -1.650414764204765E1   1.696323486704317E2  -5.351464091395720E1  -7.699966480017434E1  -5.349960274761966E1  -7.683208630903407E1  -1.526055757420297E1   1.780877370032939E2  
 7.573600000000000E9    -1.653358160804507E1   1.694268042577800E2  -5.116337483622224E1  -8.668426062375028E1  -5.106595806613787E1  -8.625185718436140E1  -1.525090204268078E1   1.776932939438648E2  
 7.574400000000000E9    -1.655226515324255E1   1.692805810639109E2  -4.907028117488563E1  -9.646076179092189E1  -4.907453564586662E1  -9.695985578369081E1  -1.526679954425921E1   1.773036106887570E2  
 7.575200000000000E9    -1.657906076275915E1   1.691660049514852E2  -4.737261088746250E1  -1.077625142079748E2  -4.736048711199182E1  -1.081129748040103E2  -1.528505538363457E1   1.768264135578427E2  
 7.576000000000000E9    -1.660601632175730E1   1.690382781799064E2  -4.594493103855167E1  -1.197432823348429E2  -4.593170427062545E1  -1.195930153037653E2  -1.533986190939580E1   1.765396352519863E2  
 7.576800000000000E9    -1.662178191209646E1   1.691212019493053E2  -4.484954745835122E1  -1.314470414843573E2  -4.478353114178096E1  -1.319341095856528E2  -1.539973529442678E1   1.762030550781979E2  
 7.577600000000000E9    -1.665565335385249E1   1.690767578550421E2  -4.403441041207453E1  -1.438310887646583E2  -4.399230585040188E1  -1.439122309656281E2  -1.546668803755114E1   1.761907796570168E2  
