#  HZ   S   DB   R     50.00 
! Rohde & Schwarz ZVA40 2Ports - Version 4.11 - 1145.1110k40 SN: 100216
! Date: 2025-05-17 20:21:34
! Measurements: S11 S21 S12 S22 
! 
 7.500000000000000E9    -1.637651409106983E1   1.746534865024281E2  -4.577402634915446E1  -1.960018704391821  -4.578411144081657E1  -1.870343101807858  -1.503373364512476E1  -1.780603459255314E2  
 7.500800000000000E9    -1.632801578446226E1   1.750062422100893E2  -4.665876580568630E1  -1.805478807522288E1  -4.653592018969393E1  -1.785462256966441E1  -1.511264395105468E1  -1.784475276642534E2  
 7.501600000000000E9    -1.631691922770215E1   1.749794817927985E2  -4.776390125835087E1  -3.534886765971444E1  -4.775613344471589E1  -3.541720880815495E1  -1.518349559320189E1  -1.785272491948163E2  
 7.502400000000000E9    -1.627554982747159E1   1.749566417873154E2  -4.928968514740228E1  -5.490699567793550E1  -4.919545038189345E1  -5.542844372479135E1  -1.528073198531672E1  -1.784786919660006E2  
 7.503200000000000E9    -1.626862151443636E1   1.748264521204555E2  -5.105657419654268E1  -7.922662274977553E1  -5.087490775705519E1  -7.837084221704532E1  -1.535479891102582E1  -1.781097461850725E2  
 7.504000000000000E9    -1.622866638935215E1   1.746111324955963E2  -5.282413539949238E1  -1.089035774142298E2  -5.264270821698951E1  -1.081787416301698E2  -1.540604935461959E1  -1.778344520308190E2  
 7.504800000000000E9    -1.620237208129157E1   1.744489948341032E2  -5.377783651694830E1  -1.445128028537197E2  -5.369680653243869E1  -1.438098769618800E2  -1.544305522881021E1  -1.773509763068172E2  
 7.505600000000000E9    -1.622083181604715E1   1.743273830676607E2  -5.328152262533745E1   1.796564744376863E2  -5.313542826087489E1   1.793765610774442E2  -1.545897993801679E1  -1.770300415437961E2  
 7.506400000000000E9    -1.621427774274480E1   1.739292374889937E2  -5.175681729924495E1   1.505135769267765E2  -5.171640228426396E1   1.508783762302351E2  -1.544238956969993E1  -1.765318512911222E2  
 7.507200000000000E9    -1.622823170986970E1   1.735400858243798E2  -5.019470021795616E1   1.284904359517831E2  -4.999823415745689E1   1.292232929840761E2  -1.539618521480519E1  -1.761244227203007E2  
 7.508000000000000E9    -1.625251041737911E1   1.735077165708949E2  -4.868411531337542E1   1.113810255947363E2  -4.865627176621858E1   1.106827864651090E2  -1.533581558875392E1  -1.759986040595150E2  
 7.508800000000000E9    -1.629888138025571E1   1.734140788666131E2  -4.743489324215660E1   9.624298785389428E1  -4.741647269688399E1   9.603844412667549E1  -1.527286588495316E1  -1.760403318177136E2  
 7.509600000000000E9    -1.632664053264314E1   1.732357971410065E2  -4.639782153582440E1   8.268872390259060E1  -4.631744788377508E1   8.259521087076141E1  -1.522177847846278E1  -1.762594694514921E2  
 7.510400000000000E9    -1.634324814882295E1   1.731366445484436E2  -4.557175888782946E1   6.967135369531881E1  -4.554090060396815E1   6.982692351453606E1  -1.518737258267454E1  -1.766031222436216E2  
 7.511200000000000E9    -1.638549228090705E1   1.730550939875512E2  -4.502961933192361E1   5.735801574779259E1  -4.492455305618811E1   5.719792395839829E1  -1.519620449003955E1  -1.769412232794046E2  
 7.512000000000000E9    -1.642347180689083E1   1.731446835551853E2  -4.473271638504438E1   4.636896859573470E1  -4.461088963978048E1   4.605615529321084E1  -1.523591820834106E1  -1.772073775101153E2  
 7.512800000000000E9    -1.645713120222197E1   1.730652355960194E2  -4.450038632554342E1   3.629521993018516E1  -4.443634865018486E1   3.585774709788304E1  -1.524830968798447E1  -1.772742285990405E2  
 7.513600000000000E9    -1.651141560804104E1   1.732719189215842E2  -4.441424741263614E1   2.746055547789985E1  -4.435306240042920E1   2.703293607566596E1  -1.525147952041795E1  -1.773600515884583E2  
 7.514400000000000E9    -1.653568004448808E1   1.734062075575858E2  -4.430603094714171E1   1.907604195517841E1  -4.418348958561509E1   1.885059488479224E1  -1.526473356582299E1  -1.773830680850611E2  
 7.515200000000000E9    -1.655752157773260E1   1.735475304190726E2  -4.412655399135078E1   1.041681460872745E1  -4.404479618753602E1   1.035179610890062E1  -1.528094534275721E1  -1.775552967541748E2  
 7.516000000000000E9    -1.659154163155341E1   1.737452258777937E2  -4.409516392842768E1   1.609490893269904  -4.397089092553278E1   1.198295228938728  -1.529574983161477E1  -1.776185713623146E2  
 7.516800000000000E9    -1.659531675682916E1   1.740602915894587E2  -4.411753026742839E1  -7.962794245564104  -4.404232301994832E1  -8.036312456509753  -1.535116304938298E1  -1.775802341386085E2  
 7.517600000000000E9    -1.658257182941730E1   1.742358947166433E2  -4.433747495435082E1  -1.776717325512207E1  -4.426162668907339E1  -1.775578942491341E1  -1.537250048380970E1  -1.773991073947460E2  
 7.518400000000000E9    -1.655241616078883E1   1.746430354053456E2  -4.474756119695030E1  -2.705711336218275E1  -4.469645690682721E1  -2.754319196629578E1  -1.538985527398448E1  -1.770213959204747E2  
 7.519200000000000E9    -1.653167680220657E1   1.748956885556653E2  -4.544102299861263E1  -3.621857244177392E1  -4.538925355019528E1  -3.652032363599459E1  -1.538004114989314E1  -1.766826237771086E2  
 7.520000000000000E9    -1.647357657550563E1   1.750935363963627E2  -4.625711547883914E1  -4.474633603395029E1  -4.623500625047148E1  -4.464452022484164E1  -1.532917271495131E1  -1.764156472928975E2  
 7.520800000000000E9    -1.641175040062408E1   1.748325183849073E2  -4.735615077489350E1  -5.127931765698866E1  -4.726516892660676E1  -5.176707615156710E1  -1.526613845328064E1  -1.763714363393108E2  
 7.521600000000000E9    -1.638522050037539E1   1.746294506628140E2  -4.853744696674609E1  -5.670592875605947E1  -4.845105090750126E1  -5.717752440700065E1  -1.518303169204993E1  -1.764168913584072E2  
 7.522400000000000E9    -1.636137544197509E1   1.742862811849162E2  -4.974132907124687E1  -5.944673691710045E1  -4.962777066241997E1  -5.995301099978207E1  -1.512851868061321E1  -1.767260802369091E2  
 7.523200000000000E9    -1.637297307006859E1   1.740413542759202E2  -5.065831126034544E1  -6.100077051091198E1  -5.062620984223484E1  -6.138879348447382E1  -1.506964388189724E1  -1.771834948898050E2  
 7.524000000000000E9    -1.637882568702507E1   1.738062269854468E2  -5.159615568130165E1  -6.332855464866547E1  -5.144907127887213E1  -6.355707288883019E1  -1.506065266543066E1  -1.777342732878135E2  
 7.524800000000000E9    -1.643188495885574E1   1.734858179613103E2  -5.234524014778525E1  -6.630603076435364E1  -5.241894869416914E1  -6.661855764804679E1  -1.509886005493556E1  -1.783209266510384E2  
 7.525600000000000E9    -1.645794911401831E1   1.732842823214719E2  -5.353479542036873E1  -7.027433263463840E1  -5.351660505808633E1  -7.009853039096454E1  -1.515705117513648E1  -1.787479137218055E2  
 7.526400000000000E9    -1.651225576322126E1   1.732767606975921E2  -5.526390784021129E1  -7.444515235188932E1  -5.537516585457727E1  -7.369665417509351E1  -1.522670114774373E1  -1.789523643618150E2  
 7.527200000000000E9    -1.659395465223596E1   1.733068700425708E2  -5.764246866569020E1  -7.371192887270762E1  -5.773971964320518E1  -7.366001238313511E1  -1.531336406760309E1  -1.789459832356054E2  
 7.528000000000000E9    -1.662533309861647E1   1.732675479078547E2  -6.122422528035258E1  -6.632746240807553E1  -6.121752607171107E1  -6.414489145650958E1  -1.537455721286005E1  -1.787556464601341E2  
 7.528800000000000E9    -1.668562613385228E1   1.735916380281528E2  -6.443767252256551E1  -2.895081047138945E1  -6.438334520829093E1  -2.987958947490108E1  -1.542324739268702E1  -1.783894422953639E2  
 7.529600000000000E9    -1.670323203024275E1   1.738349833214208E2  -6.124689517539124E1   7.003662865173847  -6.125904518031469E1   8.894536491226296  -1.543124448906973E1  -1.780337583448624E2  
 7.530400000000000E9    -1.672659709229096E1   1.741545372401267E2  -5.708127442569358E1   2.152021627186952E1  -5.701070396115783E1   2.019152784435797E1  -1.540706096954244E1  -1.775318093490542E2  
 7.531200000000000E9    -1.674999762332097E1   1.744260492264161E2  -5.379854186985553E1   2.116075284205838E1  -5.388478337099370E1   2.108543168922147E1  -1.539504427814678E1  -1.772256687052049E2  
 7.532000000000000E9    -1.672355080042097E1   1.748004230339895E2  -5.118649194605062E1   1.667615897575841E1  -5.110414185936621E1   1.643734438727336E1  -1.534865326260649E1  -1.771031687256590E2  
 7.532800000000000E9    -1.670730020826493E1   1.749679101633780E2  -4.901240411593088E1   1.036358028541041E1  -4.899873802996411E1   9.833099938672387  -1.528853422888878E1  -1.769186024121068E2  
 7.533600000000000E9    -1.669264708872766E1   1.750970030245189E2  -4.730600494088365E1   1.977373078507971  -4.732173217810099E1   1.592213654080825  -1.522962223569721E1  -1.769862847512677E2  
 7.534400000000000E9    -1.667731844349312E1   1.752424276628461E2  -4.580194040318101E1  -6.832152345753652  -4.580450094842615E1  -7.344736602006843  -1.520829944673650E1  -1.770360546613858E2  
 7.535200000000000E9    -1.664783412753877E1   1.753805236250665E2  -4.461899930719210E1  -1.690625487574914E1  -4.457721957559095E1  -1.719396139501931E1  -1.514116267614566E1  -1.772526519147283E2  
 7.536000000000000E9    -1.662443047215382E1   1.754043119783724E2  -4.363186322535115E1  -2.745371180838415E1  -4.357455111936552E1  -2.782155122047723E1  -1.510733436249502E1  -1.773827907845225E2  
 7.536800000000000E9    -1.658527428177819E1   1.752918039357938E2  -4.289228507075011E1  -3.875342635656070E1  -4.285899766951101E1  -3.930449028821374E1  -1.509813661758627E1  -1.777793030631197E2  
 7.537600000000000E9    -1.655200660728788E1   1.754000707832625E2  -4.237888937515290E1  -5.051311019177157E1  -4.235181200547840E1  -5.093025931666721E1  -1.510131038073179E1  -1.781533304733822E2  
 7.538400000000000E9    -1.653990229124469E1   1.751951108310281E2  -4.215204064845621E1  -6.291601953860219E1  -4.209102640667754E1  -6.301046533780500E1  -1.509117353999626E1  -1.784405350332966E2  
 7.539200000000000E9    -1.650009779217086E1   1.749281298023001E2  -4.213193714996376E1  -7.471684969428834E1  -4.207839802739687E1  -7.527453512671858E1  -1.514869175082308E1  -1.785461872173882E2  
 7.540000000000000E9    -1.647276231661028E1   1.747046922396772E2  -4.230205481032564E1  -8.664268729607223E1  -4.226416763177912E1  -8.711203149700799E1  -1.517510293460273E1  -1.786901463827517E2  
 7.540800000000000E9    -1.648813026434092E1   1.745967310565243E2  -4.272795928934639E1  -9.839350643923797E1  -4.268860449117557E1  -9.883692005042444E1  -1.521158159375447E1  -1.785862661753161E2  
 7.541600000000000E9    -1.648569169246238E1   1.742941159525282E2  -4.342679893395151E1  -1.099640584726106E2  -4.336722166949789E1  -1.105903221624614E2  -1.520707248514415E1  -1.784550676185075E2  
 7.542400000000000E9    -1.650087348158751E1   1.740863706776068E2  -4.429004802376193E1  -1.212127155496146E2  -4.428727899919738E1  -1.213205868012865E2  -1.521258335657084E1  -1.784380375164206E2  
 7.543200000000000E9    -1.648882522054778E1   1.739145599026627E2  -4.553108764693007E1  -1.313350457507499E2  -4.550786793662640E1  -1.313352949860141E2  -1.522840754953409E1  -1.782406596801835E2  
 7.544000000000000E9    -1.648300524522020E1   1.737627015001793E2  -4.702012041994359E1  -1.397883663979156E2  -4.699756970011330E1  -1.399298089150969E2  -1.522714277155098E1  -1.781805356785348E2  
 7.544800000000000E9    -1.648719460433106E1   1.735924053861203E2  -4.877357193791711E1  -1.464222502147319E2  -4.877128566328991E1  -1.467739401861610E2  -1.519647958421243E1  -1.781420363819824E2  
 7.545600000000000E9    -1.648683635843466E1   1.733321352519209E2  -5.062628825955380E1  -1.504161369292559E2  -5.061904693408442E1  -1.518860460904121E2  -1.516096252762474E1  -1.780635675532562E2  
 7.546400000000000E9    -1.652898195086099E1   1.731107857803421E2  -5.275183542401767E1  -1.533418939682084E2  -5.273589918484617E1  -1.538372876437796E2  -1.511385450093458E1  -1.780772742874466E2  
 7.547200000000000E9    -1.651447141951707E1   1.727774079028453E2  -5.517761724211341E1  -1.504134143765796E2  -5.516596721533168E1  -1.512805644496051E2  -1.506484988051287E1  -1.781695091342132E2  
 7.548000000000000E9    -1.655964820314276E1   1.725982555811888E2  -5.759740714068465E1  -1.417165046902025E2  -5.780230875680251E1  -1.436014053824273E2  -1.505062811072709E1  -1.784871150383334E2  
 7.548800000000000E9    -1.659925656948652E1   1.724424118744609E2  -5.952169975546799E1  -1.247206999096657E2  -5.931805091375179E1  -1.259699798927413E2  -1.502400321363341E1  -1.789754032291470E2  
 7.549600000000000E9    -1.662094353691274E1   1.722678590214805E2  -5.937769366487724E1  -1.029536872234456E2  -5.931765758921312E1  -1.015859042176754E2  -1.501933950878055E1  -1.791857212456873E2  
 7.550400000000000E9    -1.666082946520072E1   1.721571219190555E2  -5.729345521117467E1  -8.768298696500652E1  -5.722764179413957E1  -8.771020374770558E1  -1.504430418878047E1  -1.798223109440338E2  
 7.551200000000000E9    -1.668950420456725E1   1.720789515776007E2  -5.496481351920677E1  -8.260010095535402E1  -5.489619711880450E1  -8.331616637630289E1  -1.509719661191761E1   1.799121691037343E2  
 7.552000000000000E9    -1.674964493721807E1   1.721025000346642E2  -5.314788018193571E1  -8.398551550090663E1  -5.310427887828161E1  -8.472968350994084E1  -1.516273655790160E1   1.796034620253686E2  
 7.552800000000000E9    -1.677800436370649E1   1.722272143164035E2  -5.171188115789710E1  -8.832032603542808E1  -5.152565740971503E1  -8.799016567974269E1  -1.521339272807832E1   1.796230930165480E2  
 7.553600000000000E9    -1.679534389272252E1   1.723619850519820E2  -5.051528323988497E1  -9.321614598336824E1  -5.055708298604605E1  -9.318305647039513E1  -1.528838853665236E1   1.798003163065132E2  
 7.554400000000000E9    -1.680316029049093E1   1.726112688321086E2  -4.973501371666987E1  -9.923545344541219E1  -4.969913497529583E1  -9.956063472578771E1  -1.532303728975425E1   1.798844117056719E2  
 7.555200000000000E9    -1.680000131654275E1   1.727722099201638E2  -4.905333726360632E1  -1.053657799119774E2  -4.901125599411741E1  -1.050406970215492E2  -1.536210720379936E1  -1.797467400941302E2  
 7.556000000000000E9    -1.677444371675713E1   1.730858166880184E2  -4.835990154552842E1  -1.102399577229895E2  -4.834706165098764E1  -1.109096229352242E2  -1.536386827403963E1  -1.794448128079502E2  
 7.556800000000000E9    -1.674563920506903E1   1.731945001641784E2  -4.767054022477281E1  -1.174834688001943E2  -4.761216917207867E1  -1.170693725803952E2  -1.536111938635527E1  -1.792360174250059E2  
 7.557600000000000E9    -1.671233099305682E1   1.731214197491993E2  -4.712679277973896E1  -1.254851713289665E2  -4.710428447838437E1  -1.253843680473872E2  -1.532090505931092E1  -1.789584230292397E2  
 7.558400000000000E9    -1.666188908279406E1   1.730408996665589E2  -4.662851236207747E1  -1.345964372962280E2  -4.662167135922557E1  -1.341837522571130E2  -1.527021144269490E1  -1.787461464100451E2  
 7.559200000000000E9    -1.662235290700219E1   1.729131670476236E2  -4.632876852564358E1  -1.445932536796271E2  -4.630706049377774E1  -1.444926462089906E2  -1.521339256996241E1  -1.786750712416672E2  
 7.560000000000000E9    -1.658097837931837E1   1.726146149751474E2  -4.620486828950175E1  -1.552063549912333E2  -4.623265267277088E1  -1.555736294689949E2  -1.514673465087261E1  -1.788255902043221E2  
 7.560800000000000E9    -1.656835683866229E1   1.724076651138260E2  -4.646339172975663E1  -1.671422908899426E2  -4.637355077821043E1  -1.672927381579342E2  -1.507594258287644E1  -1.790344125438054E2  
 7.561600000000000E9    -1.656762166997048E1   1.720239682970976E2  -4.694351170539358E1  -1.793540866174308E2  -4.688904383164223E1  -1.795129453476176E2  -1.502792520776134E1  -1.795394136253557E2  
 7.562400000000000E9    -1.655638619404055E1   1.717648913453884E2  -4.783702258542779E1   1.687498139322028E2  -4.783598630641934E1   1.687593782037388E2  -1.501461678314509E1   1.798989890093451E2  
 7.563200000000000E9    -1.657579862716909E1   1.715346984188876E2  -4.904586671810043E1   1.583352634666156E2  -4.906442132779742E1   1.575713744829742E2  -1.503282546721517E1   1.791464441575552E2  
 7.564000000000000E9    -1.659580427714673E1   1.713274288387224E2  -5.046868109346220E1   1.485415205497549E2  -5.053183143994049E1   1.483461650687659E2  -1.507479271068153E1   1.786508190206158E2  
 7.564800000000000E9    -1.661602862172801E1   1.712340562545213E2  -5.203769586842022E1   1.396608308336700E2  -5.203633410838754E1   1.393976288491637E2  -1.511116208775751E1   1.782586633894486E2  
 7.565600000000000E9    -1.662262994718500E1   1.711952259677098E2  -5.387286821898298E1   1.306658409109638E2  -5.387524230214766E1   1.309815966472725E2  -1.518882361936054E1   1.779898699525607E2  
 7.566400000000000E9    -1.660970785552042E1   1.711983204141185E2  -5.627127004712455E1   1.211512431172421E2  -5.609706692108110E1   1.212033811198556E2  -1.525674122898009E1   1.778888617529335E2  
 7.567200000000000E9    -1.659038480120129E1   1.711297414423801E2  -5.938994389629989E1   1.112061865357057E2  -5.938157833278290E1   1.104925859684667E2  -1.531871092275605E1   1.779539904470738E2  
 7.568000000000000E9    -1.655691928230453E1   1.712318492512371E2  -6.413620673854517E1   1.035522589563160E2  -6.401700638859035E1   1.035172342595546E2  -1.536866964830783E1   1.781204294087124E2  
 7.568800000000000E9    -1.653788505483210E1   1.710152603555983E2  -6.931947032336178E1   9.966366202023211E1  -6.988660666690539E1   1.005444479601527E2  -1.538346471934308E1   1.783695778085267E2  
 7.569600000000000E9    -1.650134424854660E1   1.709512965867889E2  -7.643654724121605E1   3.847510329749548E1  -7.915020730056662E1   4.693852299364047E1  -1.538812546093348E1   1.785158671841338E2  
 7.570400000000000E9    -1.647649916355633E1   1.706426519010025E2  -6.859504916643607E1  -3.099820422973981E1  -6.961626785585909E1  -3.431929262526097E1  -1.536723708411205E1   1.785982377771777E2  
 7.571200000000000E9    -1.647224948810024E1   1.703135742324367E2  -6.209072082902830E1  -5.182424526775148E1  -6.240455597937584E1  -4.969248840423668E1  -1.531679792159098E1   1.785985549195734E2  
 7.572000000000000E9    -1.649895764577664E1   1.700087144670304E2  -5.745959845971583E1  -6.191732291313071E1  -5.776377079787520E1  -6.226906029423982E1  -1.528093834579396E1   1.784106193737283E2  
 7.572800000000000E9    -1.652057077124262E1   1.696560199710315E2  -5.424714484115558E1  -7.201311186649811E1  -5.428619147372436E1  -7.337407908860811E1  -1.527285079647638E1   1.779923060467679E2  
 7.573600000000000E9    -1.652114968894166E1   1.694572696043271E2  -5.178474750887298E1  -8.319715039833875E1  -5.177852215388030E1  -8.397004910308503E1  -1.526355231888554E1   1.776569126765079E2  
 7.574400000000000E9    -1.654780159263833E1   1.693065300543512E2  -4.960703906110557E1  -9.457494229356651E1  -4.961615653861188E1  -9.519735444927238E1  -1.528051779716173E1   1.773097496005201E2  
 7.575200000000000E9    -1.657245848668540E1   1.691061009927040E2  -4.778080457798387E1  -1.061396378890775E2  -4.780745388387020E1  -1.067238617103580E2  -1.529444688109018E1   1.768879075691503E2  
 7.576000000000000E9    -1.660864569367243E1   1.689840050290424E2  -4.637255901107216E1  -1.183253720987500E2  -4.634922258987864E1  -1.183040321149023E2  -1.535243894374493E1   1.764865802313104E2  
 7.576800000000000E9    -1.663828350768552E1   1.690429614313240E2  -4.520528126128722E1  -1.306118549775055E2  -4.515017127219665E1  -1.309333137003706E2  -1.539501736568986E1   1.762104484714668E2  
 7.577600000000000E9    -1.665720435609233E1   1.689798620115520E2  -4.426131188170872E1  -1.427809421366986E2  -4.426316846269243E1  -1.432743630928975E2  -1.546410338618874E1   1.761924238361902E2  
