#  HZ   S   DB   R     50.00 
! Rohde & Schwarz ZVA40 2Ports - Version 4.11 - 1145.1110k40 SN: 100216
! Date: 2025-05-17 20:22:14
! Measurements: S11 S21 S12 S22 
! 
 7.500000000000000E9    -1.636660051000726E1   1.747701540665944E2  -4.566448155772186E1  -3.457555888977884  -4.567107390785021E1  -2.871606650280568  -1.504247437355112E1  -1.780048016985954E2  
 7.500800000000000E9    -1.633198693215253E1   1.750371156589141E2  -4.648227759099143E1  -1.882239268088524E1  -4.645050580147861E1  -1.850535529526450E1  -1.511556112482456E1  -1.783510759246696E2  
 7.501600000000000E9    -1.632643647985674E1   1.749897993433894E2  -4.767443042215835E1  -3.578139133014006E1  -4.753278251023077E1  -3.585428376207531E1  -1.519741215138932E1  -1.784504349177990E2  
 7.502400000000000E9    -1.627288167763483E1   1.749109774454162E2  -4.912875594737180E1  -5.577534206818791E1  -4.909365208106511E1  -5.508994366443990E1  -1.529062212463725E1  -1.784028136338036E2  
 7.503200000000000E9    -1.624718401654500E1   1.749484914226295E2  -5.083028227898744E1  -7.833832308138273E1  -5.075852857184522E1  -7.801681796246291E1  -1.535360698045601E1  -1.780977561999119E2  
 7.504000000000000E9    -1.623757648605392E1   1.745622889448752E2  -5.267609114491091E1  -1.078183974241669E2  -5.260814002170830E1  -1.079223395869007E2  -1.541220099719712E1  -1.777570039586271E2  
 7.504800000000000E9    -1.621516331580736E1   1.745629301872128E2  -5.376267356181698E1  -1.426775391209183E2  -5.361350131471010E1  -1.424616846873814E2  -1.544901339263016E1  -1.773345146445739E2  
 7.505600000000000E9    -1.620662256492144E1   1.742572443027965E2  -5.333175634227823E1  -1.791280552164644E2  -5.320504222085049E1  -1.787573576819303E2  -1.546433498633458E1  -1.769682462189700E2  
 7.506400000000000E9    -1.623020942309139E1   1.739152451304969E2  -5.190103572728118E1   1.511071639106258E2  -5.190824317789665E1   1.512227088776274E2  -1.543980282400312E1  -1.764366566332760E2  
 7.507200000000000E9    -1.624727417786279E1   1.736330321233555E2  -5.021726405628309E1   1.290776265265175E2  -5.017131436339237E1   1.286595566090453E2  -1.538558634251414E1  -1.760956062658415E2  
 7.508000000000000E9    -1.626390643562978E1   1.734695228433720E2  -4.870286194961075E1   1.103104497692369E2  -4.866782118012603E1   1.114243889989363E2  -1.532506188810182E1  -1.759466797529374E2  
 7.508800000000000E9    -1.629486571507079E1   1.733247572185889E2  -4.751625542784933E1   9.586329416127103E1  -4.742509236882869E1   9.588628104257207E1  -1.526331098459192E1  -1.760071874240229E2  
 7.509600000000000E9    -1.633258196822697E1   1.731258075343200E2  -4.642341927357485E1   8.219980802894577E1  -4.638458727966142E1   8.254906968264778E1  -1.521943088246150E1  -1.762594050932148E2  
 7.510400000000000E9    -1.634962780820124E1   1.730615326795492E2  -4.567555480675068E1   6.952786289786120E1  -4.559574921531642E1   6.930335902261621E1  -1.518669288716738E1  -1.765791681609383E2  
 7.511200000000000E9    -1.637344801823842E1   1.730433191863180E2  -4.500266229243407E1   5.745696991819132E1  -4.488388498365350E1   5.765823540867149E1  -1.518727713676844E1  -1.769148866497293E2  
 7.512000000000000E9    -1.643943636960319E1   1.730466186979382E2  -4.462594130549960E1   4.625594241120812E1  -4.451666281240841E1   4.637282724467031E1  -1.523125530102134E1  -1.772049372017380E2  
 7.512800000000000E9    -1.646269275446868E1   1.730469428533975E2  -4.441662255439378E1   3.579377756860765E1  -4.432538547231549E1   3.606256507644775E1  -1.523595914338269E1  -1.772574075805424E2  
 7.513600000000000E9    -1.651220969271080E1   1.733044028917424E2  -4.424922579351865E1   2.655835264068363E1  -4.420106161725076E1   2.671910375865994E1  -1.524724274560832E1  -1.772716258085308E2  
 7.514400000000000E9    -1.653658353986470E1   1.735374653975071E2  -4.412014933346474E1   1.796047921089167E1  -4.405955568215951E1   1.808309444056014E1  -1.526512496777592E1  -1.773407028206126E2  
 7.515200000000000E9    -1.657610355608070E1   1.736370989341949E2  -4.402641297169531E1   9.221130072661023  -4.393884563171934E1   9.346955341398459  -1.528111373425891E1  -1.775381261548323E2  
 7.516000000000000E9    -1.657267709063485E1   1.738678953417621E2  -4.394846668576634E1   1.006842918418419E-1  -4.386741274731929E1  -5.894360300586311E-2  -1.528592475248892E1  -1.776353226440968E2  
 7.516800000000000E9    -1.657066813848677E1   1.741255897299461E2  -4.403825917851461E1  -9.116535141518172  -4.401297542606047E1  -9.448286600740016  -1.535255364594161E1  -1.775761046926920E2  
 7.517600000000000E9    -1.658684425053463E1   1.744452027887739E2  -4.429955682900526E1  -1.900444818612134E1  -4.424611797126393E1  -1.915907964345746E1  -1.538819907999134E1  -1.773608264336689E2  
 7.518400000000000E9    -1.655610365882521E1   1.746856361645584E2  -4.476399950022994E1  -2.836061754471271E1  -4.468080111513698E1  -2.864829525650163E1  -1.539472011572409E1  -1.769841300839079E2  
 7.519200000000000E9    -1.653040305107979E1   1.749076472004059E2  -4.545892374016525E1  -3.730908876626862E1  -4.545244103127659E1  -3.773147420612229E1  -1.537517898262273E1  -1.766067038723775E2  
 7.520000000000000E9    -1.648041339380217E1   1.751161156590683E2  -4.635807785927960E1  -4.539315062311780E1  -4.633867662022357E1  -4.565111365943093E1  -1.532901744985042E1  -1.763790647955155E2  
 7.520800000000000E9    -1.641266940643943E1   1.749719285104941E2  -4.746929929315463E1  -5.183627529099440E1  -4.739244781502306E1  -5.235747308168065E1  -1.525897079213936E1  -1.762917680400718E2  
 7.521600000000000E9    -1.639597939152160E1   1.746276951789584E2  -4.868352432963252E1  -5.653471599472932E1  -4.860590556064172E1  -5.717935251821418E1  -1.517231956988315E1  -1.764334207285816E2  
 7.522400000000000E9    -1.634913040981407E1   1.743264783176962E2  -4.987483593204268E1  -5.912275828948599E1  -4.978103243718012E1  -5.942749656057683E1  -1.511799464591585E1  -1.767950384808290E2  
 7.523200000000000E9    -1.637036752538103E1   1.740189025484796E2  -5.073557568452475E1  -6.050395316751136E1  -5.068379337217738E1  -6.104538843845153E1  -1.506533652564071E1  -1.772659054228520E2  
 7.524000000000000E9    -1.638680779495055E1   1.739167428639046E2  -5.155003222390814E1  -6.170412187642799E1  -5.157491882226338E1  -6.288962496799626E1  -1.505650231172383E1  -1.777641050715083E2  
 7.524800000000000E9    -1.643413117667067E1   1.735116703437356E2  -5.231268091355641E1  -6.481856418922199E1  -5.234700204803080E1  -6.535054517121395E1  -1.510149899758853E1  -1.782924245496887E2  
 7.525600000000000E9    -1.647799029080120E1   1.733642874789731E2  -5.363819189454384E1  -6.846453760990525E1  -5.352484747438439E1  -6.920593978319299E1  -1.515919690854299E1  -1.786904275204518E2  
 7.526400000000000E9    -1.653149602139253E1   1.731903694387067E2  -5.516570750801958E1  -7.106527840274950E1  -5.522306706375564E1  -7.042979283238772E1  -1.522482260496802E1  -1.789170252952734E2  
 7.527200000000000E9    -1.659619169326912E1   1.732846047175059E2  -5.748778339685884E1  -7.016464752411962E1  -5.735631128759201E1  -6.997377278639918E1  -1.530524551716711E1  -1.789499629144990E2  
 7.528000000000000E9    -1.663219822677161E1   1.734357663067285E2  -6.044788305650796E1  -5.891626606768381E1  -6.034766100567369E1  -5.939047444816615E1  -1.538312621497011E1  -1.787633218180907E2  
 7.528800000000000E9    -1.667717811627401E1   1.735805611214540E2  -6.265101193407777E1  -3.198068457923926E1  -6.233788146611123E1  -3.076364511897200E1  -1.540577634526074E1  -1.783571209124262E2  
 7.529600000000000E9    -1.670252594902692E1   1.738793159212453E2  -6.062929269001101E1   2.792795677039133E-1  -6.056542469770451E1   1.304215043317522  -1.542756597700069E1  -1.780288525612612E2  
 7.530400000000000E9    -1.673250473717676E1   1.741840557332791E2  -5.703482554424224E1   1.501586161301243E1  -5.703668129030201E1   1.361738173333671E1  -1.541119524219051E1  -1.773764210135638E2  
 7.531200000000000E9    -1.674207386937944E1   1.744444981921484E2  -5.403759136400319E1   1.729492947313135E1  -5.394035379973842E1   1.717797336349624E1  -1.539660730362173E1  -1.771877630272741E2  
 7.532000000000000E9    -1.672563589756081E1   1.748021824464079E2  -5.138655682147326E1   1.417724357334457E1  -5.122310384936085E1   1.410083612079042E1  -1.533359091832046E1  -1.769695931236744E2  
 7.532800000000000E9    -1.670151916164111E1   1.750145050106667E2  -4.918339907503846E1   8.696796076290267  -4.912571786275565E1   8.083645469799492  -1.528864144474485E1  -1.768475202573350E2  
 7.533600000000000E9    -1.668552400173043E1   1.750698894509138E2  -4.732450067687155E1   9.499919828274490E-1  -4.730252507400820E1   6.692913812857411E-1  -1.522157037611016E1  -1.768953643893657E2  
 7.534400000000000E9    -1.668747072522088E1   1.753197351440297E2  -4.585142142594556E1  -7.956909334395128  -4.584745408648110E1  -8.399946557678673  -1.517658638184901E1  -1.769598161537410E2  
 7.535200000000000E9    -1.664020919187772E1   1.754145283389487E2  -4.462495032916064E1  -1.773301178868185E1  -4.455982474819749E1  -1.791863536093151E1  -1.513109360938125E1  -1.771864913225920E2  
 7.536000000000000E9    -1.662330518630470E1   1.754409134852482E2  -4.362123298262722E1  -2.841461260031973E1  -4.360269783437010E1  -2.863661929516772E1  -1.510581703817693E1  -1.774905744829378E2  
 7.536800000000000E9    -1.658218703477753E1   1.753567630079092E2  -4.284498296292207E1  -3.953627968431210E1  -4.283554081967868E1  -4.016488590506442E1  -1.509908182400802E1  -1.777255649995057E2  
 7.537600000000000E9    -1.654827151938239E1   1.754186994643455E2  -4.237547592809163E1  -5.151806409640259E1  -4.235274598429687E1  -5.169169499474639E1  -1.507966583524517E1  -1.780531003118209E2  
 7.538400000000000E9    -1.653567653576467E1   1.752613869108682E2  -4.211096713232283E1  -6.359957695410825E1  -4.207961623023555E1  -6.371700547350828E1  -1.509271681104223E1  -1.783222103083769E2  
 7.539200000000000E9    -1.649469677047105E1   1.750602044115614E2  -4.209087710967674E1  -7.532550555585021E1  -4.207037855513406E1  -7.590629455565076E1  -1.513267476937680E1  -1.785040010018289E2  
 7.540000000000000E9    -1.647783693012123E1   1.746433111312337E2  -4.230767664414637E1  -8.744771077891663E1  -4.227436970087632E1  -8.794037578483739E1  -1.517879452366952E1  -1.786313110548520E2  
 7.540800000000000E9    -1.649156742335904E1   1.745247683716971E2  -4.272773989997369E1  -9.921092771131259E1  -4.268579052560034E1  -9.947029664464434E1  -1.518770456209668E1  -1.785574735968467E2  
 7.541600000000000E9    -1.649181689661321E1   1.743216422865193E2  -4.335995810157451E1  -1.104032831056291E2  -4.340484872438948E1  -1.109277167092441E2  -1.520693987559641E1  -1.784376867350638E2  
 7.542400000000000E9    -1.650880051651535E1   1.741626458431971E2  -4.430755662265890E1  -1.214060317454916E2  -4.435933300985084E1  -1.220125433490482E2  -1.522784858474592E1  -1.783957110938373E2  
 7.543200000000000E9    -1.649262150947540E1   1.739105557507120E2  -4.551963862884259E1  -1.312253755331333E2  -4.553537666633462E1  -1.317876290062165E2  -1.521838537002269E1  -1.782704437782584E2  
 7.544000000000000E9    -1.648508337717895E1   1.737377176931520E2  -4.695405435587341E1  -1.399697387263616E2  -4.696109570775737E1  -1.407031733611060E2  -1.520876935928802E1  -1.782402402566736E2  
 7.544800000000000E9    -1.648910296293110E1   1.735374031691851E2  -4.868211660823352E1  -1.473186693009897E2  -4.870634691410615E1  -1.476209220879356E2  -1.520499655678422E1  -1.780622393915590E2  
 7.545600000000000E9    -1.648648551010539E1   1.733362353313881E2  -5.064969866984967E1  -1.522614585107409E2  -5.070342504664295E1  -1.524623400294374E2  -1.515482068441199E1  -1.780484766325985E2  
 7.546400000000000E9    -1.652506052972853E1   1.731076122528176E2  -5.298583833790222E1  -1.547653100965099E2  -5.295254817744726E1  -1.547414015514700E2  -1.512856453900673E1  -1.780109317767301E2  
 7.547200000000000E9    -1.653615386510892E1   1.728350210125280E2  -5.550786368541201E1  -1.522597503714331E2  -5.553677191414769E1  -1.528077816721541E2  -1.506173941991701E1  -1.780496978666575E2  
 7.548000000000000E9    -1.655364268831717E1   1.726250044271806E2  -5.817172515909812E1  -1.420130898742947E2  -5.807428981278105E1  -1.425286613632886E2  -1.504731232041666E1  -1.784047930354627E2  
 7.548800000000000E9    -1.659636488049148E1   1.725493405309113E2  -5.971251141308292E1  -1.229384207898209E2  -5.992395231247006E1  -1.242711718903492E2  -1.503332167697252E1  -1.787740919034337E2  
 7.549600000000000E9    -1.661571964326080E1   1.723657807751199E2  -5.932899391200728E1  -1.007708219048144E2  -5.919932560988401E1  -1.014317908348398E2  -1.501815299388985E1  -1.792994538369465E2  
 7.550400000000000E9    -1.666589791927366E1   1.721370414840593E2  -5.755946378768904E1  -8.648192946445967E1  -5.722361412052604E1  -8.690092525468316E1  -1.505585825253126E1  -1.796448020411448E2  
 7.551200000000000E9    -1.668935294162543E1   1.721678319260199E2  -5.523032322007674E1  -8.184244407782106E1  -5.524018708704885E1  -8.272994161574364E1  -1.508139116573471E1  -1.799721808209387E2  
 7.552000000000000E9    -1.674160545388207E1   1.721297047401575E2  -5.339913728163158E1  -8.278271848647653E1  -5.335106513189491E1  -8.238153883686580E1  -1.514970427577411E1   1.797543299505455E2  
 7.552800000000000E9    -1.676789007418193E1   1.722506368128398E2  -5.190276652988457E1  -8.588362590588105E1  -5.180696683284519E1  -8.565637164977028E1  -1.520754307532343E1   1.796596575605471E2  
 7.553600000000000E9    -1.680243156741464E1   1.723929021095838E2  -5.060842813517100E1  -9.022295386500593E1  -5.058818977473178E1  -9.073647305876894E1  -1.527978045470910E1   1.798392529373677E2  
 7.554400000000000E9    -1.681350617594871E1   1.726233355954945E2  -4.970428008246468E1  -9.624021132070040E1  -4.966901686262956E1  -9.661919006722134E1  -1.533086660974430E1  -1.799598491989491E2  
 7.555200000000000E9    -1.679841421870091E1   1.727861403296391E2  -4.896983664077040E1  -1.016829372797453E2  -4.887521835097232E1  -1.017827405705996E2  -1.536023200148967E1  -1.797384466321622E2  
 7.556000000000000E9    -1.677470356387918E1   1.730938410387201E2  -4.808795739969044E1  -1.083840838460464E2  -4.809616089365633E1  -1.088310703321354E2  -1.536676683115069E1  -1.794444108467533E2  
 7.556800000000000E9    -1.673317446947948E1   1.731979642845903E2  -4.738448368036071E1  -1.156357737260697E2  -4.737958707825243E1  -1.153911496007607E2  -1.533986474055340E1  -1.791887780951020E2  
 7.557600000000000E9    -1.671104983954430E1   1.730601838729783E2  -4.681131404665309E1  -1.240617362458623E2  -4.680620267038454E1  -1.240690307831562E2  -1.531892720598315E1  -1.788576104315049E2  
 7.558400000000000E9    -1.666447256050353E1   1.730407737489609E2  -4.636016250855607E1  -1.334359153947027E2  -4.636178506037625E1  -1.335416526155256E2  -1.527651645346821E1  -1.786626852090202E2  
 7.559200000000000E9    -1.662367590704998E1   1.729764250721578E2  -4.607939875489276E1  -1.435859343446824E2  -4.606551116024406E1  -1.439822637538994E2  -1.520248393315829E1  -1.785740783460359E2  
 7.560000000000000E9    -1.658172414885773E1   1.726331899495445E2  -4.610230746406160E1  -1.548351935019821E2  -4.600897656826134E1  -1.549033358556966E2  -1.513851100750350E1  -1.787581702952243E2  
 7.560800000000000E9    -1.657234877035824E1   1.724112543254838E2  -4.632569511645039E1  -1.667765474343368E2  -4.632791716540811E1  -1.667328131840146E2  -1.507173897406791E1  -1.790422656727330E2  
 7.561600000000000E9    -1.655996054720777E1   1.720553934723905E2  -4.690963386274758E1  -1.788078931235681E2  -4.689946789293950E1  -1.791567397984775E2  -1.502221499714127E1  -1.795617617034870E2  
 7.562400000000000E9    -1.656241515014176E1   1.718059895585806E2  -4.796827151229628E1   1.694712203676954E2  -4.783834915712291E1   1.693948304445749E2  -1.501800875720003E1   1.798952220282643E2  
 7.563200000000000E9    -1.657488936816411E1   1.716204523863836E2  -4.915215430549186E1   1.591331568157858E2  -4.911440337421504E1   1.589827393849985E2  -1.502153279428487E1   1.792711611687643E2  
 7.564000000000000E9    -1.657994084019003E1   1.714262056681533E2  -5.068047769691269E1   1.501673489764793E2  -5.068077223014402E1   1.493691318238088E2  -1.505876297117794E1   1.786995182365571E2  
 7.564800000000000E9    -1.661132106037687E1   1.712744426425938E2  -5.240337435011310E1   1.414289563351917E2  -5.236652364254052E1   1.415850266166091E2  -1.510963515687644E1   1.782417136604076E2  
 7.565600000000000E9    -1.662243980275462E1   1.712499824450274E2  -5.419931095019640E1   1.332297107228989E2  -5.414373196390847E1   1.325876511107465E2  -1.518646050418612E1   1.779906505913178E2  
 7.566400000000000E9    -1.660580179286899E1   1.713543367129001E2  -5.672379556853595E1   1.242946462078301E2  -5.671707401070231E1   1.236387575613410E2  -1.525713747156908E1   1.778755039596597E2  
 7.567200000000000E9    -1.658442022309204E1   1.712116699356707E2  -6.030272997203985E1   1.157231976726844E2  -6.039217659255067E1   1.140327007217003E2  -1.532954305770158E1   1.779509694802116E2  
 7.568000000000000E9    -1.656313274641567E1   1.712931477772268E2  -6.561265395506827E1   1.115631706060077E2  -6.561581071062686E1   1.115882055540046E2  -1.536604060844274E1   1.781521992852246E2  
 7.568800000000000E9    -1.652834869662549E1   1.710097809566086E2  -7.379485673782210E1   1.212018267798395E2  -7.398629833922237E1   1.189345877834504E2  -1.538058588443894E1   1.783636648360203E2  
 7.569600000000000E9    -1.648758049275697E1   1.709517243396351E2  -8.511575984743392E1  -8.210400185797461E1  -8.634095349006117E1  -7.150049804010271E1  -1.538105841142811E1   1.785322279087114E2  
 7.570400000000000E9    -1.646125535385299E1   1.706614297285094E2  -6.926625135587396E1  -6.238031778493900E1  -6.865517560316042E1  -5.606592676468598E1  -1.534904844228616E1   1.785910330860937E2  
 7.571200000000000E9    -1.647334586935098E1   1.703374150059054E2  -6.192704366170363E1  -5.983935039393464E1  -6.171114872003864E1  -6.135659788811875E1  -1.530536089969402E1   1.785705013819204E2  
 7.572000000000000E9    -1.649263541614053E1   1.700264989736800E2  -5.745287646208224E1  -6.687053929388117E1  -5.734863293355441E1  -6.748587692790882E1  -1.528153525628809E1   1.783857250572952E2  
 7.572800000000000E9    -1.650504410297736E1   1.696253354782884E2  -5.401883553324431E1  -7.589676583254956E1  -5.400607396740526E1  -7.609228370986541E1  -1.525959166040878E1   1.780773530504974E2  
 7.573600000000000E9    -1.652505822644547E1   1.695458144103764E2  -5.146511743665075E1  -8.552095293573360E1  -5.144938170339545E1  -8.511711413909927E1  -1.525122089269556E1   1.776128288414405E2  
 7.574400000000000E9    -1.654021574122936E1   1.691898965066847E2  -4.935888079474580E1  -9.571440044866066E1  -4.920543655182053E1  -9.688634290364911E1  -1.527227932026154E1   1.772630271167998E2  
 7.575200000000000E9    -1.657054189053566E1   1.691583098100081E2  -4.746718057834587E1  -1.076246414462968E2  -4.745927649964774E1  -1.072792551700500E2  -1.529195168745843E1   1.768488662386404E2  
 7.576000000000000E9    -1.659906218860091E1   1.690407728573738E2  -4.595290699808273E1  -1.194020304069910E2  -4.600343189362650E1  -1.194106848211528E2  -1.535148245001625E1   1.764686295700282E2  
 7.576800000000000E9    -1.663254287830095E1   1.690701998302914E2  -4.482246022088736E1  -1.315281856154604E2  -4.481059907156128E1  -1.317547947448884E2  -1.540651658798294E1   1.762450725596377E2  
 7.577600000000000E9    -1.667545858161573E1   1.690364563199499E2  -4.396476594667161E1  -1.439745553097912E2  -4.393381785586136E1  -1.438752477777719E2  -1.546528342877711E1   1.762250155057831E2  
