#  HZ   S   DB   R     50.00 
! Rohde & Schwarz ZVA40 2Ports - Version 4.11 - 1145.1110k40 SN: 100216
! Date: 2025-05-18 21:17:40
! Measurements: S11 S21 S12 S22 
! 
 7.500000000000000E9    -1.633799032596670E1   1.779507478313826E2  -5.221649397957387E1   1.195795593964386E2  -5.220760187516267E1   1.197422497781910E2  -1.497657231169608E1  -1.775868451530702E2  
 7.500800000000000E9    -1.627171797664319E1   1.781830740906827E2  -5.700847241017469E1   1.154657253301392E2  -5.724476535685655E1   1.154954360226977E2  -1.496912610456367E1  -1.776392811044892E2  
 7.501600000000000E9    -1.622041804241561E1   1.783416963842686E2  -6.793270326642337E1   1.552220704767889E2  -6.779512345151808E1   1.571943585490568E2  -1.498344703744461E1  -1.777704332703286E2  
 7.502400000000000E9    -1.614698427074195E1   1.785174978514951E2  -5.902748807717955E1  -1.213717087478603E2  -5.905463391409208E1  -1.217837989941426E2  -1.499222258592338E1  -1.779188662042076E2  
 7.503200000000000E9    -1.606483067855955E1   1.782685029616557E2  -5.289500871805127E1  -1.221850576166680E2  -5.294742816672924E1  -1.221873365415450E2  -1.500374290862126E1  -1.780501651431143E2  
 7.504000000000000E9    -1.601129493885921E1   1.779261667182481E2  -4.945900947582886E1  -1.286834780101370E2  -4.936895611532880E1  -1.293573883384719E2  -1.502563641729992E1  -1.781524834673629E2  
 7.504800000000000E9    -1.593691580785688E1   1.776154319880064E2  -4.707429167313740E1  -1.367197197468059E2  -4.713788210887692E1  -1.373373648787274E2  -1.505185189147159E1  -1.783013018046491E2  
 7.505600000000000E9    -1.589304737037854E1   1.769578551071823E2  -4.533455592498350E1  -1.449247398505992E2  -4.540253642164964E1  -1.456945913292188E2  -1.508121937413329E1  -1.782885129039481E2  
 7.506400000000000E9    -1.588379748311516E1   1.764836772123272E2  -4.407660024727446E1  -1.539565563798379E2  -4.402725996232113E1  -1.544685365881878E2  -1.509874543868506E1  -1.782362801193862E2  
 7.507200000000000E9    -1.589902097643041E1   1.759455139689409E2  -4.303431117867972E1  -1.625442429537197E2  -4.298810461113695E1  -1.631293725355646E2  -1.511596052266838E1  -1.781378154847706E2  
 7.508000000000000E9    -1.593116255101530E1   1.756080610714202E2  -4.220197331055955E1  -1.710834515000587E2  -4.218403395363666E1  -1.717392170524732E2  -1.512208684973033E1  -1.780687068692251E2  
 7.508800000000000E9    -1.597473953698126E1   1.752067839176866E2  -4.158182816151490E1   1.796471904201223E2  -4.154959542887354E1   1.791993326062747E2  -1.511160045147961E1  -1.779484867374107E2  
 7.509600000000000E9    -1.601937856076694E1   1.751115007019498E2  -4.113477237465743E1   1.703423439082285E2  -4.112605980807388E1   1.698192549346390E2  -1.508249046223776E1  -1.779751331015382E2  
 7.510400000000000E9    -1.605539320679442E1   1.749980773761962E2  -4.096702025872190E1   1.608536386624913E2  -4.095205694411657E1   1.600975659793074E2  -1.505387596814308E1  -1.781497898101075E2  
 7.511200000000000E9    -1.607981253045959E1   1.750382152079023E2  -4.102916404765575E1   1.514985388608943E2  -4.103654174806669E1   1.508874412728454E2  -1.505601252166908E1  -1.783414772050597E2  
 7.512000000000000E9    -1.612280788125691E1   1.748636540967114E2  -4.134588434210056E1   1.428825086273399E2  -4.133461122856729E1   1.422838870470725E2  -1.506778030686128E1  -1.785036508215473E2  
 7.512800000000000E9    -1.610933484783161E1   1.748467045075303E2  -4.183381223013830E1   1.357312857035880E2  -4.175237060328484E1   1.348915988487456E2  -1.509546653704109E1  -1.786964584757067E2  
 7.513600000000000E9    -1.610625723641016E1   1.747331406881917E2  -4.227209558578495E1   1.297971852155216E2  -4.229607273680948E1   1.290375912831344E2  -1.511544852270216E1  -1.786251755091412E2  
 7.514400000000000E9    -1.614569579818597E1   1.746227559847125E2  -4.270545438807029E1   1.245815591683129E2  -4.275181011802212E1   1.238149632408410E2  -1.513756363638493E1  -1.785572709262440E2  
 7.515200000000000E9    -1.618015714276480E1   1.745961292833861E2  -4.318045341612761E1   1.185652853469321E2  -4.318061617125183E1   1.177001193564895E2  -1.511757416541923E1  -1.785922538533940E2  
 7.516000000000000E9    -1.621288824554151E1   1.746361443851200E2  -4.375901912467891E1   1.115028409612677E2  -4.375272504632408E1   1.110181275909701E2  -1.511043878265655E1  -1.787404238620439E2  
 7.516800000000000E9    -1.623545461398468E1   1.746796618086089E2  -4.477181606768092E1   1.048697906031782E2  -4.469228402545316E1   1.040075439213821E2  -1.509077018279522E1  -1.789412251109573E2  
 7.517600000000000E9    -1.625125913663444E1   1.748827987981454E2  -4.623080507600081E1   9.922939007988749E1  -4.616066026401485E1   9.849125173076769E1  -1.512363348332829E1  -1.792235961748874E2  
 7.518400000000000E9    -1.626819840977799E1   1.749481944933381E2  -4.802674299675947E1   9.728992818186981E1  -4.804824968962701E1   9.622093779028072E1  -1.516187109211082E1  -1.793152200742418E2  
 7.519200000000000E9    -1.625177000019142E1   1.751915295750492E2  -5.014505414655449E1   1.007965031665990E2  -5.019436400971953E1   1.005669649033585E2  -1.520201112910521E1  -1.794339483730312E2  
 7.520000000000000E9    -1.622630139184384E1   1.754026448951067E2  -5.174823761723308E1   1.132060018722435E2  -5.171138177630907E1   1.124927009694646E2  -1.521892655563444E1  -1.792637582129390E2  
 7.520800000000000E9    -1.617619104271974E1   1.755971508213019E2  -5.176287828868789E1   1.294072667289607E2  -5.171686305473881E1   1.284359310424134E2  -1.524930642646810E1  -1.791963103978678E2  
 7.521600000000000E9    -1.614989612493270E1   1.754165386507781E2  -5.041773864348606E1   1.398409133397713E2  -5.043983452769018E1   1.394316973188246E2  -1.524496885873098E1  -1.790202632073161E2  
 7.522400000000000E9    -1.612797879145428E1   1.753720228339240E2  -4.884766955025852E1   1.420461082048849E2  -4.884063839475428E1   1.414135784931052E2  -1.523212247604315E1  -1.787790348369444E2  
 7.523200000000000E9    -1.609850706709234E1   1.751515165143428E2  -4.773846505695714E1   1.402513990020382E2  -4.764578328973423E1   1.390940533570230E2  -1.519282669319291E1  -1.786982680314176E2  
 7.524000000000000E9    -1.606076092503473E1   1.750506290453455E2  -4.702885857080582E1   1.362216654737101E2  -4.702590278279460E1   1.355790597777290E2  -1.516166574490133E1  -1.788778516192528E2  
 7.524800000000000E9    -1.601679181023104E1   1.747758782091691E2  -4.669653931369649E1   1.328403911254608E2  -4.665617876918574E1   1.315940393319628E2  -1.512690940379888E1  -1.792348375142659E2  
 7.525600000000000E9    -1.602428225869625E1   1.745464065576095E2  -4.655890175790179E1   1.297423808240611E2  -4.656864993742206E1   1.287386336209176E2  -1.513029155140850E1  -1.795758219351211E2  
 7.526400000000000E9    -1.601942255314722E1   1.742456930305513E2  -4.653148608295509E1   1.278507092417655E2  -4.648452430806168E1   1.266669065792418E2  -1.515385229441781E1  -1.798983603032375E2  
 7.527200000000000E9    -1.602047829777379E1   1.738098288202550E2  -4.646725642865103E1   1.266136752380796E2  -4.646973212855792E1   1.254028815271831E2  -1.520471058082836E1   1.798131798533229E2  
 7.528000000000000E9    -1.601691353130685E1   1.735884050696627E2  -4.634042724089215E1   1.257190384426602E2  -4.634440642793746E1   1.248564893573523E2  -1.525246084039755E1   1.796357605865785E2  
 7.528800000000000E9    -1.603969859725959E1   1.734855226826833E2  -4.607504745728410E1   1.251070804414480E2  -4.609049300746609E1   1.244322636320236E2  -1.532217084209368E1   1.796196032778475E2  
 7.529600000000000E9    -1.603687394267755E1   1.731354771323482E2  -4.588671943776846E1   1.242596870792337E2  -4.582185724575282E1   1.232352524071813E2  -1.536342638786364E1   1.797403807984524E2  
 7.530400000000000E9    -1.607317595110460E1   1.728951396740544E2  -4.556554030361756E1   1.233645906158472E2  -4.554218152044618E1   1.223876286662971E2  -1.537637917020320E1   1.798598145485722E2  
 7.531200000000000E9    -1.613417217186301E1   1.726612797384652E2  -4.512664302717685E1   1.224110903853684E2  -4.514441305460398E1   1.215104360961460E2  -1.542843689410424E1   1.799634573364624E2  
 7.532000000000000E9    -1.616376462155989E1   1.724153692096230E2  -4.459886323222183E1   1.207065062864248E2  -4.463408173571923E1   1.199969098524998E2  -1.543392296911683E1  -1.797707804673219E2  
 7.532800000000000E9    -1.622230768798794E1   1.723174421078991E2  -4.406763087129754E1   1.182485100011529E2  -4.403299499345985E1   1.170766335929348E2  -1.543893546795831E1  -1.796509870500935E2  
 7.533600000000000E9    -1.626015732598651E1   1.723252736542137E2  -4.349697765100073E1   1.143841103836287E2  -4.350858838289069E1   1.135625717940768E2  -1.543364361774292E1  -1.794638934620209E2  
 7.534400000000000E9    -1.630144584519925E1   1.724492477127573E2  -4.294987959098611E1   1.091298620948646E2  -4.301500671876731E1   1.079823613289888E2  -1.541130177702262E1  -1.794393728992548E2  
 7.535200000000000E9    -1.634395589162794E1   1.727492119915368E2  -4.264902676228483E1   1.029319951341537E2  -4.270161230621194E1   1.020785339173275E2  -1.541195909049125E1  -1.793302469996192E2  
 7.536000000000000E9    -1.637033305148786E1   1.731729687059382E2  -4.254071402053918E1   9.594014051348330E1  -4.257591915338357E1   9.498515827549078E1  -1.538960200530548E1  -1.792825411571065E2  
 7.536800000000000E9    -1.635741172404248E1   1.734870635733041E2  -4.262464121314995E1   8.885120574915794E1  -4.263128573826575E1   8.787583223261231E1  -1.537392488532471E1  -1.794526025323882E2  
 7.537600000000000E9    -1.631965364406468E1   1.737667453394486E2  -4.302154103615094E1   8.207717126378149E1  -4.305805644576341E1   8.093558530272615E1  -1.537045397966950E1  -1.794758802060091E2  
 7.538400000000000E9    -1.626085303119413E1   1.738916370092897E2  -4.356709084211825E1   7.592963383555424E1  -4.362663773720584E1   7.501107892825257E1  -1.534606274767201E1  -1.796424682037296E2  
 7.539200000000000E9    -1.618848396304338E1   1.740312305141468E2  -4.426765454871541E1   7.088896877538238E1  -4.430916033921277E1   6.995923477458544E1  -1.536902995903964E1  -1.798332708207668E2  
 7.540000000000000E9    -1.612014997420770E1   1.737568991149979E2  -4.517307583718339E1   6.697577426999003E1  -4.516721321681776E1   6.619208777635990E1  -1.538621850755266E1  -1.799401672294466E2  
 7.540800000000000E9    -1.605236765488177E1   1.734266440124848E2  -4.612922177246372E1   6.509005789079215E1  -4.626572496415106E1   6.408965682401642E1  -1.539855257668295E1   1.799116628294020E2  
 7.541600000000000E9    -1.600893332431851E1   1.729012302367038E2  -4.709041756651040E1   6.527832215303003E1  -4.721577636737834E1   6.486537231714316E1  -1.542287323390634E1   1.799674321325290E2  
 7.542400000000000E9    -1.598741190487269E1   1.724506272844882E2  -4.791480643941778E1   6.773390379918710E1  -4.796533448796466E1   6.680139611992459E1  -1.543320176083000E1   1.798395944373528E2  
 7.543200000000000E9    -1.599302936288300E1   1.717601845196833E2  -4.840118042462009E1   6.970650655297243E1  -4.848039569526156E1   6.887735460654039E1  -1.544362184369588E1   1.797621931036623E2  
 7.544000000000000E9    -1.600951695218944E1   1.712569155365018E2  -4.894353391047984E1   7.172270132743978E1  -4.896248233573589E1   7.117167247858916E1  -1.546268152336650E1   1.796361830736827E2  
 7.544800000000000E9    -1.603357092647066E1   1.707898625195542E2  -4.959454112273606E1   7.527834960027781E1  -4.962070644156185E1   7.444429756753624E1  -1.550792434831873E1   1.797170496069506E2  
 7.545600000000000E9    -1.607827285965093E1   1.702251557645853E2  -5.007563819606955E1   8.155126779532047E1  -5.003866515226307E1   8.101631757088927E1  -1.554468514744952E1   1.797920326792776E2  
 7.546400000000000E9    -1.614274549873662E1   1.697459970994344E2  -5.003660783729109E1   8.992382176485663E1  -4.997683595075053E1   8.946781640826522E1  -1.555829343879942E1   1.799351753785504E2  
 7.547200000000000E9    -1.621908662210195E1   1.692968819399812E2  -4.903663102843206E1   9.858328422544206E1  -4.910201661920824E1   9.782696511906711E1  -1.554380710163029E1  -1.798414099029235E2  
 7.548000000000000E9    -1.629148705103194E1   1.691509315708294E2  -4.775465096769146E1   1.026882361706716E2  -4.773378693084635E1   1.018463990398012E2  -1.552101426430409E1  -1.797090656551972E2  
 7.548800000000000E9    -1.638856554735828E1   1.690091208637037E2  -4.625520293836650E1   1.028963823764240E2  -4.623903081366729E1   1.020167691239437E2  -1.550311075911731E1  -1.797216691329465E2  
 7.549600000000000E9    -1.647778172998539E1   1.689918008905920E2  -4.490822959776236E1   1.002580247313104E2  -4.492595833264963E1   9.948743174385720E1  -1.546728118300666E1  -1.796868620088821E2  
 7.550400000000000E9    -1.657875953145001E1   1.691840348123151E2  -4.378314071240965E1   9.505166557931726E1  -4.382068814624396E1   9.423675306384585E1  -1.543978763182872E1  -1.799712450470177E2  
 7.551200000000000E9    -1.663947193181483E1   1.694555039256769E2  -4.290797837608515E1   8.839543861086348E1  -4.289309946785530E1   8.756385481087068E1  -1.540692498362809E1   1.796369480134299E2  
 7.552000000000000E9    -1.671419560229309E1   1.698383259231293E2  -4.229277307024595E1   8.083732317868109E1  -4.231504221969212E1   7.994402125321037E1  -1.542417937472563E1   1.793633114947860E2  
 7.552800000000000E9    -1.673914661304150E1   1.703024617245428E2  -4.196777363891741E1   7.250968206452062E1  -4.193978819632545E1   7.187976318505659E1  -1.545838261304421E1   1.788202861789166E2  
 7.553600000000000E9    -1.674798806994690E1   1.708452082400446E2  -4.186066584274637E1   6.436431229882322E1  -4.184897231711435E1   6.382285251194734E1  -1.549547003591682E1   1.786539993567115E2  
 7.554400000000000E9    -1.672848141985699E1   1.713418195568650E2  -4.192632820171014E1   5.655231111791519E1  -4.196654833493297E1   5.599255817483293E1  -1.555093887160554E1   1.783778127592693E2  
 7.555200000000000E9    -1.670951233761115E1   1.718478572197465E2  -4.221925186873111E1   4.850771327920897E1  -4.220394581138520E1   4.800979935393468E1  -1.560752317098566E1   1.783614709870418E2  
 7.556000000000000E9    -1.666800616698228E1   1.722040598007015E2  -4.270561560679593E1   4.109120837090696E1  -4.273886055096838E1   4.053260177971570E1  -1.565567728576351E1   1.782242235889024E2  
 7.556800000000000E9    -1.660061098006664E1   1.723829691211074E2  -4.339733697679123E1   3.379482308249872E1  -4.341653859154359E1   3.315474539927249E1  -1.573162672693161E1   1.782743571901820E2  
 7.557600000000000E9    -1.652680703318579E1   1.725528601780798E2  -4.434324995428787E1   2.747871316195925E1  -4.439282308598457E1   2.686426401948603E1  -1.580778959848376E1   1.784156661415465E2  
 7.558400000000000E9    -1.644118130685493E1   1.725837264905381E2  -4.563949783070145E1   2.246096213763435E1  -4.563130893460409E1   2.158556989034173E1  -1.587447149592734E1   1.788117951910702E2  
 7.559200000000000E9    -1.636051211385120E1   1.723586383167394E2  -4.725023158408166E1   1.935110276786745E1  -4.719970077972850E1   1.864961801834940E1  -1.590089974619921E1   1.792907527982460E2  
 7.560000000000000E9    -1.628105875118191E1   1.720731136030034E2  -4.905823386648142E1   1.961257798028945E1  -4.902870687138260E1   1.883810092388064E1  -1.589212309699477E1   1.797552891387787E2  
 7.560800000000000E9    -1.621899244820045E1   1.715613676290545E2  -5.099611927057524E1   2.728333993213167E1  -5.105767862799866E1   2.632801206299859E1  -1.589791281962157E1  -1.798684026780475E2  
 7.561600000000000E9    -1.617388034653700E1   1.709237167798855E2  -5.208224204329598E1   4.137537179632596E1  -5.205740825455694E1   4.063511415605193E1  -1.585479137375604E1  -1.795187363789478E2  
 7.562400000000000E9    -1.615914572306656E1   1.703179301040184E2  -5.143447276825420E1   5.524497506195336E1  -5.151620809920142E1   5.529979409018230E1  -1.580547250594153E1  -1.793365439190482E2  
 7.563200000000000E9    -1.615727814364122E1   1.696692276837377E2  -5.012013182151222E1   6.296738773797378E1  -5.003609165066941E1   6.252438644811576E1  -1.576260711184435E1  -1.792179607080960E2  
 7.564000000000000E9    -1.619205782690892E1   1.691958812587914E2  -4.892322174476706E1   6.440748670229668E1  -4.886190668173516E1   6.378221624224258E1  -1.572329466983087E1  -1.793549016618919E2  
 7.564800000000000E9    -1.622341152448879E1   1.686868841082917E2  -4.804946730642259E1   6.382548276407219E1  -4.806430162128081E1   6.366787621597690E1  -1.567912844407239E1  -1.794970640126380E2  
 7.565600000000000E9    -1.627977402582528E1   1.683363012200887E2  -4.734990000125322E1   6.270610673549594E1  -4.740880560273808E1   6.245262588666412E1  -1.565735152323720E1  -1.796373111398211E2  
 7.566400000000000E9    -1.631055605193300E1   1.679254784704340E2  -4.675612363226271E1   6.159543877253553E1  -4.669536307565384E1   6.128927105700181E1  -1.564667644267390E1  -1.796663324648166E2  
 7.567200000000000E9    -1.635774802149327E1   1.677547198984705E2  -4.614670305338647E1   5.954825426337449E1  -4.611417142335841E1   5.887979909132259E1  -1.562000731296780E1  -1.798651533138619E2  
 7.568000000000000E9    -1.641133532649339E1   1.676069692450578E2  -4.567552282670453E1   5.699260520017325E1  -4.568276345480484E1   5.635001128515636E1  -1.562948856695024E1   1.799185185121534E2  
 7.568800000000000E9    -1.646544531518121E1   1.673527304566592E2  -4.525212862496561E1   5.452518133061562E1  -4.526262140856911E1   5.384048307910973E1  -1.562606606562156E1   1.798528050719689E2  
 7.569600000000000E9    -1.655094476991008E1   1.672107838331273E2  -4.483080689091537E1   5.200564373758244E1  -4.488832777152823E1   5.093827516388383E1  -1.561305971045849E1   1.797906254310751E2  
 7.570400000000000E9    -1.661016618346157E1   1.669458553429352E2  -4.443663978648325E1   4.931581183622949E1  -4.446416787797619E1   4.819559264874980E1  -1.561078453481919E1   1.796078433770957E2  
 7.571200000000000E9    -1.664990286222583E1   1.668370747293112E2  -4.402317755560912E1   4.570048126156915E1  -4.403248201957598E1   4.483720309081600E1  -1.561849202288827E1   1.795112030195232E2  
 7.572000000000000E9    -1.671386773408710E1   1.668987259643455E2  -4.364338611675134E1   4.162693037054901E1  -4.365156382258790E1   4.059927397429795E1  -1.561671934676683E1   1.792697637596667E2  
 7.572800000000000E9    -1.676491374473001E1   1.671113665750044E2  -4.333546173096519E1   3.684964069876467E1  -4.333953833992548E1   3.616893604187859E1  -1.562170693849459E1   1.790334616072695E2  
 7.573600000000000E9    -1.682257783862093E1   1.673596371076952E2  -4.306132144414247E1   3.165393061169138E1  -4.308532139697888E1   3.058358521235486E1  -1.563285774781546E1   1.789464626915167E2  
 7.574400000000000E9    -1.685578726853960E1   1.676076295779263E2  -4.291146410893759E1   2.567374031748593E1  -4.291196334920102E1   2.462613649661822E1  -1.564608371663475E1   1.786655020907753E2  
 7.575200000000000E9    -1.685746168178999E1   1.678789858300512E2  -4.296395308861757E1   1.935873473280609E1  -4.299242271652216E1   1.850950531638775E1  -1.566610929974967E1   1.785620418628018E2  
 7.576000000000000E9    -1.686926464978381E1   1.681246629463192E2  -4.312834936323766E1   1.294288647424129E1  -4.316736769599648E1   1.208596413603885E1  -1.569833880882191E1   1.783766787395365E2  
 7.576800000000000E9    -1.685120360245445E1   1.684399841718700E2  -4.350042313160231E1   6.213386563452300  -4.355323621594891E1   5.661739731273570  -1.572471054928908E1   1.782971653855472E2  
 7.577600000000000E9    -1.684847352125600E1   1.686050587660480E2  -4.402030653240308E1   2.093854916470739E-1  -4.406638680787812E1  -2.815003743667230E-1  -1.577250000784308E1   1.782961135616369E2  
