#  HZ   S   DB   R     50.00 
! Rohde & Schwarz ZVA40 2Ports - Version 4.11 - 1145.1110k40 SN: 100216
! Date: 2025-04-29 18:27:43
! Measurements: S11 S21 S12 S22 
! 
 7.500000000000000E9    -1.486518619167307E1  -1.748381092434424E2  -4.031057402440560E1  -1.263407835901609E2  -4.028223258577113E1  -1.257072222366960E2  -1.574894814472236E1   1.749881500391682E2  
 7.500800000000000E9    -1.486255023353804E1  -1.753064595277340E2  -4.046248547681771E1  -1.384337171988624E2  -4.044299114114769E1  -1.378689485599174E2  -1.578905915959537E1   1.742374861755664E2  
 7.501600000000000E9    -1.486911699052459E1  -1.756588743551856E2  -4.081317951811790E1  -1.509481352329026E2  -4.076957774664919E1  -1.503761389501439E2  -1.584353485417724E1   1.735215783443001E2  
 7.502400000000000E9    -1.490825656684183E1  -1.759975085326928E2  -4.136412970013291E1  -1.636197938223626E2  -4.131764082676128E1  -1.630055314057925E2  -1.589582503287325E1   1.731746668833587E2  
 7.503200000000000E9    -1.495911104026937E1  -1.763901630065093E2  -4.211695726172930E1  -1.770280185340803E2  -4.205085635127756E1  -1.763906945194036E2  -1.598734876198130E1   1.727552218623148E2  
 7.504000000000000E9    -1.501996405281017E1  -1.767304623566138E2  -4.309574332150391E1   1.691274359570136E2  -4.302938035652536E1   1.693918858094533E2  -1.607891673558228E1   1.724009874244035E2  
 7.504800000000000E9    -1.510402691371314E1  -1.766599233213406E2  -4.441446770694897E1   1.531604241052978E2  -4.438455955806867E1   1.542565670265608E2  -1.617373154182810E1   1.723554851635148E2  
 7.505600000000000E9    -1.519388306871239E1  -1.765755941066124E2  -4.606625910627556E1   1.355862821226768E2  -4.601821025110008E1   1.357264250339219E2  -1.626736557298596E1   1.724008913649550E2  
 7.506400000000000E9    -1.527293524280975E1  -1.762326943930034E2  -4.826118356798410E1   1.130149656237943E2  -4.818371558956059E1   1.132861076771863E2  -1.634187470546286E1   1.726394849506527E2  
 7.507200000000000E9    -1.530794169314495E1  -1.756846444756719E2  -5.077989446770715E1   8.278674676941346E1  -5.071333683886877E1   8.286266360119744E1  -1.642831730457818E1   1.730242239501508E2  
 7.508000000000000E9    -1.532707345294256E1  -1.749717616803014E2  -5.258232670094638E1   4.156672848003453E1  -5.237995842839371E1   4.189991074732787E1  -1.645276718141528E1   1.735050162291477E2  
 7.508800000000000E9    -1.527951542166376E1  -1.744840917562893E2  -5.181477982342494E1  -2.475939459657127  -5.167405241026178E1  -1.720128284181157  -1.645863359431207E1   1.740065025743516E2  
 7.509600000000000E9    -1.519071691152941E1  -1.740050893335776E2  -4.981987213689946E1  -3.514233423197057E1  -4.978411992626192E1  -3.437151701751563E1  -1.642681890803625E1   1.744348818227051E2  
 7.510400000000000E9    -1.510802049853547E1  -1.738468303895163E2  -4.793942118131210E1  -5.801587071649941E1  -4.780375175543347E1  -5.816963078756960E1  -1.639771690582408E1   1.747279915859963E2  
 7.511200000000000E9    -1.501582566245671E1  -1.740255126752758E2  -4.647807323272933E1  -7.686020593143751E1  -4.641956058328769E1  -7.572215268961749E1  -1.634450709018913E1   1.749062994586746E2  
 7.512000000000000E9    -1.497288652804080E1  -1.742942714217560E2  -4.552166180218052E1  -9.226716598749599E1  -4.546059655223380E1  -9.217886842497821E1  -1.627715811780399E1   1.749047975974853E2  
 7.512800000000000E9    -1.491907367774071E1  -1.745488628993337E2  -4.500577902792269E1  -1.062284451758774E2  -4.496533439786967E1  -1.058083020624048E2  -1.621237402198161E1   1.746295487525732E2  
 7.513600000000000E9    -1.489287326591520E1  -1.751121962697555E2  -4.487167065611275E1  -1.184562385330543E2  -4.479407693531024E1  -1.179442257167534E2  -1.617472415554615E1   1.741750325064660E2  
 7.514400000000000E9    -1.489188306242760E1  -1.755540451388785E2  -4.491029022488472E1  -1.286923186981121E2  -4.485939748012410E1  -1.281274734189466E2  -1.615702507911355E1   1.735316459661411E2  
 7.515200000000000E9    -1.491066413900443E1  -1.759736392371271E2  -4.522531494430260E1  -1.369592439711792E2  -4.520275714522887E1  -1.368472676967267E2  -1.620336110852506E1   1.730760558913553E2  
 7.516000000000000E9    -1.496603930521656E1  -1.762947376385839E2  -4.563800497892540E1  -1.445965446613792E2  -4.555066431025426E1  -1.436496610666512E2  -1.625424942773878E1   1.727047476016602E2  
 7.516800000000000E9    -1.502404219333552E1  -1.765488451903952E2  -4.614925818866330E1  -1.503737948251298E2  -4.603394370871563E1  -1.498805842858629E2  -1.630887298824420E1   1.723350539773508E2  
 7.517600000000000E9    -1.508308981862610E1  -1.765781707009996E2  -4.680086458826644E1  -1.549158758517975E2  -4.681753691749427E1  -1.550979583144951E2  -1.640704711428485E1   1.722142431656691E2  
 7.518400000000000E9    -1.512333742479430E1  -1.763505846221663E2  -4.775395163314650E1  -1.574841242808703E2  -4.766095327222474E1  -1.575647685158735E2  -1.648669042180158E1   1.722272323846572E2  
 7.519200000000000E9    -1.515877334102049E1  -1.761753502749298E2  -4.859354291312071E1  -1.565832728581933E2  -4.851116872672097E1  -1.556296752866683E2  -1.656571968210159E1   1.725116957349310E2  
 7.520000000000000E9    -1.514880227486952E1  -1.759329558933150E2  -4.880873797938126E1  -1.509259446015571E2  -4.880837162381586E1  -1.509879949195172E2  -1.663677067412711E1   1.728506701865320E2  
 7.520800000000000E9    -1.514157128248563E1  -1.758269545600968E2  -4.838179621805828E1  -1.459202195966498E2  -4.825081809014946E1  -1.454820235357712E2  -1.665719178980499E1   1.733582773326579E2  
 7.521600000000000E9    -1.510311712679170E1  -1.758045543989588E2  -4.723215010430798E1  -1.434465804047903E2  -4.729049030090858E1  -1.437012863802443E2  -1.662629728287300E1   1.738378110617225E2  
 7.522400000000000E9    -1.508091536867069E1  -1.758262434018388E2  -4.602344088949376E1  -1.455044416005506E2  -4.602353608027789E1  -1.455479624916724E2  -1.658198360139326E1   1.742163020325594E2  
 7.523200000000000E9    -1.505619134028511E1  -1.759882133656507E2  -4.490570494956643E1  -1.506317700149332E2  -4.478132068353662E1  -1.509437316522572E2  -1.652671907265035E1   1.744047903190055E2  
 7.524000000000000E9    -1.503583237888835E1  -1.763269194241931E2  -4.399097109227375E1  -1.581880582598986E2  -4.392817025436482E1  -1.578759320254500E2  -1.644544531583053E1   1.742828317067146E2  
 7.524800000000000E9    -1.502956973883110E1  -1.766612189345403E2  -4.332517483952979E1  -1.668779301312442E2  -4.329201406552806E1  -1.667117963370777E2  -1.640115479946773E1   1.738729048620724E2  
 7.525600000000000E9    -1.505356548139827E1  -1.770196480635669E2  -4.291849553235537E1  -1.765656476706575E2  -4.290426646377262E1  -1.761768078672669E2  -1.639066468295549E1   1.734882036536563E2  
 7.526400000000000E9    -1.511646124345464E1  -1.773468387513859E2  -4.277772584754224E1   1.731580519587334E2  -4.274823733469238E1   1.729301395574850E2  -1.638447372142027E1   1.731139987202582E2  
 7.527200000000000E9    -1.519421381081217E1  -1.774244662045230E2  -4.293371741229590E1   1.617746445923504E2  -4.289646082246134E1   1.624085584951210E2  -1.641907130364003E1   1.726469960759622E2  
 7.528000000000000E9    -1.527268383474908E1  -1.773561175464459E2  -4.336037118377283E1   1.508914804907676E2  -4.332537918534722E1   1.508427277595685E2  -1.647140873810820E1   1.722999470785110E2  
 7.528800000000000E9    -1.531114756117315E1  -1.770961381755268E2  -4.402937038756588E1   1.392968148788052E2  -4.408182016976473E1   1.397402613925189E2  -1.653373936609239E1   1.722273407326582E2  
 7.529600000000000E9    -1.535482773978577E1  -1.766213882089315E2  -4.510104023049710E1   1.278359935405285E2  -4.511902426322560E1   1.277544260554080E2  -1.656839828908626E1   1.720727000653946E2  
 7.530400000000000E9    -1.536534536413391E1  -1.761643499858062E2  -4.662655459915171E1   1.153951451014087E2  -4.664538907404899E1   1.153891861758229E2  -1.661211740130025E1   1.721937283680860E2  
 7.531200000000000E9    -1.534418941046669E1  -1.756935554231758E2  -4.895040559595417E1   1.019072001896947E2  -4.889350263134072E1   1.020087135131025E2  -1.667102757903647E1   1.722058469187023E2  
 7.532000000000000E9    -1.529320576252174E1  -1.754071193219295E2  -5.251630574281928E1   8.556931174480066E1  -5.261178816602650E1   8.574498366259824E1  -1.672347391285399E1   1.723976023337599E2  
 7.532800000000000E9    -1.523786000697171E1  -1.749528682461144E2  -5.960722698261245E1   6.151281907474765E1  -5.956645772334377E1   6.095725503399794E1  -1.672803974762715E1   1.728893482904927E2  
 7.533600000000000E9    -1.516610643251356E1  -1.749421785741433E2  -6.493538842289406E1  -6.931201924319161E1  -6.505759812032410E1  -6.768877403117341E1  -1.672123227364049E1   1.730019397040232E2  
 7.534400000000000E9    -1.509490445453688E1  -1.749114438153605E2  -5.465345294197831E1  -1.113501476065549E2  -5.474828932019164E1  -1.100166677598573E2  -1.664988973878484E1   1.732621575981574E2  
 7.535200000000000E9    -1.501819146324898E1  -1.750380913025921E2  -5.007401387481412E1  -1.284709319917022E2  -5.003897276728734E1  -1.280572737570424E2  -1.664329826528509E1   1.731133067639962E2  
 7.536000000000000E9    -1.494363070020514E1  -1.752975861170584E2  -4.726833135153581E1  -1.427333123610821E2  -4.730538949165317E1  -1.426495344681146E2  -1.660201244695389E1   1.729860326756195E2  
 7.536800000000000E9    -1.490032322012642E1  -1.758474030934417E2  -4.538775626766842E1  -1.560745263550911E2  -4.537820057935517E1  -1.556517647237337E2  -1.658951895554523E1   1.727232559350526E2  
 7.537600000000000E9    -1.485285455852006E1  -1.763956252645547E2  -4.400550886996657E1  -1.693151257858339E2  -4.405627117169533E1  -1.687993938891158E2  -1.658789538064655E1   1.723129908024993E2  
 7.538400000000000E9    -1.485118355936511E1  -1.769649438715648E2  -4.317230755392951E1   1.780237895556483E2  -4.312520425846081E1   1.781030540371408E2  -1.659559393680086E1   1.719419486540453E2  
 7.539200000000000E9    -1.485737227438612E1  -1.775497176046487E2  -4.255925183158918E1   1.650575902235136E2  -4.256201218678393E1   1.652706797737688E2  -1.663901504786625E1   1.715914127119585E2  
 7.540000000000000E9    -1.488110528626644E1  -1.780994055478461E2  -4.226066573738534E1   1.519580423315073E2  -4.224720617016716E1   1.519986270642890E2  -1.669913096026723E1   1.715517018579315E2  
 7.540800000000000E9    -1.496716356769779E1  -1.785110699481534E2  -4.232654266143116E1   1.385104032322865E2  -4.236954504061976E1   1.386809804246896E2  -1.675495533220830E1   1.714775522630038E2  
 7.541600000000000E9    -1.501806641114993E1  -1.787897024204349E2  -4.274518456404037E1   1.247211676834341E2  -4.275867205888333E1   1.249955371332169E2  -1.680108025439492E1   1.714851494426844E2  
 7.542400000000000E9    -1.510978379271343E1  -1.789318381111694E2  -4.356279117565605E1   1.113551603644631E2  -4.356647622000777E1   1.113025481037658E2  -1.685044431277161E1   1.717385680562663E2  
 7.543200000000000E9    -1.518026541808422E1  -1.787470196483973E2  -4.474983399990887E1   9.737730926244194E1  -4.474440077917692E1   9.762270621929339E1  -1.686478906454797E1   1.720242158372072E2  
 7.544000000000000E9    -1.523599506842130E1  -1.785739960567485E2  -4.648601247243191E1   8.339520045675374E1  -4.653939108946594E1   8.392263437281412E1  -1.688829048529919E1   1.723134653841816E2  
 7.544800000000000E9    -1.525543561504351E1  -1.782327422760007E2  -4.910600243291258E1   6.907228259091889E1  -4.900023986033347E1   6.895373441623950E1  -1.687476755093277E1   1.726628910632341E2  
 7.545600000000000E9    -1.527474862642075E1  -1.778314213644833E2  -5.298144695859981E1   5.243150458876075E1  -5.303481435452019E1   5.222678027033574E1  -1.683821756584336E1   1.728442319363781E2  
 7.546400000000000E9    -1.525861026574086E1  -1.776659455214871E2  -6.014907091472173E1   2.114728951886943E1  -6.020821746370129E1   1.988851153827562E1  -1.675159169565072E1   1.728026302836170E2  
 7.547200000000000E9    -1.521233788183493E1  -1.774973974986812E2  -6.191717554107670E1  -9.289291335843988E1  -6.199451366787591E1  -9.295278251845488E1  -1.670148881010289E1   1.727720556770623E2  
 7.548000000000000E9    -1.517046721488417E1  -1.774742852810563E2  -5.366787020863993E1  -1.328917145686469E2  -5.378176271743665E1  -1.327335912829341E2  -1.666370329256549E1   1.722849802588500E2  
 7.548800000000000E9    -1.511487587694229E1  -1.774426233716790E2  -4.921970267024635E1  -1.514328207610816E2  -4.928183808316167E1  -1.511560797975373E2  -1.662618599726640E1   1.718333761815507E2  
 7.549600000000000E9    -1.509128204270738E1  -1.777283497157912E2  -4.648348815225267E1  -1.674538469654346E2  -4.650175181057853E1  -1.667957208891941E2  -1.663240112350212E1   1.713338554351822E2  
 7.550400000000000E9    -1.507183055284414E1  -1.781976036120963E2  -4.462304285628579E1   1.784482955146100E2  -4.462280843954186E1   1.783846342462252E2  -1.664786940695591E1   1.709098139763540E2  
 7.551200000000000E9    -1.506469689045006E1  -1.786863682332792E2  -4.342821625401640E1   1.640952064105208E2  -4.339709025375691E1   1.647681311735574E2  -1.668886157152562E1   1.705011357922998E2  
 7.552000000000000E9    -1.511083155575170E1  -1.791047244118574E2  -4.264250010137263E1   1.513210286560716E2  -4.262182136042262E1   1.513235273688799E2  -1.674868269208879E1   1.699879759161806E2  
 7.552800000000000E9    -1.518520755677982E1  -1.792863890797895E2  -4.220568795697650E1   1.385794259406576E2  -4.219878136296742E1   1.389895674041654E2  -1.681670823353176E1   1.695465275160873E2  
 7.553600000000000E9    -1.524452248751430E1  -1.793337600119103E2  -4.210541297111932E1   1.269398787253028E2  -4.205760288101165E1   1.271128414458676E2  -1.689926762147162E1   1.693336751584573E2  
 7.554400000000000E9    -1.528494008473776E1  -1.790156689476254E2  -4.215140302656837E1   1.158734355230948E2  -4.216323713058532E1   1.163092349580103E2  -1.700953874151810E1   1.693843267843126E2  
 7.555200000000000E9    -1.531660915657355E1  -1.787569431197152E2  -4.246432051260121E1   1.049034673858762E2  -4.244378992832630E1   1.055982538972692E2  -1.711781275942978E1   1.695484552614593E2  
 7.556000000000000E9    -1.533609787899671E1  -1.784567892567875E2  -4.299845596559597E1   9.466263866833251E1  -4.297487377424596E1   9.504732069219595E1  -1.722084992729200E1   1.700383667577657E2  
 7.556800000000000E9    -1.532377919628867E1  -1.780761955761592E2  -4.378681361001793E1   8.423078423131588E1  -4.373594886349189E1   8.469312958939435E1  -1.727636859137300E1   1.705800505404772E2  
 7.557600000000000E9    -1.529811188752163E1  -1.778476404300259E2  -4.488307622781401E1   7.465990594880293E1  -4.492089015861897E1   7.485605041187785E1  -1.728805271076389E1   1.712918595513747E2  
 7.558400000000000E9    -1.523823386134473E1  -1.776183400331286E2  -4.648907020714130E1   6.579530905697745E1  -4.649035096832684E1   6.639174654439225E1  -1.726678171887651E1   1.718972767522741E2  
 7.559200000000000E9    -1.517865233359894E1  -1.775193215388498E2  -4.878232759520061E1   5.994968102673732E1  -4.874926884934853E1   5.977162162884966E1  -1.721911908850126E1   1.724106527084252E2  
 7.560000000000000E9    -1.510192671888017E1  -1.775932572052963E2  -5.183497678481768E1   5.961215783199067E1  -5.189533671690069E1   5.995019313341814E1  -1.715314856944961E1   1.727875316068675E2  
 7.560800000000000E9    -1.500379738863459E1  -1.778918158053633E2  -5.511881408940455E1   7.425182378972710E1  -5.521700044845217E1   7.389664595607536E1  -1.707764313646054E1   1.729541409551025E2  
 7.561600000000000E9    -1.494567165665032E1  -1.782676542840706E2  -5.555098214583163E1   1.045470490799842E2  -5.559402148180287E1   1.062526619630837E2  -1.699821129997978E1   1.727857819854537E2  
 7.562400000000000E9    -1.491026893679618E1  -1.788647986722422E2  -5.280847780404693E1   1.217953111188016E2  -5.274716608380115E1   1.216254580304539E2  -1.694133252888860E1   1.725869410614451E2  
 7.563200000000000E9    -1.491590996084994E1  -1.794381973525109E2  -5.021377437534321E1   1.230942954356781E2  -5.025988314508305E1   1.232329837939716E2  -1.689725980728681E1   1.722428369480808E2  
 7.564000000000000E9    -1.492565163863306E1   1.799891635130319E2  -4.839125849901234E1   1.190122709892581E2  -4.838867860134883E1   1.190465393414726E2  -1.688026644742747E1   1.717800334511059E2  
 7.564800000000000E9    -1.497868455718338E1   1.796030781081990E2  -4.707335563239320E1   1.122002890897807E2  -4.711013974837337E1   1.128978581838065E2  -1.686512144463176E1   1.714791381399518E2  
 7.565600000000000E9    -1.503944809380094E1   1.793700801224090E2  -4.618857670579235E1   1.052589188011783E2  -4.617326802921587E1   1.055178346611817E2  -1.686913668436602E1   1.710060177539029E2  
 7.566400000000000E9    -1.509678192179810E1   1.790712919293707E2  -4.560737544972930E1   9.614016343673836E1  -4.557523250095769E1   9.609571590231963E1  -1.690089941313769E1   1.707807455455302E2  
 7.567200000000000E9    -1.512773805438490E1   1.790569739836053E2  -4.532188977368718E1   8.603725552575115E1  -4.532066383463373E1   8.642438236270249E1  -1.695386443349773E1   1.705352228400877E2  
 7.568000000000000E9    -1.517442260140621E1   1.792109020106502E2  -4.551077639408094E1   7.601278666427852E1  -4.548937509797560E1   7.638575623608416E1  -1.698208611134960E1   1.704085531176428E2  
 7.568800000000000E9    -1.517320438560765E1   1.794106465930309E2  -4.616299235065073E1   6.587228723421065E1  -4.613480389970146E1   6.635506241483812E1  -1.703109691221965E1   1.705053098443502E2  
 7.569600000000000E9    -1.518287450848238E1   1.794006508526661E2  -4.733742236345260E1   5.700341217257491E1  -4.727412657553352E1   5.699691228576507E1  -1.705700549091038E1   1.705871337916061E2  
 7.570400000000000E9    -1.515532169584763E1   1.793960648656681E2  -4.904884740965931E1   4.906261534284364E1  -4.915461014148249E1   4.920142868525472E1  -1.708694938490513E1   1.709962776543538E2  
 7.571200000000000E9    -1.514440796026372E1   1.793163719399603E2  -5.174611983840104E1   4.422441326387030E1  -5.174499110059180E1   4.447546373320147E1  -1.705632862991873E1   1.712548027978867E2  
 7.572000000000000E9    -1.512162643453676E1   1.790986724671439E2  -5.601175861047175E1   5.135259469390812E1  -5.580049677135978E1   5.141034054618164E1  -1.701729993331074E1   1.712978119768440E2  
 7.572800000000000E9    -1.511752339699487E1   1.788897602453994E2  -5.922481501441067E1   9.372240742969403E1  -5.921303899643228E1   9.502742559765736E1  -1.697868670223919E1   1.712529252724538E2  
 7.573600000000000E9    -1.511970407210002E1   1.786621024361947E2  -5.449244148379491E1   1.288543111891139E2  -5.449888098009887E1   1.282933113102254E2  -1.691611209356565E1   1.709920664004689E2  
 7.574400000000000E9    -1.512443240613386E1   1.783174556274734E2  -5.003177981291604E1   1.306800929168150E2  -5.003949574915794E1   1.309275529254541E2  -1.690136503954238E1   1.707396322017552E2  
 7.575200000000000E9    -1.515134004122800E1   1.779737416831006E2  -4.697444811980032E1   1.244950546844884E2  -4.701626384994908E1   1.245132628243937E2  -1.688163628301125E1   1.702296469764808E2  
 7.576000000000000E9    -1.518963218360432E1   1.777136911185820E2  -4.490065116460462E1   1.147627563413743E2  -4.489547695552587E1   1.150933464019261E2  -1.691519845782026E1   1.697254663397331E2  
 7.576800000000000E9    -1.523947169812578E1   1.774800883848798E2  -4.342870543970771E1   1.043353212315066E2  -4.345472947660125E1   1.047796141344740E2  -1.692673206892746E1   1.694968190055447E2  
 7.577600000000000E9    -1.532028039165909E1   1.774336909645198E2  -4.233424669621896E1   9.331075270106541E1  -4.234906001375273E1   9.366711102654915E1  -1.698263861930057E1   1.691585974969407E2  
