#  HZ   S   DB   R     50.00 
! Rohde & Schwarz ZVA40 2Ports - Version 4.11 - 1145.1110k40 SN: 100216
! Date: 2025-05-18 21:07:34
! Measurements: S11 S21 S12 S22 
! 
 7.500000000000000E9    -1.668105952436899E1   1.767150154387017E2  -4.921378004447282E1  -4.303813244186067E1  -4.917522008366957E1  -4.342407966021295E1  -1.488028900649532E1  -1.752028197347613E2  
 7.500800000000000E9    -1.665973003838660E1   1.771453803856839E2  -4.699924456408725E1  -4.065923644245588E1  -4.702116274935960E1  -4.143595303634359E1  -1.485193814743212E1  -1.753549784982149E2  
 7.501600000000000E9    -1.662297912732387E1   1.774227390972377E2  -4.505226455696906E1  -4.432913125986853E1  -4.502173168768849E1  -4.536524570931729E1  -1.485004502136983E1  -1.755096757304805E2  
 7.502400000000000E9    -1.658443728615727E1   1.777898647152569E2  -4.356189737140509E1  -5.086017341110600E1  -4.358801005258956E1  -5.163717247694876E1  -1.483710519297576E1  -1.757653876516866E2  
 7.503200000000000E9    -1.649339242129470E1   1.776725117183794E2  -4.249639654641219E1  -5.896340004900554E1  -4.248890207292990E1  -5.960885027558003E1  -1.485391646321149E1  -1.760522395063866E2  
 7.504000000000000E9    -1.639613315487696E1   1.776110878573008E2  -4.165659569391967E1  -6.721377156309941E1  -4.166630582791016E1  -6.774532571539527E1  -1.486443196026776E1  -1.762012794132083E2  
 7.504800000000000E9    -1.634670306141966E1   1.773179489931905E2  -4.111154455257736E1  -7.582429692823406E1  -4.110854344414708E1  -7.624755598948897E1  -1.488356847015531E1  -1.763862399088761E2  
 7.505600000000000E9    -1.627220599707966E1   1.768634489552132E2  -4.076030289844379E1  -8.455695018009726E1  -4.076133171678775E1  -8.490944581883892E1  -1.492009668787021E1  -1.764685269948357E2  
 7.506400000000000E9    -1.627874770108461E1   1.765692640779949E2  -4.056046714889643E1  -9.292581093040074E1  -4.059833591810170E1  -9.351490120847147E1  -1.493883338847764E1  -1.765156349915551E2  
 7.507200000000000E9    -1.626010858869635E1   1.759758411653173E2  -4.055460326781235E1  -1.014387474454280E2  -4.052839986767388E1  -1.019261344878489E2  -1.494232431050340E1  -1.764781912223309E2  
 7.508000000000000E9    -1.627444864098108E1   1.756686276132170E2  -4.062183842657424E1  -1.097785469537668E2  -4.064266425217862E1  -1.103621190517856E2  -1.495382100871431E1  -1.763272858243839E2  
 7.508800000000000E9    -1.631889642491967E1   1.752392667703777E2  -4.090508684795064E1  -1.183183643031533E2  -4.088273924610446E1  -1.189677782159700E2  -1.494405063003346E1  -1.762343117535166E2  
 7.509600000000000E9    -1.634516249759956E1   1.751190920898803E2  -4.134482092774697E1  -1.268823457372001E2  -4.132596439588357E1  -1.275044706373654E2  -1.491167991322465E1  -1.763026412451471E2  
 7.510400000000000E9    -1.638206729922257E1   1.749585598102143E2  -4.196846061778511E1  -1.351532266769266E2  -4.194257376621155E1  -1.359108643041128E2  -1.487524526676318E1  -1.763885424160413E2  
 7.511200000000000E9    -1.640870197476285E1   1.749424431652262E2  -4.287796283003121E1  -1.423272210380940E2  -4.290163271983069E1  -1.431849344360274E2  -1.486079819879439E1  -1.765655290024831E2  
 7.512000000000000E9    -1.643607081195034E1   1.749984367642755E2  -4.402581160067793E1  -1.482045508718361E2  -4.403858512585461E1  -1.489990025683099E2  -1.486672738193843E1  -1.768677664687266E2  
 7.512800000000000E9    -1.644136515307307E1   1.749116986895053E2  -4.528180786066528E1  -1.515530081551804E2  -4.525379977437819E1  -1.524945901168804E2  -1.486137333072401E1  -1.770355225922314E2  
 7.513600000000000E9    -1.643816638665858E1   1.748785309605221E2  -4.641471099561223E1  -1.538692110439754E2  -4.641366533545218E1  -1.547010480449766E2  -1.488381482794011E1  -1.771408893783631E2  
 7.514400000000000E9    -1.647357830810806E1   1.747903984690825E2  -4.746077457576440E1  -1.551524572701036E2  -4.750870181483807E1  -1.560449467262349E2  -1.489356300992769E1  -1.770626803350019E2  
 7.515200000000000E9    -1.649355331051111E1   1.747918231674888E2  -4.883640806058160E1  -1.569201952164710E2  -4.883531442209328E1  -1.575482929856597E2  -1.486906755548362E1  -1.771821005203026E2  
 7.516000000000000E9    -1.649600655960102E1   1.747538847413555E2  -5.058155055237940E1  -1.555578301777045E2  -5.057662102733427E1  -1.560528769713942E2  -1.485738275989269E1  -1.773282415493578E2  
 7.516800000000000E9    -1.654670035639593E1   1.747870164161842E2  -5.264101134524680E1  -1.475751065995334E2  -5.272964407624807E1  -1.483936017761362E2  -1.483298369230044E1  -1.775687694396873E2  
 7.517600000000000E9    -1.657688866191142E1   1.748915041812398E2  -5.371270053736589E1  -1.285178426658641E2  -5.361541214314290E1  -1.290950321698777E2  -1.483974030732929E1  -1.778960232482724E2  
 7.518400000000000E9    -1.660729097237222E1   1.750547445682356E2  -5.232331410306459E1  -1.106900088253104E2  -5.227049938753466E1  -1.106663707965421E2  -1.486687040702825E1  -1.782204942496787E2  
 7.519200000000000E9    -1.659727962449265E1   1.753154142332345E2  -5.000206574688733E1  -1.043820739516459E2  -5.002892205674197E1  -1.049110052729881E2  -1.489454457930759E1  -1.783623466016808E2  
 7.520000000000000E9    -1.659682029447525E1   1.756724756209699E2  -4.821632117419622E1  -1.052462223548952E2  -4.816402523547574E1  -1.056848978149149E2  -1.492070951026752E1  -1.784107365299315E2  
 7.520800000000000E9    -1.654883840738547E1   1.757625255824749E2  -4.685263254301246E1  -1.095615935907395E2  -4.684682126926157E1  -1.105067130803600E2  -1.495457485481631E1  -1.783820575243792E2  
 7.521600000000000E9    -1.650191284273412E1   1.757110948880762E2  -4.587242731628947E1  -1.155864398930315E2  -4.586035650704469E1  -1.166089167963510E2  -1.496084171868096E1  -1.783020740028521E2  
 7.522400000000000E9    -1.646297340847816E1   1.758352396285889E2  -4.532172664614529E1  -1.227992987752325E2  -4.532613815832587E1  -1.234081106896684E2  -1.497045525282169E1  -1.781074694788282E2  
 7.523200000000000E9    -1.643579845167211E1   1.757423731388812E2  -4.520452050209005E1  -1.291924545317346E2  -4.513805502701062E1  -1.300003427545283E2  -1.492817794053634E1  -1.781054062246740E2  
 7.524000000000000E9    -1.640472268068977E1   1.756107945593563E2  -4.521268670945523E1  -1.347127618080087E2  -4.522357493404313E1  -1.354015668416392E2  -1.488535540817672E1  -1.781477598802568E2  
 7.524800000000000E9    -1.636880199545506E1   1.753525452158705E2  -4.538350559085553E1  -1.381538252814809E2  -4.538012107263788E1  -1.392745849764067E2  -1.484459934163406E1  -1.784443927044020E2  
 7.525600000000000E9    -1.635552629717268E1   1.752442166574524E2  -4.554327713650360E1  -1.407408212787667E2  -4.555626581127711E1  -1.418804168313126E2  -1.482279907648162E1  -1.788571809316201E2  
 7.526400000000000E9    -1.634275894298308E1   1.749780954259041E2  -4.560311175602080E1  -1.425172214085746E2  -4.564055971764018E1  -1.438799486019369E2  -1.482002427655460E1  -1.792862601209392E2  
 7.527200000000000E9    -1.632751736574269E1   1.746471311584477E2  -4.556769600372255E1  -1.442326763292527E2  -4.551904125531426E1  -1.455811711696169E2  -1.484700037665511E1  -1.796690008861811E2  
 7.528000000000000E9    -1.632856919563043E1   1.744171421145915E2  -4.535053801549516E1  -1.464037375442237E2  -4.534014642692134E1  -1.472796359553089E2  -1.486258136682842E1  -1.799827906218185E2  
 7.528800000000000E9    -1.633367212727780E1   1.742609870614832E2  -4.512000187513281E1  -1.491966309005716E2  -4.509604514428686E1  -1.497828293825151E2  -1.494379714996453E1   1.796850826879376E2  
 7.529600000000000E9    -1.634913804925150E1   1.739630072303274E2  -4.490396751911995E1  -1.519400694003366E2  -4.491438721645049E1  -1.529845474993114E2  -1.498398625959050E1   1.795728751530610E2  
 7.530400000000000E9    -1.636937256110528E1   1.738193779777859E2  -4.467480728233397E1  -1.551687789199019E2  -4.465290171581304E1  -1.561235159994820E2  -1.501266849563608E1   1.795620382305322E2  
 7.531200000000000E9    -1.639899593756992E1   1.735358997123398E2  -4.443126519454074E1  -1.588724461140915E2  -4.444387334073545E1  -1.598554982806544E2  -1.504782938626382E1   1.795823355493907E2  
 7.532000000000000E9    -1.642779903121315E1   1.733877405920660E2  -4.420975488908195E1  -1.638103737361942E2  -4.421087082593950E1  -1.647124332771695E2  -1.509429422178327E1   1.795307911739529E2  
 7.532800000000000E9    -1.647380434645465E1   1.732503568545844E2  -4.402405578388477E1  -1.689302673876708E2  -4.408971679987437E1  -1.700985370364309E2  -1.511290245708164E1   1.796750142094664E2  
 7.533600000000000E9    -1.650637896820651E1   1.731522742520901E2  -4.395352044854902E1  -1.752134879191685E2  -4.403538878550678E1  -1.762625664456332E2  -1.512139881980468E1   1.797766125404696E2  
 7.534400000000000E9    -1.656502958773665E1   1.730904787222980E2  -4.403416168896661E1   1.774513594112524E2  -4.411693546682769E1   1.764021868147327E2  -1.512011072496975E1   1.796959118834359E2  
 7.535200000000000E9    -1.663566295369800E1   1.733302980544775E2  -4.439344706991705E1   1.701505220710054E2  -4.445212579568024E1   1.690825288419993E2  -1.512825297557507E1   1.797725428501551E2  
 7.536000000000000E9    -1.667526548086737E1   1.737821744101740E2  -4.506319360608635E1   1.620858132602774E2  -4.508086989938798E1   1.612630992304597E2  -1.511753955255110E1   1.798357322157831E2  
 7.536800000000000E9    -1.668751760800362E1   1.740569279927784E2  -4.607706610951422E1   1.549567120882653E2  -4.612731946776688E1   1.541228846150420E2  -1.510822603099024E1   1.797326382276564E2  
 7.537600000000000E9    -1.667045256201423E1   1.745396114295455E2  -4.752900928234008E1   1.495434533500875E2  -4.753525214834994E1   1.487898249311407E2  -1.510332276243414E1   1.796847171466987E2  
 7.538400000000000E9    -1.663787954759749E1   1.749387261798859E2  -4.924141126202988E1   1.464803147665793E2  -4.927449647627471E1   1.459823676196629E2  -1.508652015300781E1   1.795550453744125E2  
 7.539200000000000E9    -1.655954495356048E1   1.751510955291558E2  -5.138557835148070E1   1.492009553795426E2  -5.139814593731585E1   1.475346844882176E2  -1.509496071304167E1   1.793003553407683E2  
 7.540000000000000E9    -1.648416379817910E1   1.752198151498707E2  -5.349789861575589E1   1.586987338421976E2  -5.339623526821714E1   1.577035128037715E2  -1.509562863272187E1   1.791117409641312E2  
 7.540800000000000E9    -1.639902463155314E1   1.751954152936081E2  -5.417997643026740E1   1.768322812544253E2  -5.416517925382079E1   1.765052772497167E2  -1.511996921577509E1   1.788620046655514E2  
 7.541600000000000E9    -1.633541712129239E1   1.748687052872868E2  -5.296972509532647E1  -1.697278159222104E2  -5.293531940361172E1  -1.698610475243417E2  -1.515953459659531E1   1.787375805872040E2  
 7.542400000000000E9    -1.627829300824645E1   1.744882802656407E2  -5.130436369161469E1  -1.642608216991696E2  -5.135075311736021E1  -1.645144951744683E2  -1.516312620646377E1   1.785440496317214E2  
 7.543200000000000E9    -1.624285953971767E1   1.739482194561977E2  -5.006665374299497E1  -1.636763125889154E2  -5.019864167469009E1  -1.640039838157320E2  -1.519211994248461E1   1.784090018159602E2  
 7.544000000000000E9    -1.623574100433287E1   1.734986504194736E2  -4.923052264230448E1  -1.641089037342921E2  -4.933948356482808E1  -1.646980677934558E2  -1.522634421136308E1   1.783078576287052E2  
 7.544800000000000E9    -1.621362350317780E1   1.729913849162523E2  -4.845055432053662E1  -1.642762091133105E2  -4.845710012929958E1  -1.653370411828816E2  -1.526079903752256E1   1.783555326044729E2  
 7.545600000000000E9    -1.623309148242602E1   1.725020124232409E2  -4.764723499201077E1  -1.652395828269287E2  -4.758268874532001E1  -1.661456820537194E2  -1.529931091264244E1   1.782332905208757E2  
 7.546400000000000E9    -1.624634043969718E1   1.719472851372626E2  -4.671102536970472E1  -1.675514026135853E2  -4.675680759524053E1  -1.677242657830331E2  -1.531169021146110E1   1.783209696571653E2  
 7.547200000000000E9    -1.629402395031145E1   1.714597692292516E2  -4.583446223219972E1  -1.703207227564324E2  -4.581664419881090E1  -1.709875932296303E2  -1.532484901391319E1   1.783804283025488E2  
 7.548000000000000E9    -1.635398228073850E1   1.710523081641601E2  -4.493956956164418E1  -1.747929873009122E2  -4.495896510777553E1  -1.756546482511656E2  -1.532522573840591E1   1.786058669524373E2  
 7.548800000000000E9    -1.642572518592861E1   1.706723903438994E2  -4.422595135139238E1   1.793176747043958E2  -4.421067987257119E1   1.785099725312948E2  -1.531689097926589E1   1.786683430341005E2  
 7.549600000000000E9    -1.650593981201441E1   1.704627341063759E2  -4.363982179779312E1   1.722843157022050E2  -4.363989341619074E1   1.715552655275695E2  -1.528450700147867E1   1.786681585858693E2  
 7.550400000000000E9    -1.659412341023529E1   1.703440543992605E2  -4.329083981876919E1   1.644711431643586E2  -4.327629233996170E1   1.638779195379438E2  -1.526705242025813E1   1.784583184271739E2  
 7.551200000000000E9    -1.665890562024389E1   1.704206913277648E2  -4.303766486792176E1   1.561752340188309E2  -4.308420129843534E1   1.554575795019064E2  -1.521824107053604E1   1.781807292627861E2  
 7.552000000000000E9    -1.675296826467085E1   1.705237366109263E2  -4.311285218023407E1   1.479803893284449E2  -4.312567381085288E1   1.470294940590369E2  -1.521478325133709E1   1.778156209956875E2  
 7.552800000000000E9    -1.680748410984432E1   1.708863512189081E2  -4.334527284696012E1   1.393635765058089E2  -4.340809532555117E1   1.386056411346980E2  -1.522536125925699E1   1.772711419306397E2  
 7.553600000000000E9    -1.686416716133847E1   1.712490473267648E2  -4.386063746848314E1   1.309577944552688E2  -4.388056783297217E1   1.304492909771797E2  -1.524580338184563E1   1.769256186813032E2  
 7.554400000000000E9    -1.688887840640179E1   1.718077344314875E2  -4.458430584795476E1   1.234712442702464E2  -4.461933965353600E1   1.225555106531140E2  -1.530970004421494E1   1.765251818169963E2  
 7.555200000000000E9    -1.689572004677248E1   1.722801368213573E2  -4.552897636822997E1   1.159251149682982E2  -4.552369117658606E1   1.156464252207523E2  -1.533921448416415E1   1.762718356685343E2  
 7.556000000000000E9    -1.689605403597807E1   1.727584382636676E2  -4.681328857299751E1   1.097837064508965E2  -4.684293157117700E1   1.092895254983352E2  -1.540238494098989E1   1.758993870133076E2  
 7.556800000000000E9    -1.684390533789863E1   1.731758938854692E2  -4.849024667888536E1   1.049827593859438E2  -4.850105540850579E1   1.039020163148357E2  -1.549832657006822E1   1.757103410269136E2  
 7.557600000000000E9    -1.678828681714517E1   1.735255514862515E2  -5.065889455892000E1   1.038062424184596E2  -5.071365577491547E1   1.034049400950170E2  -1.556791675331978E1   1.756407753515750E2  
 7.558400000000000E9    -1.672638219354782E1   1.737129529209689E2  -5.323056962867542E1   1.098890185088308E2  -5.317250732137576E1   1.087779947800585E2  -1.566740629010325E1   1.757751442476787E2  
 7.559200000000000E9    -1.664340731090907E1   1.738243317017640E2  -5.532478377765181E1   1.285454226345140E2  -5.525908613315540E1   1.278998987056522E2  -1.573946395219454E1   1.760441824976155E2  
 7.560000000000000E9    -1.657099233560368E1   1.737144585493777E2  -5.464889991253838E1   1.515178500588910E2  -5.473136942192719E1   1.506068107726989E2  -1.578416717734016E1   1.764331447405147E2  
 7.560800000000000E9    -1.648798880944602E1   1.734952924276778E2  -5.228398419039721E1   1.640952723766632E2  -5.224471029345826E1   1.634474840556653E2  -1.582393697823379E1   1.768117572893890E2  
 7.561600000000000E9    -1.641630822723204E1   1.731311923502841E2  -5.003115558742677E1   1.655446503955548E2  -5.001739888828938E1   1.652239932505343E2  -1.580895314542133E1   1.773681455688788E2  
 7.562400000000000E9    -1.638004278661524E1   1.726750504836198E2  -4.835515166387498E1   1.618391132123459E2  -4.828741629086713E1   1.618847154117406E2  -1.580368535239495E1   1.776038355328511E2  
 7.563200000000000E9    -1.635338634992416E1   1.720786330149466E2  -4.725111565223309E1   1.567478296323452E2  -4.727239761935960E1   1.557633642743308E2  -1.576879730412439E1   1.778302984550762E2  
 7.564000000000000E9    -1.634638798596671E1   1.717754507814734E2  -4.665406272723401E1   1.508768365071879E2  -4.663661689793831E1   1.503443584802446E2  -1.573458293914529E1   1.779455187391522E2  
 7.564800000000000E9    -1.633442836362644E1   1.712062485050536E2  -4.618322875492948E1   1.464204324876917E2  -4.619736963863419E1   1.459018718018587E2  -1.570732254780295E1   1.778349450310215E2  
 7.565600000000000E9    -1.636728078961590E1   1.708864680825882E2  -4.585306458289631E1   1.422843872168990E2  -4.586480729201254E1   1.415010105814763E2  -1.567851044229844E1   1.777705563087683E2  
 7.566400000000000E9    -1.638187739998865E1   1.704896821491751E2  -4.554747005506868E1   1.384757908958847E2  -4.554231659076749E1   1.375513161145364E2  -1.567509809237780E1   1.776579327424101E2  
 7.567200000000000E9    -1.638293455143195E1   1.703752216199894E2  -4.536557710951605E1   1.339564015558878E2  -4.536600155582100E1   1.332790996604429E2  -1.566541634328013E1   1.775938756053133E2  
 7.568000000000000E9    -1.641259957459137E1   1.701479578703898E2  -4.516362165807723E1   1.299973054866881E2  -4.513379140030980E1   1.295293581484644E2  -1.566411326608523E1   1.774883014471706E2  
 7.568800000000000E9    -1.643665836647755E1   1.697687647140313E2  -4.495873192160346E1   1.261950803269656E2  -4.489280316024362E1   1.255927667971574E2  -1.566400902926476E1   1.773926122933744E2  
 7.569600000000000E9    -1.649389453512040E1   1.694643515498568E2  -4.475331245279545E1   1.225313651808506E2  -4.474267640861955E1   1.214676177659809E2  -1.566221137749592E1   1.772096209585600E2  
 7.570400000000000E9    -1.651267508090915E1   1.691965853837006E2  -4.452547239507058E1   1.180254096005191E2  -4.453292074069842E1   1.170238644985760E2  -1.566019357155023E1   1.771195524147552E2  
 7.571200000000000E9    -1.655524746569022E1   1.688382654869035E2  -4.437260941649306E1   1.130686495180546E2  -4.440693693420088E1   1.121562039358289E2  -1.568010240161075E1   1.771594376344646E2  
 7.572000000000000E9    -1.661847525370111E1   1.686419620637487E2  -4.428375451563235E1   1.071580083216823E2  -4.425819512337870E1   1.065430471686649E2  -1.566819258942515E1   1.769075889584596E2  
 7.572800000000000E9    -1.665590459816448E1   1.686325840961665E2  -4.430406526623339E1   1.009208835805171E2  -4.427484990276614E1   1.001703770434048E2  -1.565933439564306E1   1.765909211902619E2  
 7.573600000000000E9    -1.672137398642316E1   1.686708806098824E2  -4.449149551520700E1   9.429250494672273E1  -4.451251846068288E1   9.360393972489067E1  -1.567316047506840E1   1.766237409795616E2  
 7.574400000000000E9    -1.676005731070803E1   1.687396540946839E2  -4.481465095060950E1   8.719649915447714E1  -4.480721595458404E1   8.663125302224560E1  -1.568848016606076E1   1.763003898491756E2  
 7.575200000000000E9    -1.677835597388850E1   1.688635658044655E2  -4.540316702305478E1   7.986095911254604E1  -4.542105093965605E1   7.930252094722020E1  -1.569728863468231E1   1.762101437214634E2  
 7.576000000000000E9    -1.681294359481351E1   1.690015036602383E2  -4.633949073990821E1   7.312171878834106E1  -4.626705335281878E1   7.246894550927746E1  -1.571170840840742E1   1.760353138924396E2  
 7.576800000000000E9    -1.682527365371112E1   1.692759967241074E2  -4.749357395519957E1   6.689751453479641E1  -4.755059297788994E1   6.604125613841876E1  -1.575048978213363E1   1.757762585597618E2  
 7.577600000000000E9    -1.683256310170019E1   1.693412846419518E2  -4.918773560256645E1   6.285804670006393E1  -4.917813810956114E1   6.141118566197656E1  -1.579199197533615E1   1.756616820394536E2  
