#  HZ   S   DB   R     50.00 
! Rohde & Schwarz ZVA40 2Ports - Version 4.11 - 1145.1110k40 SN: 100216
! Date: 2025-04-29 18:30:00
! Measurements: S11 S21 S12 S22 
! 
 7.500000000000000E9    -1.492368901934392E1  -1.750668645157564E2  -4.035924149621076E1  -1.263647722348360E2  -4.034325157301208E1  -1.258305669723905E2  -1.574106822948170E1   1.749130833870337E2  
 7.500800000000000E9    -1.491698474320545E1  -1.755718503964039E2  -4.051583122152518E1  -1.385986337053294E2  -4.052671200995786E1  -1.382668445271621E2  -1.578486497895519E1   1.741898555825517E2  
 7.501600000000000E9    -1.493172926997059E1  -1.758711951981042E2  -4.094712376139587E1  -1.512128817243064E2  -4.089985425209031E1  -1.506804658513130E2  -1.583801585817121E1   1.735324504713067E2  
 7.502400000000000E9    -1.496466562029135E1  -1.762629146278407E2  -4.148490101707627E1  -1.641408407224782E2  -4.143975285001125E1  -1.633893961142370E2  -1.590047810602520E1   1.731159514102471E2  
 7.503200000000000E9    -1.499573037921470E1  -1.765931453926201E2  -4.227878421817294E1  -1.774224935086644E2  -4.226503563837718E1  -1.766996030819643E2  -1.598197096806383E1   1.727858427096244E2  
 7.504000000000000E9    -1.508476607329793E1  -1.769645840026553E2  -4.333407302419182E1   1.681821316767086E2  -4.329779654116359E1   1.688963791490082E2  -1.607835841260414E1   1.724927694926445E2  
 7.504800000000000E9    -1.517691256577245E1  -1.767691427713861E2  -4.464766206039361E1   1.522262614849023E2  -4.465549373752491E1   1.527203838981992E2  -1.616566116832542E1   1.723874987091350E2  
 7.505600000000000E9    -1.525006144770594E1  -1.766144980137342E2  -4.646002092378022E1   1.335688079644522E2  -4.634051607900878E1   1.344559145717880E2  -1.626105277047354E1   1.724636682808161E2  
 7.506400000000000E9    -1.532293712852971E1  -1.763554570561825E2  -4.862331845660248E1   1.099246804565152E2  -4.848687581632959E1   1.108445718719649E2  -1.633454929387978E1   1.727354405227576E2  
 7.507200000000000E9    -1.536801621682990E1  -1.758008671545500E2  -5.094168803853239E1   7.774242430464129E1  -5.075407515357464E1   7.907823690907965E1  -1.640559192278382E1   1.731878191122783E2  
 7.508000000000000E9    -1.537109376289784E1  -1.750999011531142E2  -5.230559743200116E1   3.648987720506523E1  -5.217540635020038E1   3.696240081705255E1  -1.643527897453530E1   1.736497308372469E2  
 7.508800000000000E9    -1.532401274023231E1  -1.747044449497621E2  -5.125733757672674E1  -6.148200902178891  -5.125966300627664E1  -5.265719199790521  -1.643965995071732E1   1.741456253203588E2  
 7.509600000000000E9    -1.525593445357062E1  -1.742660149691312E2  -4.926450310473545E1  -3.589628561948761E1  -4.918040182836511E1  -3.544263163283285E1  -1.641524136394710E1   1.745241964277562E2  
 7.510400000000000E9    -1.515273249622182E1  -1.740196754704211E2  -4.747451825418079E1  -5.889373209482315E1  -4.751201665642411E1  -5.802307840867952E1  -1.637783612004521E1   1.748255822275915E2  
 7.511200000000000E9    -1.507321644265129E1  -1.741739726566894E2  -4.616493105141761E1  -7.654520986516708E1  -4.608615629639117E1  -7.575398359767182E1  -1.632146976595580E1   1.749761970052419E2  
 7.512000000000000E9    -1.500775174509831E1  -1.744263145425958E2  -4.531019387432040E1  -9.213586170718277E1  -4.529711503000946E1  -9.171877551262780E1  -1.624993548079855E1   1.749202641652486E2  
 7.512800000000000E9    -1.496370861506465E1  -1.748755177360539E2  -4.495275054311946E1  -1.057129857533066E2  -4.486601443600148E1  -1.056380737542701E2  -1.620059823041359E1   1.746429876745783E2  
 7.513600000000000E9    -1.495247142173976E1  -1.753546203142788E2  -4.484601345664743E1  -1.177826613214501E2  -4.475558208128391E1  -1.174516231980336E2  -1.615067637575095E1   1.741798251128094E2  
 7.514400000000000E9    -1.494755063248768E1  -1.758041491913492E2  -4.498896787674770E1  -1.277725051302923E2  -4.492993001979970E1  -1.275050795025874E2  -1.614888725875052E1   1.735864743211979E2  
 7.515200000000000E9    -1.497741698440014E1  -1.761927221002382E2  -4.533073728737522E1  -1.359839429852180E2  -4.521477151906974E1  -1.353619095741366E2  -1.618698413067715E1   1.730328451585315E2  
 7.516000000000000E9    -1.503499254583908E1  -1.765618277687792E2  -4.575941262616423E1  -1.429464564487892E2  -4.567771636464379E1  -1.423686497081639E2  -1.623592935672149E1   1.726762689714393E2  
 7.516800000000000E9    -1.508064797104864E1  -1.767518923910619E2  -4.623771625715952E1  -1.491952381260457E2  -4.618923101049275E1  -1.484507636584703E2  -1.630586468325290E1   1.723633919055633E2  
 7.517600000000000E9    -1.513734340022184E1  -1.768399381186715E2  -4.700517807376380E1  -1.533511030172802E2  -4.690936415339667E1  -1.528875049350803E2  -1.639393678118081E1   1.722201489648063E2  
 7.518400000000000E9    -1.518872491656078E1  -1.764980888110573E2  -4.776733951970803E1  -1.553573946692424E2  -4.776498667770984E1  -1.548914011771452E2  -1.646644214783628E1   1.723017247126485E2  
 7.519200000000000E9    -1.520331855401322E1  -1.763942711555440E2  -4.856245970431634E1  -1.535895361393321E2  -4.851811898739816E1  -1.531631254802314E2  -1.655798877929699E1   1.725289504274064E2  
 7.520000000000000E9    -1.520419686501787E1  -1.762517452682643E2  -4.876758324840773E1  -1.484328117884576E2  -4.872653982656756E1  -1.481335807607764E2  -1.661533726557408E1   1.729973782061809E2  
 7.520800000000000E9    -1.519656113228021E1  -1.758982688948343E2  -4.816035411142716E1  -1.436470847085391E2  -4.823686956845580E1  -1.440287587566511E2  -1.662702038704465E1   1.733791604961574E2  
 7.521600000000000E9    -1.517240446728765E1  -1.758563790012697E2  -4.711096761435912E1  -1.421503454664373E2  -4.711200363736756E1  -1.421755808663762E2  -1.660028438526289E1   1.739787879747753E2  
 7.522400000000000E9    -1.512789074259361E1  -1.758611904026966E2  -4.583398592204338E1  -1.445843796903955E2  -4.581055228108721E1  -1.443002002355303E2  -1.655283397518479E1   1.742564981911748E2  
 7.523200000000000E9    -1.510443045235586E1  -1.761961604885013E2  -4.476350962298147E1  -1.499287818757288E2  -4.475371658431743E1  -1.495814280602710E2  -1.649197236858592E1   1.743393013279563E2  
 7.524000000000000E9    -1.507739382575542E1  -1.764945329827831E2  -4.392090595911294E1  -1.575540483178193E2  -4.390292109831226E1  -1.573132290364436E2  -1.641903537451822E1   1.743330760732841E2  
 7.524800000000000E9    -1.507500678899260E1  -1.768153210090155E2  -4.330255389856690E1  -1.664662180898261E2  -4.327220136635589E1  -1.663440051259495E2  -1.637494673902559E1   1.739356301176752E2  
 7.525600000000000E9    -1.510548762009170E1  -1.771390484637522E2  -4.291837991743910E1  -1.764979514675355E2  -4.286823163277724E1  -1.762205657793820E2  -1.636095934476724E1   1.734898985653003E2  
 7.526400000000000E9    -1.516651106865285E1  -1.774481135476345E2  -4.282458060800389E1   1.730616017941829E2  -4.279548956376837E1   1.733053003254892E2  -1.636935125236813E1   1.731177745126402E2  
 7.527200000000000E9    -1.523638411852684E1  -1.775185892402164E2  -4.304059170401875E1   1.619261873274733E2  -4.298623538371898E1   1.622319764499840E2  -1.639929110700514E1   1.725951888830902E2  
 7.528000000000000E9    -1.531469014487856E1  -1.774446629454368E2  -4.346461205555013E1   1.508072043189725E2  -4.343991407019107E1   1.508876303592518E2  -1.644651902584187E1   1.723136890900746E2  
 7.528800000000000E9    -1.536964940400648E1  -1.772294825805776E2  -4.420642968655572E1   1.392351695169355E2  -4.420673381563164E1   1.391428047621871E2  -1.650548250858746E1   1.722871218983842E2  
 7.529600000000000E9    -1.540724651966757E1  -1.768068837390994E2  -4.539485669534999E1   1.271774497511165E2  -4.534822829229691E1   1.270135114054209E2  -1.655967872338991E1   1.720589087929723E2  
 7.530400000000000E9    -1.540885669590802E1  -1.762045737143217E2  -4.694863815213029E1   1.136887228125013E2  -4.698313336717152E1   1.141216653423975E2  -1.660381913169354E1   1.722240302415966E2  
 7.531200000000000E9    -1.540944865155009E1  -1.757878844742675E2  -4.927483521490190E1   1.000305149390466E2  -4.934936376904886E1   9.973731355612893E1  -1.667938405983181E1   1.722097521707895E2  
 7.532000000000000E9    -1.534327203981727E1  -1.754648783300419E2  -5.318454857207869E1   8.177377485740384E1  -5.320929205021469E1   8.227905599602566E1  -1.669154473111090E1   1.726339474687084E2  
 7.532800000000000E9    -1.528613913521084E1  -1.750826693243911E2  -6.024944134516168E1   4.911570236995501E1  -6.073029133219998E1   5.064904632032830E1  -1.668844130677067E1   1.729001206220271E2  
 7.533600000000000E9    -1.521749375186236E1  -1.749999656590747E2  -6.197103745100398E1  -7.029539453431634E1  -6.228724259197139E1  -7.028198257680236E1  -1.668208382561937E1   1.730236657956832E2  
 7.534400000000000E9    -1.514223354507332E1  -1.750081932663177E2  -5.388234108603912E1  -1.087064149281241E2  -5.393023028902535E1  -1.077738117844164E2  -1.664152731946819E1   1.732754853412307E2  
 7.535200000000000E9    -1.506046110429056E1  -1.751528112676442E2  -4.960757953520277E1  -1.269932313588028E2  -4.968940901328272E1  -1.260641889895997E2  -1.661606579322789E1   1.732533808462518E2  
 7.536000000000000E9    -1.499081847465507E1  -1.754946451294493E2  -4.704189627417741E1  -1.414484884196815E2  -4.696358546610820E1  -1.409670450436523E2  -1.657683805218204E1   1.729953031254768E2  
 7.536800000000000E9    -1.493770804325275E1  -1.760593948307370E2  -4.523071382067660E1  -1.551597939170788E2  -4.529145765723261E1  -1.546385354217675E2  -1.655549243924471E1   1.727487710552258E2  
 7.537600000000000E9    -1.490586965163396E1  -1.765298699283574E2  -4.401694213878621E1  -1.682573890022798E2  -4.403791803468452E1  -1.679319222146158E2  -1.657127951747685E1   1.723953627987682E2  
 7.538400000000000E9    -1.489382794136465E1  -1.771728474310201E2  -4.317923174350025E1   1.788206077364151E2  -4.315003802971845E1   1.790682732116485E2  -1.657513950025352E1   1.720392996223694E2  
 7.539200000000000E9    -1.490292285755550E1  -1.776857615755955E2  -4.262480088596615E1   1.658868715576943E2  -4.262967659884485E1   1.657884108024311E2  -1.662992534246155E1   1.716464808138983E2  
 7.540000000000000E9    -1.493217027881723E1  -1.783147239688557E2  -4.240504183406097E1   1.524082750368358E2  -4.243021838145616E1   1.525301295173643E2  -1.666914654629677E1   1.715546617618742E2  
 7.540800000000000E9    -1.501162016461184E1  -1.787006562243038E2  -4.251949434704179E1   1.388972038235459E2  -4.251992361532810E1   1.392772926296845E2  -1.672799349678837E1   1.714754912239206E2  
 7.541600000000000E9    -1.508228628738555E1  -1.789789357388688E2  -4.296521167237290E1   1.251988166656732E2  -4.297934922811053E1   1.254597471912421E2  -1.678445169585638E1   1.715775550418816E2  
 7.542400000000000E9    -1.517436408111319E1  -1.790857391833067E2  -4.380279471491009E1   1.115752750845475E2  -4.386138138165394E1   1.119558939635344E2  -1.682201851874942E1   1.717462772208696E2  
 7.543200000000000E9    -1.524563753428438E1  -1.789775784809758E2  -4.513437089469808E1   9.789995118201681E1  -4.510530011621095E1   9.797263314851540E1  -1.683621166424301E1   1.719667730181376E2  
 7.544000000000000E9    -1.530271386032705E1  -1.787205261063846E2  -4.703745477558174E1   8.346760943181860E1  -4.695900896120512E1   8.409993672658591E1  -1.686500876441011E1   1.723515809687746E2  
 7.544800000000000E9    -1.532154907560464E1  -1.783752285133073E2  -4.975671489404051E1   6.846069226777497E1  -4.981867930172847E1   6.919851570702592E1  -1.683043843239299E1   1.726192111367104E2  
 7.545600000000000E9    -1.533494788324461E1  -1.778818818713771E2  -5.400363444081413E1   4.955791493453020E1  -5.401326636599087E1   5.061822553850526E1  -1.680294058283140E1   1.729439110675660E2  
 7.546400000000000E9    -1.531049949036838E1  -1.777740666855666E2  -6.222332797390426E1   7.369215032995506  -6.245381737736883E1   1.074550449694470E1  -1.673218774595212E1   1.728589641889190E2  
 7.547200000000000E9    -1.527016638059765E1  -1.775967444339739E2  -6.017940601113379E1  -1.020626226584575E2  -6.034331954612755E1  -1.011203919753836E2  -1.665973481870437E1   1.726165868614039E2  
 7.548000000000000E9    -1.522875128042663E1  -1.774803597228560E2  -5.293650673534766E1  -1.336294793145208E2  -5.296028174848625E1  -1.332399321125254E2  -1.661980951917264E1   1.723195823275414E2  
 7.548800000000000E9    -1.516715509492535E1  -1.775569703729518E2  -4.887602482249515E1  -1.516069355466419E2  -4.890158469567146E1  -1.515116975877822E2  -1.659385144124713E1   1.717208693109073E2  
 7.549600000000000E9    -1.514031250911845E1  -1.777949757532663E2  -4.626763500875498E1  -1.668103177623128E2  -4.631169899025412E1  -1.666685775977041E2  -1.661231242909315E1   1.712288473646412E2  
 7.550400000000000E9    -1.511714178570334E1  -1.783106353669050E2  -4.450086538662011E1   1.787528887679306E2  -4.454023413772295E1   1.789758177149993E2  -1.662873723792411E1   1.708105925560158E2  
 7.551200000000000E9    -1.511932982632402E1  -1.787605757833472E2  -4.337918796490236E1   1.649921505209089E2  -4.336711196436323E1   1.654215795696162E2  -1.667231660255268E1   1.703755195790050E2  
 7.552000000000000E9    -1.517437878983550E1  -1.791515993465471E2  -4.267768841238385E1   1.520793932514678E2  -4.257076605864204E1   1.521305305824926E2  -1.673811794869809E1   1.698717660474266E2  
 7.552800000000000E9    -1.523906069975394E1  -1.793665586329719E2  -4.224852409696029E1   1.394137446381599E2  -4.224746100556947E1   1.399367685165219E2  -1.680754446808745E1   1.695948295809739E2  
 7.553600000000000E9    -1.529379424225666E1  -1.794108960477725E2  -4.217460778104667E1   1.278875521550008E2  -4.214990600818962E1   1.281110177779457E2  -1.689690845645668E1   1.692873031615758E2  
 7.554400000000000E9    -1.534050145642368E1  -1.790567359212289E2  -4.229091091252017E1   1.166006122631787E2  -4.229979374810318E1   1.171304045830655E2  -1.700739406882220E1   1.693507763137625E2  
 7.555200000000000E9    -1.536888563938365E1  -1.787988031237518E2  -4.263568141354370E1   1.060127979668092E2  -4.258649627911829E1   1.064099692861424E2  -1.712866396913969E1   1.694556291493053E2  
 7.556000000000000E9    -1.538154483655337E1  -1.784437075561361E2  -4.318377267279243E1   9.544291210171240E1  -4.316712164406174E1   9.576853008893009E1  -1.721189325428694E1   1.699440500697570E2  
 7.556800000000000E9    -1.537388573185633E1  -1.781685689698889E2  -4.399612056865691E1   8.501996264480911E1  -4.399231877066831E1   8.558351592815018E1  -1.726672004485015E1   1.706610804821647E2  
 7.557600000000000E9    -1.534580246095639E1  -1.778640530342422E2  -4.518251331599288E1   7.512843491390095E1  -4.515999128331380E1   7.553761023400848E1  -1.728980475251213E1   1.712490864650274E2  
 7.558400000000000E9    -1.529632828095916E1  -1.776584122955277E2  -4.691419902285007E1   6.647772928425907E1  -4.689571381827430E1   6.680800300843552E1  -1.726685989433641E1   1.718955483527162E2  
 7.559200000000000E9    -1.522333593818969E1  -1.775525278881672E2  -4.927475458645183E1   6.081872570656284E1  -4.922793690642207E1   6.068491523688108E1  -1.721752960170024E1   1.723654651666608E2  
 7.560000000000000E9    -1.514173136112044E1  -1.776753871870155E2  -5.246404829113401E1   6.057373750289586E1  -5.247340000722945E1   6.101452573620075E1  -1.712431492280713E1   1.728134580612071E2  
 7.560800000000000E9    -1.504967146620315E1  -1.779498118387286E2  -5.604035650331363E1   7.875610594042605E1  -5.612525828071027E1   7.897976471844318E1  -1.705225838253018E1   1.729615947255145E2  
 7.561600000000000E9    -1.499956912650997E1  -1.783713594343072E2  -5.594011876328661E1   1.116832906920547E2  -5.583513126827775E1   1.119852451531083E2  -1.696751661396483E1   1.727798279235735E2  
 7.562400000000000E9    -1.495638836623717E1  -1.789838375548071E2  -5.278255861736925E1   1.265908261505722E2  -5.270989532485319E1   1.268168089447331E2  -1.692412593259165E1   1.725534723697706E2  
 7.563200000000000E9    -1.495864964839960E1  -1.795786897160845E2  -5.006810080225112E1   1.268356897568525E2  -5.018220437436272E1   1.272015401962927E2  -1.688050644472130E1   1.721826555928163E2  
 7.564000000000000E9    -1.497782898621481E1   1.799107741385217E2  -4.833284405801226E1   1.219989469781721E2  -4.838380694506729E1   1.225145205403806E2  -1.685567069016284E1   1.716545509841401E2  
 7.564800000000000E9    -1.502944884617066E1   1.795354795830126E2  -4.706552102913046E1   1.153691707641432E2  -4.702682873592518E1   1.157388087302004E2  -1.685931699182030E1   1.713756470916087E2  
 7.565600000000000E9    -1.508974066587559E1   1.792584598121354E2  -4.615423162980727E1   1.074611948940168E2  -4.612113465522272E1   1.081379403297701E2  -1.685168838689152E1   1.709782818878033E2  
 7.566400000000000E9    -1.514530541705503E1   1.790242487026677E2  -4.554981743222746E1   9.831406411715194E1  -4.556825241655096E1   9.854814361599622E1  -1.689436795274220E1   1.707221743811014E2  
 7.567200000000000E9    -1.518643557601474E1   1.789604267144919E2  -4.541344496472770E1   8.804531401998558E1  -4.534861427632918E1   8.850205868498583E1  -1.693831114276934E1   1.704480183425732E2  
 7.568000000000000E9    -1.523112124359480E1   1.791726422093353E2  -4.557045477978952E1   7.760048413143552E1  -4.561564245467068E1   7.796288616618591E1  -1.698522639848968E1   1.704020954854343E2  
 7.568800000000000E9    -1.522388808730847E1   1.793893778194332E2  -4.635981532750748E1   6.756566567105833E1  -4.636714257020795E1   6.744386540826238E1  -1.701973502797019E1   1.703665671242781E2  
 7.569600000000000E9    -1.522588179877353E1   1.793435056433595E2  -4.761591005053516E1   5.788029953376954E1  -4.759139863945443E1   5.822955714190074E1  -1.705278303498842E1   1.705206054689386E2  
 7.570400000000000E9    -1.520288415688224E1   1.792979559163514E2  -4.949927980530467E1   4.996602007493470E1  -4.954657341074809E1   5.015309391788032E1  -1.708694596420127E1   1.708396504014197E2  
 7.571200000000000E9    -1.518740995259127E1   1.792985061394543E2  -5.257139098067272E1   4.572620805372002E1  -5.258064157178485E1   4.655361364777044E1  -1.705351883513806E1   1.711233146693323E2  
 7.572000000000000E9    -1.516159025001780E1   1.790344370070184E2  -5.728377013523740E1   5.509673599267668E1  -5.743995010956761E1   5.712104785838540E1  -1.701765629890559E1   1.712071975790884E2  
 7.572800000000000E9    -1.516075230036333E1   1.788476169774701E2  -5.921418568564614E1   1.077962146133380E2  -5.921734918270094E1   1.090593904457738E2  -1.697329563833345E1   1.711808972646612E2  
 7.573600000000000E9    -1.516938055800870E1   1.785147539115468E2  -5.371203622697466E1   1.343139251666489E2  -5.368609289475610E1   1.351984869584859E2  -1.691356855101980E1   1.709308626141817E2  
 7.574400000000000E9    -1.516531481254575E1   1.782658865474292E2  -4.950208205877571E1   1.344903516918636E2  -4.943355429453573E1   1.343229944817975E2  -1.689136986840127E1   1.706211527733904E2  
 7.575200000000000E9    -1.520076667701642E1   1.778875796969908E2  -4.663676634864405E1   1.267775339359850E2  -4.663016006192877E1   1.267598533881034E2  -1.688816147678325E1   1.701789203554374E2  
 7.576000000000000E9    -1.523321653269101E1   1.776719794971110E2  -4.466400788591398E1   1.170655184631648E2  -4.466879574212101E1   1.171745426862397E2  -1.690997465263590E1   1.696815464538178E2  
 7.576800000000000E9    -1.529052304757719E1   1.773750997121267E2  -4.323076965649023E1   1.059496058550970E2  -4.324507783014126E1   1.061992636022129E2  -1.693297198437332E1   1.693672219468839E2  
 7.577600000000000E9    -1.537021564180742E1   1.773818596044092E2  -4.223706241424093E1   9.491796272030513E1  -4.221580807145654E1   9.517809087313239E1  -1.698875042633534E1   1.690412153407223E2  
