#  HZ   S   DB   R     50.00 
! Rohde & Schwarz ZVA40 2Ports - Version 4.11 - 1145.1110k40 SN: 100216
! Date: 2025-05-17 20:26:16
! Measurements: S11 S21 S12 S22 
! 
 7.500000000000000E9    -1.647570580380794E1   1.761915108632031E2  -4.292825114601217E1  -5.123235072396987E1  -4.288863033059222E1  -5.115219265632616E1  -1.480777023742030E1  -1.768262612878048E2  
 7.500800000000000E9    -1.641558909897425E1   1.764298491304248E2  -4.255006405494118E1  -6.295467299241845E1  -4.252126635087703E1  -6.268860456838647E1  -1.487779235443502E1  -1.771472204361074E2  
 7.501600000000000E9    -1.636592518419148E1   1.763625921278892E2  -4.244219218239211E1  -7.480078395609739E1  -4.237838404799496E1  -7.437702550424399E1  -1.494438642714926E1  -1.772838014993354E2  
 7.502400000000000E9    -1.632931577532775E1   1.762430676978698E2  -4.251414508084779E1  -8.672025417582550E1  -4.248357634496011E1  -8.669663900321265E1  -1.502647922479213E1  -1.772395313378601E2  
 7.503200000000000E9    -1.628997572353746E1   1.760788752320973E2  -4.284692194485928E1  -9.874764160211606E1  -4.278847084013539E1  -9.847795970013014E1  -1.507721306053018E1  -1.769198519322312E2  
 7.504000000000000E9    -1.627650654361806E1   1.757106033571403E2  -4.342171595175698E1  -1.107719448555585E2  -4.328368886792924E1  -1.107828946959242E2  -1.511645762471659E1  -1.766695351589685E2  
 7.504800000000000E9    -1.624838552506670E1   1.754980228472687E2  -4.414498157634468E1  -1.228169975004058E2  -4.414165577374396E1  -1.226405768117353E2  -1.514208872549267E1  -1.763506568283394E2  
 7.505600000000000E9    -1.624974404053469E1   1.750645139189141E2  -4.529553100953201E1  -1.349924262831086E2  -4.515543135421971E1  -1.352761786652616E2  -1.513130341883580E1  -1.760322273420218E2  
 7.506400000000000E9    -1.626105073393589E1   1.748054072787625E2  -4.663500249924302E1  -1.474717989837635E2  -4.653660615829465E1  -1.472502574609869E2  -1.510559575876670E1  -1.756810698247413E2  
 7.507200000000000E9    -1.628226428516758E1   1.745037552190670E2  -4.830347971143931E1  -1.601696542504349E2  -4.830372653226858E1  -1.600836548845813E2  -1.505293021987659E1  -1.754598441632425E2  
 7.508000000000000E9    -1.629960792719133E1   1.744113038124844E2  -5.047792709766009E1  -1.745359015575888E2  -5.035157398012679E1  -1.741820021562378E2  -1.498741103298980E1  -1.754789273650318E2  
 7.508800000000000E9    -1.635365028124059E1   1.742871237805002E2  -5.306742045708769E1   1.661977025026101E2  -5.307419484127316E1   1.667106452722179E2  -1.492612212804282E1  -1.756670361468978E2  
 7.509600000000000E9    -1.638531634848878E1   1.742154599009992E2  -5.669695494200349E1   1.378515395803304E2  -5.666982337997212E1   1.378904368444089E2  -1.488417540687610E1  -1.759507487870858E2  
 7.510400000000000E9    -1.641040427902336E1   1.740373581298054E2  -5.892026133457839E1   8.832658181492606E1  -5.892128102233836E1   8.756683627545536E1  -1.486563404942222E1  -1.764378869195737E2  
 7.511200000000000E9    -1.643124274415522E1   1.740629048974083E2  -5.703774329551531E1   3.817759240691435E1  -5.691580741764304E1   3.761164122335784E1  -1.487576228186541E1  -1.768001448005492E2  
 7.512000000000000E9    -1.648586151581944E1   1.741464485300713E2  -5.390373314003295E1   8.138698737667163  -5.365618595466054E1   8.267611793470749  -1.491844258056339E1  -1.771588722800051E2  
 7.512800000000000E9    -1.652196528070778E1   1.741754862535619E2  -5.154572359484356E1  -9.893785381012934  -5.146875460308063E1  -1.019366456464173E1  -1.492696160385689E1  -1.771585533562486E2  
 7.513600000000000E9    -1.654998971355935E1   1.745202426830795E2  -4.983091688942096E1  -2.370444433949273E1  -4.977109030367135E1  -2.371546745230571E1  -1.493626579938159E1  -1.772279052253934E2  
 7.514400000000000E9    -1.657953850864175E1   1.748059928744935E2  -4.855614090187985E1  -3.432086397275905E1  -4.842578599120036E1  -3.351528946196287E1  -1.496252985190682E1  -1.774154708012125E2  
 7.515200000000000E9    -1.656864303626930E1   1.749713786987644E2  -4.734294440500113E1  -4.327955246397712E1  -4.724477687849331E1  -4.257230051874246E1  -1.497339923680634E1  -1.776492321167491E2  
 7.516000000000000E9    -1.656974373127331E1   1.752703317263373E2  -4.638543889944408E1  -5.207058784589847E1  -4.630052277444435E1  -5.193695370254970E1  -1.498232118070931E1  -1.776885885034854E2  
 7.516800000000000E9    -1.654896283175650E1   1.754760418135885E2  -4.560100788558766E1  -6.103308000294140E1  -4.547603516801930E1  -6.131834242276405E1  -1.504211102100622E1  -1.776489981806259E2  
 7.517600000000000E9    -1.653868301461820E1   1.758217425557511E2  -4.497375284908213E1  -7.030694140638582E1  -4.490636495793832E1  -7.027637543964777E1  -1.507648387181324E1  -1.775696028262192E2  
 7.518400000000000E9    -1.649205973184654E1   1.759911897684271E2  -4.461834805115902E1  -7.933300056962766E1  -4.445864992113223E1  -7.970634585868278E1  -1.507365205262656E1  -1.772519362270301E2  
 7.519200000000000E9    -1.644209681960837E1   1.760894671658696E2  -4.442027568560328E1  -8.842037091445353E1  -4.429315002873162E1  -8.858385001047870E1  -1.506047531583784E1  -1.769554144383427E2  
 7.520000000000000E9    -1.638224192522922E1   1.761263626391698E2  -4.440644136252352E1  -9.666667311585113E1  -4.430786170024142E1  -9.709844187403753E1  -1.501057899154063E1  -1.768201170515124E2  
 7.520800000000000E9    -1.630724112307518E1   1.757953470822771E2  -4.451290745483723E1  -1.043369292247869E2  -4.446235819100807E1  -1.047503307038328E2  -1.493942840724889E1  -1.768409686379918E2  
 7.521600000000000E9    -1.628638411625447E1   1.755358650663819E2  -4.478923135478563E1  -1.113434966337926E2  -4.469172197522425E1  -1.116031419804121E2  -1.486590344881971E1  -1.771266057927120E2  
 7.522400000000000E9    -1.626344289858996E1   1.751505111022931E2  -4.505795064649541E1  -1.169955785859255E2  -4.503053423547626E1  -1.174400715200352E2  -1.482364428512268E1  -1.774517934970502E2  
 7.523200000000000E9    -1.626238329257208E1   1.747018676192976E2  -4.534863222719554E1  -1.221311437238713E2  -4.526118312207426E1  -1.221858174865214E2  -1.477336650366105E1  -1.779983578091542E2  
 7.524000000000000E9    -1.629369308385003E1   1.744498073117128E2  -4.552044881958990E1  -1.266619370280495E2  -4.545486107209077E1  -1.271598090628069E2  -1.477375858076872E1  -1.785325270934291E2  
 7.524800000000000E9    -1.633833494999382E1   1.741292732790710E2  -4.560597194488263E1  -1.318475295068694E2  -4.556219737360660E1  -1.324638447627231E2  -1.480914027306140E1  -1.790525389184293E2  
 7.525600000000000E9    -1.637828851232694E1   1.739127443923579E2  -4.579962630999295E1  -1.380035945452010E2  -4.571001367857463E1  -1.383660348015291E2  -1.488383911689781E1  -1.795303276998111E2  
 7.526400000000000E9    -1.643331424960358E1   1.738742073003630E2  -4.603608508012580E1  -1.447104866020100E2  -4.604830575445642E1  -1.452380700331049E2  -1.494407805512940E1  -1.797214062845871E2  
 7.527200000000000E9    -1.650617945894946E1   1.738539162897622E2  -4.645877562343662E1  -1.520837525367638E2  -4.642504493335991E1  -1.523520919902693E2  -1.501719174143539E1  -1.799215437937166E2  
 7.528000000000000E9    -1.654184616636179E1   1.738308406892245E2  -4.708021954342328E1  -1.595724567718771E2  -4.705323392652884E1  -1.598105199847410E2  -1.507422628753450E1  -1.797401694083980E2  
 7.528800000000000E9    -1.656646875345439E1   1.741300796606743E2  -4.793556301339356E1  -1.666634004629535E2  -4.788556274167475E1  -1.672758939004186E2  -1.512155758777844E1  -1.794443731574573E2  
 7.529600000000000E9    -1.660406349900504E1   1.742321037168532E2  -4.903054500782858E1  -1.744821843092569E2  -4.901716299055413E1  -1.749506709215945E2  -1.513652119037699E1  -1.791448261003518E2  
 7.530400000000000E9    -1.661178320110479E1   1.745253975512065E2  -5.039532190977849E1   1.779646463699782E2  -5.047784468698794E1   1.773218839136513E2  -1.513374996298957E1  -1.787817635426762E2  
 7.531200000000000E9    -1.661947344536654E1   1.747847807952818E2  -5.250078100719112E1   1.691845150376416E2  -5.248158837312963E1   1.683935326045627E2  -1.510109163163120E1  -1.785656388234327E2  
 7.532000000000000E9    -1.661127588035534E1   1.749579420815087E2  -5.577782651972602E1   1.596889833905106E2  -5.560555958740878E1   1.597387368476360E2  -1.507358735128333E1  -1.784229657728916E2  
 7.532800000000000E9    -1.659608055845672E1   1.751361328715580E2  -6.139623462982803E1   1.479124392355683E2  -6.148708041897196E1   1.474442314090384E2  -1.502770943024329E1  -1.784352564075414E2  
 7.533600000000000E9    -1.657711672382012E1   1.752197581190344E2  -7.890713470855874E1  -2.523539365862755E-2  -8.166848695842209E1  -8.118514590079492  -1.497563381424959E1  -1.785099637224516E2  
 7.534400000000000E9    -1.658311159854153E1   1.753614779212735E2  -5.944987989377304E1  -4.187247530055459E1  -5.952257811480656E1  -4.217840969823132E1  -1.495722909074591E1  -1.787305614837479E2  
 7.535200000000000E9    -1.653402098636459E1   1.753675842753927E2  -5.356299053148317E1  -5.555573547858301E1  -5.354375941099056E1  -5.581013431042294E1  -1.491347393476382E1  -1.789566901995034E2  
 7.536000000000000E9    -1.653129695669114E1   1.753386751226289E2  -4.999154823237226E1  -6.634024487858510E1  -4.999295560596625E1  -6.660698811038796E1  -1.489921376026668E1  -1.791280121569282E2  
 7.536800000000000E9    -1.648833874457328E1   1.752252310464681E2  -4.746725095439147E1  -7.844335584013703E1  -4.744303470210645E1  -7.846549683154700E1  -1.490874443596273E1  -1.796825651998246E2  
 7.537600000000000E9    -1.645773056062037E1   1.752219881861806E2  -4.557419632839566E1  -8.991287414647088E1  -4.562510589511755E1  -9.025684495589628E1  -1.491027810780635E1  -1.798884377036068E2  
 7.538400000000000E9    -1.645566909812261E1   1.749978412165251E2  -4.428400222623156E1  -1.021129407684105E2  -4.420851784438079E1  -1.022930470325431E2  -1.492850963956976E1   1.798408661236509E2  
 7.539200000000000E9    -1.642026200944243E1   1.747469607013663E2  -4.329986620946684E1  -1.139933911801679E2  -4.329301114451008E1  -1.144518712693160E2  -1.497509958755270E1   1.796465716683654E2  
 7.540000000000000E9    -1.641580054938279E1   1.744329132694484E2  -4.264088242357430E1  -1.255805258964412E2  -4.266166128230299E1  -1.257917794593488E2  -1.503293310121617E1   1.794878763536379E2  
 7.540800000000000E9    -1.642990426931724E1   1.743087353409745E2  -4.233170379181308E1  -1.367408581707399E2  -4.229525067044603E1  -1.371842957335597E2  -1.505652292735630E1   1.795600548334196E2  
 7.541600000000000E9    -1.643225735104368E1   1.741161732918970E2  -4.225280711803902E1  -1.478586445087052E2  -4.220677389964434E1  -1.478495039628187E2  -1.506284570063675E1   1.797165898170950E2  
 7.542400000000000E9    -1.646192292486508E1   1.738898419641779E2  -4.238863455656104E1  -1.580164618950209E2  -4.238481444948150E1  -1.581151089673083E2  -1.511746141424815E1   1.797910367236829E2  
 7.543200000000000E9    -1.645354627151474E1   1.736891365669303E2  -4.271610399475100E1  -1.675653544925696E2  -4.269502730055864E1  -1.676281778104854E2  -1.510157698277323E1   1.798665356973187E2  
 7.544000000000000E9    -1.645571073996170E1   1.735057607545928E2  -4.325033622575356E1  -1.758658610950117E2  -4.323833956246268E1  -1.760408336240403E2  -1.510846472219982E1   1.798959380610283E2  
 7.544800000000000E9    -1.645654964830883E1   1.733173956101483E2  -4.387084717083462E1   1.768088430008686E2  -4.386159590461973E1   1.768550088636048E2  -1.509633864874036E1   1.799702598375952E2  
 7.545600000000000E9    -1.647518555652711E1   1.730305623271345E2  -4.462001537184923E1   1.706626326422363E2  -4.455863209406941E1   1.706948676204444E2  -1.505550344805327E1   1.798623627494995E2  
 7.546400000000000E9    -1.650462863137307E1   1.728702858679458E2  -4.530646767098936E1   1.657853873690670E2  -4.527066816786435E1   1.654147472110767E2  -1.504665679389468E1   1.799616762573123E2  
 7.547200000000000E9    -1.651343525056848E1   1.726037312109201E2  -4.613491363881093E1   1.610683879655385E2  -4.609143270273840E1   1.611879377376317E2  -1.500424460561117E1   1.798171682584222E2  
 7.548000000000000E9    -1.654907300908099E1   1.724525670690102E2  -4.687561527836003E1   1.573895763580941E2  -4.696616154189228E1   1.572005804928026E2  -1.499137737633492E1   1.794763517221335E2  
 7.548800000000000E9    -1.658532593139713E1   1.723108182660676E2  -4.784418768743484E1   1.552953565851072E2  -4.785563832402546E1   1.550684955996683E2  -1.499439667628360E1   1.790382782830990E2  
 7.549600000000000E9    -1.662051897114172E1   1.721957044554196E2  -4.878105786493308E1   1.539266364590822E2  -4.877302656878690E1   1.534296693641404E2  -1.498726033470225E1   1.786999507823730E2  
 7.550400000000000E9    -1.666079804769430E1   1.721472318202748E2  -4.976643800060615E1   1.543893604021268E2  -4.977783361533398E1   1.540418920902506E2  -1.501554289401896E1   1.781546031198507E2  
 7.551200000000000E9    -1.669160152054651E1   1.721219604222495E2  -5.067818167659790E1   1.567504013491386E2  -5.061196092856326E1   1.567800685309904E2  -1.508263582830761E1   1.778608886533673E2  
 7.552000000000000E9    -1.674995656317982E1   1.722082499403915E2  -5.131684456887226E1   1.616280648563125E2  -5.125869542497217E1   1.612829372090445E2  -1.516238486302790E1   1.775258417920819E2  
 7.552800000000000E9    -1.676600390581654E1   1.723486373525884E2  -5.149744971747030E1   1.675821840853147E2  -5.155805023906746E1   1.682416875083236E2  -1.523538596844267E1   1.774920243258582E2  
 7.553600000000000E9    -1.678405912297564E1   1.725622310129267E2  -5.132521032412844E1   1.739428013047281E2  -5.133315154042668E1   1.739266957087793E2  -1.533387273122326E1   1.775710541292754E2  
 7.554400000000000E9    -1.677653426065752E1   1.728118199138862E2  -5.077000827855984E1   1.786446160729282E2  -5.069133448813581E1   1.785566284016704E2  -1.537078492925081E1   1.778540333320115E2  
 7.555200000000000E9    -1.675906938806696E1   1.729728917767433E2  -4.997779030786489E1  -1.783566863543626E2  -4.993552792313224E1  -1.783253270300774E2  -1.542845975169861E1   1.782256798580029E2  
 7.556000000000000E9    -1.672408095208534E1   1.732152826405308E2  -4.900228600064610E1  -1.763470335500158E2  -4.899570219566796E1  -1.767972331953543E2  -1.544747221981724E1   1.785025226999994E2  
 7.556800000000000E9    -1.667142573283293E1   1.731878619730875E2  -4.789064470334944E1  -1.773341798510262E2  -4.785605690069195E1  -1.771230709875649E2  -1.544400897912497E1   1.787159814844370E2  
 7.557600000000000E9    -1.665753682689407E1   1.730721785751402E2  -4.674792052833230E1  -1.796562161425924E2  -4.672221311307722E1  -1.795851375173064E2  -1.542800738181063E1   1.790876945432644E2  
 7.558400000000000E9    -1.660996979782632E1   1.729384564901823E2  -4.568440545522486E1   1.763590570370850E2  -4.567881042472337E1   1.760933192156278E2  -1.538483592678391E1   1.793907986994771E2  
 7.559200000000000E9    -1.657199474841934E1   1.728062083858493E2  -4.472608277061277E1   1.697510939033404E2  -4.468806513089700E1   1.698718712067974E2  -1.532436457724678E1   1.794995680250476E2  
 7.560000000000000E9    -1.653956942494595E1   1.724644151295085E2  -4.402835835063444E1   1.624423296988457E2  -4.398689902879159E1   1.621311723021216E2  -1.527220751984748E1   1.793674724847480E2  
 7.560800000000000E9    -1.652622173135778E1   1.722150765816277E2  -4.355463177727692E1   1.533973290593287E2  -4.351071300566115E1   1.533373929803077E2  -1.520701243536392E1   1.790312922202751E2  
 7.561600000000000E9    -1.652617508025655E1   1.718589788580636E2  -4.333917091987239E1   1.441645701534337E2  -4.327977959388247E1   1.440363276506952E2  -1.516211677751982E1   1.785918620754067E2  
 7.562400000000000E9    -1.651907598595091E1   1.716141610520327E2  -4.344423530299103E1   1.351422723803784E2  -4.336513167149302E1   1.351268526002808E2  -1.517723933420790E1   1.780042311504646E2  
 7.563200000000000E9    -1.654264940184251E1   1.714124782800933E2  -4.383756983499409E1   1.268466605559559E2  -4.376002375044831E1   1.268162416665685E2  -1.519545226954252E1   1.774204410640821E2  
 7.564000000000000E9    -1.655102941676525E1   1.712780750728157E2  -4.431951601445162E1   1.199777883973022E2  -4.429861275096926E1   1.197924720674560E2  -1.524819726294524E1   1.769260994316831E2  
 7.564800000000000E9    -1.657567821479664E1   1.711517189637795E2  -4.489427815385566E1   1.143165076405769E2  -4.481216249351568E1   1.142897065436831E2  -1.530805022954449E1   1.765885847886897E2  
 7.565600000000000E9    -1.657985513489715E1   1.712279193738625E2  -4.540768247573717E1   1.086317924530164E2  -4.537148242981917E1   1.087231660125938E2  -1.539398502227271E1   1.764180645306235E2  
 7.566400000000000E9    -1.655318962151048E1   1.710471131401845E2  -4.599143192745778E1   1.038422570862029E2  -4.598180640840301E1   1.032517649065417E2  -1.547695059977078E1   1.764112358997469E2  
 7.567200000000000E9    -1.653703812316782E1   1.709913347108781E2  -4.676334613893172E1   9.851414424682248E1  -4.670460446020925E1   9.847452204730264E1  -1.553657147494522E1   1.766060733311876E2  
 7.568000000000000E9    -1.650043002165539E1   1.709931326508551E2  -4.747731495091654E1   9.518248677129995E1  -4.742271413203726E1   9.551096983132797E1  -1.558317845685776E1   1.768033281326217E2  
 7.568800000000000E9    -1.648303315619837E1   1.706663350729845E2  -4.816230416244828E1   9.206422191758674E1  -4.811514786413936E1   9.200815433121393E1  -1.559763866659024E1   1.770853366912789E2  
 7.569600000000000E9    -1.645560085510818E1   1.706351910378499E2  -4.876958303831530E1   8.837323012121372E1  -4.873303800491569E1   8.817919815363794E1  -1.559162058858802E1   1.772474868338394E2  
 7.570400000000000E9    -1.644352174525040E1   1.702127257200635E2  -4.943421585222797E1   8.275905189461007E1  -4.939879624916834E1   8.222288619455507E1  -1.558062509716286E1   1.773299584274727E2  
 7.571200000000000E9    -1.644854445509177E1   1.699934369798630E2  -5.062600474793582E1   7.661567088838028E1  -5.063429584360026E1   7.607563867129545E1  -1.553690167392527E1   1.771785506856705E2  
 7.572000000000000E9    -1.647591466464551E1   1.697619382319739E2  -5.232104730570715E1   6.960856188958424E1  -5.233920245143914E1   6.943720181339836E1  -1.551812424131015E1   1.770416540983450E2  
 7.572800000000000E9    -1.648545824195346E1   1.694780212286740E2  -5.491808650362374E1   6.347053907308588E1  -5.501036998228518E1   6.327595034417912E1  -1.552164667909742E1   1.768163374099922E2  
 7.573600000000000E9    -1.650932571557121E1   1.692358012862382E2  -5.996574215921518E1   5.764225701053464E1  -5.956323761546808E1   5.732471990405161E1  -1.553597164704157E1   1.764284113518349E2  
 7.574400000000000E9    -1.651865907892723E1   1.690390111234231E2  -7.358914873919053E1   7.863624490208515E1  -7.377935109051930E1   7.499790410140389E1  -1.556392498869313E1   1.761239053962432E2  
 7.575200000000000E9    -1.654313836854078E1   1.689614902293305E2  -6.146150134021966E1  -1.532006247501476E2  -6.152700856581291E1  -1.556908436512120E2  -1.558106843894044E1   1.758323276343010E2  
 7.576000000000000E9    -1.657042352917696E1   1.688584593287404E2  -5.431246649913381E1  -1.624257964944087E2  -5.429669533781154E1  -1.623762557634498E2  -1.567176338343735E1   1.755470460947537E2  
 7.576800000000000E9    -1.658873615199144E1   1.688561728849776E2  -5.029566333409940E1  -1.720189185737097E2  -5.025097042371758E1  -1.715666582940017E2  -1.572784033806367E1   1.753991161252199E2  
 7.577600000000000E9    -1.661484760075097E1   1.688386310136047E2  -4.773544011097233E1   1.775517856203516E2  -4.770021849255610E1   1.775272431716284E2  -1.580493972321115E1   1.755237335104519E2  
