#  HZ   S   DB   R     50.00 
! Rohde & Schwarz ZVA40 2Ports - Version 4.11 - 1145.1110k40 SN: 100216
! Date: 2025-05-17 20:26:52
! Measurements: S11 S21 S12 S22 
! 
 7.500000000000000E9    -1.646963416712526E1   1.761352947870962E2  -4.293244678831947E1  -4.997074267633080E1  -4.290472192257622E1  -4.971848952250009E1  -1.480779292954232E1  -1.768159151700930E2  
 7.500800000000000E9    -1.639333009981928E1   1.763810340243168E2  -4.259050339464164E1  -6.173760623375375E1  -4.257136104804067E1  -6.128520888855876E1  -1.488231327609507E1  -1.771740901719373E2  
 7.501600000000000E9    -1.637002789305870E1   1.761632547209944E2  -4.250017075657632E1  -7.335337491875927E1  -4.241907920147585E1  -7.346322172788923E1  -1.494526484945265E1  -1.772679628142665E2  
 7.502400000000000E9    -1.632183853695009E1   1.761849698551975E2  -4.259582274138365E1  -8.582980498128072E1  -4.253659068978062E1  -8.559331578693815E1  -1.502727321589548E1  -1.772438607149890E2  
 7.503200000000000E9    -1.629321512866296E1   1.759518460794743E2  -4.290589544275273E1  -9.799558929033283E1  -4.287271161944775E1  -9.776927977388654E1  -1.508242689538899E1  -1.769757140726211E2  
 7.504000000000000E9    -1.626627710175189E1   1.756764423308337E2  -4.353911898405053E1  -1.103034148012047E2  -4.347518689632450E1  -1.100961655853437E2  -1.511840115720158E1  -1.766716282403986E2  
 7.504800000000000E9    -1.625150097961276E1   1.754632077488212E2  -4.433545458666583E1  -1.225072183860073E2  -4.428405686153518E1  -1.221850806929664E2  -1.514253278726831E1  -1.763158557753832E2  
 7.505600000000000E9    -1.624079257979160E1   1.750590106781280E2  -4.545930674410781E1  -1.348874151316554E2  -4.539144322780744E1  -1.348700820618330E2  -1.514990381451182E1  -1.760245456959948E2  
 7.506400000000000E9    -1.625928283193727E1   1.747695879754719E2  -4.688083935250122E1  -1.474332281566611E2  -4.674468377859968E1  -1.470372234077859E2  -1.512188010101789E1  -1.756724683828738E2  
 7.507200000000000E9    -1.629019642825212E1   1.744821059196752E2  -4.864500173351073E1  -1.607756817071136E2  -4.853141154081240E1  -1.608173242642606E2  -1.505335023280772E1  -1.754135623088679E2  
 7.508000000000000E9    -1.632065707631842E1   1.744404675917255E2  -5.077770447053858E1  -1.757982004349620E2  -5.076611578672014E1  -1.758167657570915E2  -1.498846798430120E1  -1.754055958632978E2  
 7.508800000000000E9    -1.634378557152823E1   1.742856864180244E2  -5.352729681393825E1   1.637330661013452E2  -5.347561739313202E1   1.649610317069761E2  -1.493474740028600E1  -1.755914842680109E2  
 7.509600000000000E9    -1.638983499340604E1   1.741084303634696E2  -5.667482855631069E1   1.336093133794353E2  -5.655028424928607E1   1.337787617026224E2  -1.488580469583020E1  -1.759584534362667E2  
 7.510400000000000E9    -1.642514338941100E1   1.740178242626737E2  -5.854043346385038E1   8.349425929804822E1  -5.836037232697782E1   8.393703407255300E1  -1.486019148665638E1  -1.763950295488175E2  
 7.511200000000000E9    -1.645170905601589E1   1.740341547462380E2  -5.641528234589147E1   3.960722048344064E1  -5.634022468866976E1   3.962533331979412E1  -1.488061012902265E1  -1.767607804167750E2  
 7.512000000000000E9    -1.648306193383236E1   1.741068640645725E2  -5.355241117630534E1   1.082829480864721E1  -5.354787733517741E1   1.112222645364595E1  -1.491928558685777E1  -1.771002339914568E2  
 7.512800000000000E9    -1.652556154180144E1   1.743035263805686E2  -5.137559496026443E1  -7.525975689997275  -5.131507687640680E1  -7.253469515254690  -1.493338439744333E1  -1.771996766324675E2  
 7.513600000000000E9    -1.654288123501854E1   1.743968810336352E2  -4.981609460608204E1  -2.056878520983066E1  -4.974024677977003E1  -2.035376395690141E1  -1.493561696511543E1  -1.772388644136531E2  
 7.514400000000000E9    -1.656938455330103E1   1.747366151651371E2  -4.841050924500154E1  -3.050391488618260E1  -4.840522878306268E1  -3.043277877305800E1  -1.495436984085174E1  -1.774004103993339E2  
 7.515200000000000E9    -1.657408307060798E1   1.750442808890261E2  -4.730856838338814E1  -3.980851969279139E1  -4.719932738824684E1  -4.022114841418299E1  -1.497706728264628E1  -1.776420967205129E2  
 7.516000000000000E9    -1.656763690959958E1   1.751500749990626E2  -4.630478258319050E1  -4.875156682510217E1  -4.620329535669642E1  -4.940787895480714E1  -1.498420503030824E1  -1.777337277572829E2  
 7.516800000000000E9    -1.655210607415281E1   1.754299394771800E2  -4.551071977978504E1  -5.819463439498742E1  -4.541251315268065E1  -5.881656468790270E1  -1.503523881503228E1  -1.777290864238486E2  
 7.517600000000000E9    -1.653887142461243E1   1.757243253996568E2  -4.486548836427121E1  -6.784057417213930E1  -4.480838446920580E1  -6.812630507553507E1  -1.508339695460086E1  -1.776106012264732E2  
 7.518400000000000E9    -1.649105759134114E1   1.758704711251673E2  -4.455239582554965E1  -7.739770924513972E1  -4.442382193264501E1  -7.760133600623976E1  -1.509169434773092E1  -1.772265353433239E2  
 7.519200000000000E9    -1.644595997897189E1   1.760550525486860E2  -4.437071743402430E1  -8.672810222605469E1  -4.430592108102984E1  -8.697778973273495E1  -1.506952072368081E1  -1.769468358678400E2  
 7.520000000000000E9    -1.639586303446277E1   1.761236321342994E2  -4.436003202366708E1  -9.543044664337529E1  -4.426081733706320E1  -9.553283144835757E1  -1.502159537744524E1  -1.768679829649052E2  
 7.520800000000000E9    -1.631569111467665E1   1.757938116663104E2  -4.451026784010943E1  -1.029929461845514E2  -4.442238070045138E1  -1.032431656090964E2  -1.495147926189720E1  -1.767837897549746E2  
 7.521600000000000E9    -1.629091132895280E1   1.754396538183471E2  -4.481704966918814E1  -1.104180516827872E2  -4.475107273114626E1  -1.107625929381352E2  -1.485911500500971E1  -1.769910172843486E2  
 7.522400000000000E9    -1.627129442067874E1   1.750794052949054E2  -4.517033399352453E1  -1.161276727990605E2  -4.511373945995737E1  -1.166166223418938E2  -1.482398238209260E1  -1.773826324859309E2  
 7.523200000000000E9    -1.627940382237177E1   1.747117980720392E2  -4.549577470019121E1  -1.212551616184644E2  -4.537345052766781E1  -1.214032532929247E2  -1.477948068292743E1  -1.779375358789950E2  
 7.524000000000000E9    -1.630835465529107E1   1.744661362097519E2  -4.564643719665077E1  -1.258238860615723E2  -4.564923216225762E1  -1.263783796475320E2  -1.477420207769458E1  -1.785005786839908E2  
 7.524800000000000E9    -1.633893023332261E1   1.741271591327049E2  -4.573075064011481E1  -1.309646330192776E2  -4.572912133813816E1  -1.313470614422108E2  -1.481896018853966E1  -1.790242340097475E2  
 7.525600000000000E9    -1.637479687469947E1   1.738535155205918E2  -4.590413357725002E1  -1.372687410418144E2  -4.583630285946648E1  -1.374678577148930E2  -1.487740036923003E1  -1.794971216555885E2  
 7.526400000000000E9    -1.643324378507501E1   1.737522247483953E2  -4.622369895432146E1  -1.441023504015978E2  -4.619606148973232E1  -1.446491384836890E2  -1.495075088962429E1  -1.797740979730175E2  
 7.527200000000000E9    -1.649694476156106E1   1.738690534723116E2  -4.667857349406813E1  -1.514516629257193E2  -4.667417732846375E1  -1.517923368376511E2  -1.502626052987886E1  -1.798159512722558E2  
 7.528000000000000E9    -1.651222951566247E1   1.737934448655614E2  -4.730647122113614E1  -1.591541622627531E2  -4.729966607533343E1  -1.597632364950841E2  -1.509141157769535E1  -1.796688057243781E2  
 7.528800000000000E9    -1.656121012164993E1   1.740560973744772E2  -4.822394249208567E1  -1.670370707861451E2  -4.823084721055701E1  -1.674174561802845E2  -1.512174855506038E1  -1.794206369739831E2  
 7.529600000000000E9    -1.659639459177262E1   1.741562242362167E2  -4.944102560080960E1  -1.747633767155674E2  -4.946110572195099E1  -1.747204815026379E2  -1.514979477426689E1  -1.791874205216176E2  
 7.530400000000000E9    -1.662207934291553E1   1.745267215717851E2  -5.105155210675007E1   1.777400923390096E2  -5.098838560448314E1   1.775581235811993E2  -1.512674827895384E1  -1.787459646674931E2  
 7.531200000000000E9    -1.663238940141433E1   1.748208081581064E2  -5.317350912156213E1   1.692524789002598E2  -5.318489101724421E1   1.690754004244383E2  -1.511890167701162E1  -1.784563099292327E2  
 7.532000000000000E9    -1.661419070394814E1   1.749427209006295E2  -5.656996786265646E1   1.589761071817545E2  -5.656283696934573E1   1.596935640048437E2  -1.508503708457847E1  -1.784007963176070E2  
 7.532800000000000E9    -1.659574430974216E1   1.751268157799182E2  -6.299579042647957E1   1.473684683554627E2  -6.289618598179487E1   1.452171869425183E2  -1.502452423240310E1  -1.783714112314276E2  
 7.533600000000000E9    -1.658364831159089E1   1.752428410166242E2  -7.322718195255042E1  -5.518407544142731  -7.302932047374222E1  -1.125757571402639E1  -1.497916582763983E1  -1.785481667206613E2  
 7.534400000000000E9    -1.657312815171035E1   1.753260857632439E2  -5.875336640404917E1  -3.977834027247540E1  -5.897352862391687E1  -3.916096358106021E1  -1.494583442611555E1  -1.785866179180573E2  
 7.535200000000000E9    -1.654424462036939E1   1.753628408896176E2  -5.336189207064096E1  -5.225978592687993E1  -5.332583317002609E1  -5.231227084806724E1  -1.491802514401110E1  -1.789324087445449E2  
 7.536000000000000E9    -1.652275804531771E1   1.752493506227050E2  -4.992031538388012E1  -6.422946084699650E1  -4.986455276659575E1  -6.390482981828556E1  -1.490531865890471E1  -1.791341664042516E2  
 7.536800000000000E9    -1.650180450871540E1   1.752982261864067E2  -4.739790917348253E1  -7.576250970812872E1  -4.735409005406615E1  -7.614863253823118E1  -1.491040229959510E1  -1.795324503411301E2  
 7.537600000000000E9    -1.646202144939955E1   1.752378385881817E2  -4.554091564456810E1  -8.799093541611082E1  -4.553446165435697E1  -8.817553009878903E1  -1.492416601010119E1  -1.798616571194436E2  
 7.538400000000000E9    -1.644875890287265E1   1.750547771359470E2  -4.425900583641590E1  -9.990332182215538E1  -4.422614780633113E1  -1.002237030321871E2  -1.494651172784010E1   1.798069532505741E2  
 7.539200000000000E9    -1.642960497221887E1   1.747335407681353E2  -4.331215166594748E1  -1.121435357991306E2  -4.328356012078511E1  -1.122179648406864E2  -1.499381397868568E1   1.796640274621783E2  
 7.540000000000000E9    -1.640727896591746E1   1.744868864596081E2  -4.266932104426852E1  -1.239022648993574E2  -4.266820618719102E1  -1.240078044995998E2  -1.504593235172493E1   1.795222351504597E2  
 7.540800000000000E9    -1.642589001079806E1   1.743856922728403E2  -4.228836300625909E1  -1.353208784473207E2  -4.230288637178064E1  -1.357027280631237E2  -1.508127300905687E1   1.797160165364604E2  
 7.541600000000000E9    -1.643859141823022E1   1.741185554085053E2  -4.220805067492532E1  -1.463326730965178E2  -4.220550606285165E1  -1.468577956058048E2  -1.507893807456735E1   1.797305067730191E2  
 7.542400000000000E9    -1.646376400195974E1   1.738894311480764E2  -4.235916509735197E1  -1.568898741398828E2  -4.236022141489359E1  -1.572795445145655E2  -1.510826169286055E1   1.798069094106595E2  
 7.543200000000000E9    -1.645112831079841E1   1.737060095530602E2  -4.276525470179516E1  -1.668363089610095E2  -4.271312552106490E1  -1.670443372220923E2  -1.511063987459621E1   1.799239432703996E2  
 7.544000000000000E9    -1.644887786758565E1   1.735068401913147E2  -4.327325495883050E1  -1.752873536293048E2  -4.325258014657128E1  -1.756445273617536E2  -1.511539911916655E1  -1.799959515855956E2  
 7.544800000000000E9    -1.644933656166669E1   1.733258924306637E2  -4.395911358648095E1   1.771275475740089E2  -4.395218475047545E1   1.769625628205388E2  -1.510059583957953E1  -1.799202463852595E2  
 7.545600000000000E9    -1.647493513260867E1   1.731140952032614E2  -4.469483943866986E1   1.709015498161624E2  -4.469066031312627E1   1.706739335578821E2  -1.507104869120583E1   1.799920427322460E2  
 7.546400000000000E9    -1.649923993542519E1   1.729406021461046E2  -4.548199244891705E1   1.657636756139498E2  -4.544780310664240E1   1.651218026984782E2  -1.505096862940050E1   1.799695005916120E2  
 7.547200000000000E9    -1.650466008456095E1   1.725820581771017E2  -4.631292381636533E1   1.609704297474257E2  -4.634674347511086E1   1.606955365645645E2  -1.500075829402296E1   1.797820817522508E2  
 7.548000000000000E9    -1.655197294007823E1   1.724503411963597E2  -4.721448199699494E1   1.572046960617597E2  -4.719589526449573E1   1.569456658328555E2  -1.498831367599572E1   1.794695406820299E2  
 7.548800000000000E9    -1.659260227368620E1   1.723464191220233E2  -4.815202859491073E1   1.544222002396129E2  -4.818441898772705E1   1.541127705411713E2  -1.498849676179989E1   1.790942005831726E2  
 7.549600000000000E9    -1.661924202272859E1   1.721774295741586E2  -4.929281574981538E1   1.533720899090444E2  -4.927659043830484E1   1.531221367435342E2  -1.499833925229327E1   1.786775882080244E2  
 7.550400000000000E9    -1.666042309725587E1   1.720693154170372E2  -5.046765537540407E1   1.544177403074472E2  -5.036310663217875E1   1.540130490121267E2  -1.503696505084402E1   1.782287967991986E2  
 7.551200000000000E9    -1.669497348114698E1   1.720906984642257E2  -5.142493968769753E1   1.577140790147189E2  -5.145317332399760E1   1.576935788736356E2  -1.509119805791711E1   1.779691327805437E2  
 7.552000000000000E9    -1.674647948162370E1   1.722088444832243E2  -5.213350462122764E1   1.639170823272029E2  -5.210034568493298E1   1.630066739107747E2  -1.516609318787334E1   1.775562854260668E2  
 7.552800000000000E9    -1.676369466224639E1   1.723629506067993E2  -5.235949473667537E1   1.713817088517226E2  -5.230928118975502E1   1.710364577662360E2  -1.523843077179294E1   1.776017717233618E2  
 7.553600000000000E9    -1.678314085712793E1   1.726448985085025E2  -5.187720738959078E1   1.782941792463984E2  -5.178040666619665E1   1.783485105577855E2  -1.532880540781745E1   1.777101570926614E2  
 7.554400000000000E9    -1.677501172232915E1   1.728153660100936E2  -5.110124342557199E1  -1.760685316339432E2  -5.111634146883994E1  -1.768860540059361E2  -1.538416578691849E1   1.779133106915152E2  
 7.555200000000000E9    -1.675840603148430E1   1.730248934336568E2  -5.011927998741781E1  -1.740014717625672E2  -5.015616549094838E1  -1.735446553594876E2  -1.540589278171155E1   1.782534581220327E2  
 7.556000000000000E9    -1.672084342250913E1   1.732465937996068E2  -4.914130680547051E1  -1.731633742052106E2  -4.905623656340814E1  -1.737392392404052E2  -1.543571842620083E1   1.785943533193897E2  
 7.556800000000000E9    -1.666953651440110E1   1.732275442355085E2  -4.794117486329293E1  -1.738227235861781E2  -4.793106853871696E1  -1.742558836980989E2  -1.544709777501395E1   1.789101171456558E2  
 7.557600000000000E9    -1.665390701815325E1   1.730785143816541E2  -4.677106424501726E1  -1.774413209408223E2  -4.674126110534464E1  -1.771559156687372E2  -1.542429555952479E1   1.792124217470047E2  
 7.558400000000000E9    -1.660424147124854E1   1.728958224041858E2  -4.578726115213471E1   1.781697582150911E2  -4.577071428443097E1   1.777356211866516E2  -1.537703704593719E1   1.794519781409001E2  
 7.559200000000000E9    -1.656892810729917E1   1.728559480262850E2  -4.489139235047559E1   1.712218425986438E2  -4.483043577542738E1   1.714207049010256E2  -1.531840922309783E1   1.795941980684947E2  
 7.560000000000000E9    -1.653793270198461E1   1.724617762312656E2  -4.415391746096342E1   1.638295033678004E2  -4.413107181560896E1   1.636308648543815E2  -1.525684864047262E1   1.793524851486428E2  
 7.560800000000000E9    -1.652726413722493E1   1.722524912023517E2  -4.369767886945807E1   1.548933045879094E2  -4.364110165603127E1   1.548047241627251E2  -1.520287716486150E1   1.792163118748252E2  
 7.561600000000000E9    -1.652723144972773E1   1.718582580828324E2  -4.351136639602555E1   1.454039868801884E2  -4.350062348721394E1   1.454573725927186E2  -1.516527857058178E1   1.786844527202277E2  
 7.562400000000000E9    -1.651691581779471E1   1.716443073888012E2  -4.362018889690928E1   1.361607790174800E2  -4.362127285972556E1   1.358774280956130E2  -1.517711697190048E1   1.781258992785837E2  
 7.563200000000000E9    -1.653588786401484E1   1.714394584265714E2  -4.405303845163490E1   1.277884277711362E2  -4.399131889956015E1   1.276393654471303E2  -1.518773270976414E1   1.775347865502390E2  
 7.564000000000000E9    -1.655168624357273E1   1.712638949124890E2  -4.454337167832639E1   1.208095604536042E2  -4.451319140823933E1   1.205293061218837E2  -1.524197124763055E1   1.769247031302927E2  
 7.564800000000000E9    -1.656636018432039E1   1.711406248057518E2  -4.507758030652899E1   1.149295837453425E2  -4.505577380662923E1   1.146945746685196E2  -1.530157283460508E1   1.766183365908040E2  
 7.565600000000000E9    -1.657955628030343E1   1.711483637488533E2  -4.567185060969337E1   1.090055285321704E2  -4.557802342056785E1   1.092534749843590E2  -1.537609337805797E1   1.764675915778513E2  
 7.566400000000000E9    -1.656085954646899E1   1.711434929565898E2  -4.633080254927911E1   1.036709177772398E2  -4.630300175455287E1   1.033691656058138E2  -1.546347780047135E1   1.764838215873533E2  
 7.567200000000000E9    -1.654177415630295E1   1.709682564055300E2  -4.708854766632098E1   9.901880564923013E1  -4.701837011005780E1   9.863387881518104E1  -1.554277353493426E1   1.766495890480299E2  
 7.568000000000000E9    -1.650085379654171E1   1.710023530524369E2  -4.792549586764568E1   9.538786446478750E1  -4.788778208927351E1   9.522839438302943E1  -1.557364692417461E1   1.769550087068366E2  
 7.568800000000000E9    -1.648044127781185E1   1.707386527223657E2  -4.857699305377550E1   9.247174657980538E1  -4.844443555051427E1   9.223930640163820E1  -1.557830419949612E1   1.771782025197685E2  
 7.569600000000000E9    -1.646564431637261E1   1.706421360634451E2  -4.919121046760945E1   8.814729542192237E1  -4.914962005953944E1   8.798355978513169E1  -1.557995209785833E1   1.773328289669824E2  
 7.570400000000000E9    -1.645425836170083E1   1.703223654969694E2  -4.996811753488348E1   8.228489436275432E1  -4.996879008841885E1   8.279750916684220E1  -1.555727254215621E1   1.774068982644760E2  
 7.571200000000000E9    -1.645035847719386E1   1.700493020002375E2  -5.114704148583841E1   7.582090524442057E1  -5.120016432250898E1   7.516851843994040E1  -1.552495544154262E1   1.772556147952581E2  
 7.572000000000000E9    -1.647581729086064E1   1.697915276586847E2  -5.313307092795911E1   6.798731793204466E1  -5.312754972439365E1   6.794032028819429E1  -1.551490547317822E1   1.771601555998641E2  
 7.572800000000000E9    -1.648101109959098E1   1.695307725527444E2  -5.601977377182045E1   6.043146443660672E1  -5.615744517855342E1   5.964089492588538E1  -1.549980602749754E1   1.768175855259912E2  
 7.573600000000000E9    -1.651348343818623E1   1.693971437847445E2  -6.164816689074321E1   4.935574455374831E1  -6.156567252466584E1   5.119886257077791E1  -1.551994846752020E1   1.764722713473386E2  
 7.574400000000000E9    -1.652583759537243E1   1.691983060927238E2  -8.651209571055996E1  -8.853027196370803E1  -8.205592471620463E1  -9.805197205009122E1  -1.555247863159269E1   1.761624771719708E2  
 7.575200000000000E9    -1.653585624843294E1   1.689839553832697E2  -5.943095768586628E1  -1.445591894386800E2  -5.960667551948193E1  -1.438463610056904E2  -1.557839665843177E1   1.758350288889261E2  
 7.576000000000000E9    -1.655888058672943E1   1.688238969429313E2  -5.337419727400592E1  -1.567657436555807E2  -5.339333981244253E1  -1.564259362676629E2  -1.565362554693943E1   1.755464525831228E2  
 7.576800000000000E9    -1.659622541389494E1   1.689269528598136E2  -4.985784581047517E1  -1.680856432282865E2  -4.982626786422163E1  -1.681988694172205E2  -1.572187942002081E1   1.754349039346645E2  
 7.577600000000000E9    -1.662388694197599E1   1.689229113107857E2  -4.740449956562227E1  -1.792019713212878E2  -4.740877443199286E1  -1.797103044764813E2  -1.578596785224168E1   1.755729992401217E2  
