#  HZ   S   DB   R     50.00 
! Rohde & Schwarz ZVA40 2Ports - Version 4.11 - 1145.1110k40 SN: 100216
! Date: 2025-04-29 18:34:55
! Measurements: S11 S21 S12 S22 
! 
 7.500000000000000E9    -1.490509587137451E1  -1.748697095468572E2  -3.995513230533572E1  -1.212630212173136E2  -3.994230119936275E1  -1.207181758416380E2  -1.561626022466121E1   1.751672593388810E2  
 7.500800000000000E9    -1.489413659607959E1  -1.754633230683781E2  -4.035927816633196E1  -1.333030475715058E2  -4.031096797805787E1  -1.327263510870887E2  -1.566966723045540E1   1.744281352648653E2  
 7.501600000000000E9    -1.489829129011449E1  -1.757776819158304E2  -4.094206978243390E1  -1.453987022292480E2  -4.093727707936773E1  -1.448859340873684E2  -1.572195806277171E1   1.737581810320415E2  
 7.502400000000000E9    -1.494158429328582E1  -1.761575000577601E2  -4.176894865138263E1  -1.581693057714618E2  -4.177691983513848E1  -1.575759847336417E2  -1.579784718378408E1   1.733213423153699E2  
 7.503200000000000E9    -1.500305527106792E1  -1.765315370691812E2  -4.290044519871213E1  -1.716754370284649E2  -4.284190735910483E1  -1.713371362544646E2  -1.588668056939162E1   1.729866357951438E2  
 7.504000000000000E9    -1.506598758399181E1  -1.768393032516601E2  -4.431129885850859E1   1.730837559142646E2  -4.427785253817675E1   1.742606679065637E2  -1.596515938529561E1   1.726999438595615E2  
 7.504800000000000E9    -1.516678552773407E1  -1.766518134006830E2  -4.622294558071071E1   1.560811635094259E2  -4.618048517295730E1   1.563652994784870E2  -1.605943458380642E1   1.726489665376255E2  
 7.505600000000000E9    -1.523162870414731E1  -1.765234725083473E2  -4.860666940669015E1   1.335598218867461E2  -4.858302641795170E1   1.344522694348728E2  -1.614335250421928E1   1.727748151700966E2  
 7.506400000000000E9    -1.531698298556670E1  -1.760660566925419E2  -5.158665874483641E1   1.008679206801717E2  -5.154293978803805E1   1.028528644447077E2  -1.622281702424104E1   1.729473277266814E2  
 7.507200000000000E9    -1.534936377600866E1  -1.755186940097962E2  -5.313804573306409E1   5.290393856871803E1  -5.304637862518071E1   5.347182794162787E1  -1.628832881800555E1   1.733710599714566E2  
 7.508000000000000E9    -1.536348943188652E1  -1.748418449894148E2  -5.145281385974792E1   6.512586307096156  -5.133340566188824E1   7.870692242206246  -1.631557852893705E1   1.737982379647977E2  
 7.508800000000000E9    -1.531140173566806E1  -1.743439328605506E2  -4.890320667394310E1  -2.365826043279672E1  -4.878432322752234E1  -2.258748195709963E1  -1.631755582285929E1   1.743360533152243E2  
 7.509600000000000E9    -1.523243707500964E1  -1.738397615093850E2  -4.673024800315064E1  -4.536849231438497E1  -4.662476513914914E1  -4.494840631502502E1  -1.628587538816895E1   1.746104530461302E2  
 7.510400000000000E9    -1.514459087131837E1  -1.736577840868650E2  -4.521269570702890E1  -6.274908045661432E1  -4.517999470580897E1  -6.224898817319951E1  -1.626042828366885E1   1.748677260999392E2  
 7.511200000000000E9    -1.505717126464131E1  -1.737542967331671E2  -4.420668241431423E1  -7.747657407460112E1  -4.413842351913622E1  -7.701554431825811E1  -1.619670572214288E1   1.750096724515318E2  
 7.512000000000000E9    -1.498392285183586E1  -1.740539924251687E2  -4.359043939358553E1  -9.094465053347430E1  -4.355629913665422E1  -9.067015651321508E1  -1.611863393737576E1   1.750071541257657E2  
 7.512800000000000E9    -1.492779045514106E1  -1.744865991410319E2  -4.337849213450706E1  -1.031174145607613E2  -4.332102807978305E1  -1.027606385205436E2  -1.606573653881052E1   1.746855098051285E2  
 7.513600000000000E9    -1.491041555283735E1  -1.750243519670621E2  -4.344940314995846E1  -1.136505601481032E2  -4.339068966549242E1  -1.130117969990646E2  -1.602955217947953E1   1.741920670601608E2  
 7.514400000000000E9    -1.490495257990366E1  -1.754101519291383E2  -4.375475939919868E1  -1.226961721657227E2  -4.364874729985727E1  -1.221306732364330E2  -1.601244515238527E1   1.735269492232983E2  
 7.515200000000000E9    -1.492962961387651E1  -1.760133807022916E2  -4.411272750970981E1  -1.297859710043344E2  -4.408932122226189E1  -1.295630148565388E2  -1.605251954865409E1   1.729592264110941E2  
 7.516000000000000E9    -1.498402095784927E1  -1.762374800097334E2  -4.463945885747827E1  -1.359882573033764E2  -4.457385846718388E1  -1.356032094091921E2  -1.610830621302253E1   1.725533293761342E2  
 7.516800000000000E9    -1.504179081301569E1  -1.765165492659518E2  -4.519898070949556E1  -1.410836140527554E2  -4.510610625347341E1  -1.405541586039907E2  -1.617315224605632E1   1.722301309682191E2  
 7.517600000000000E9    -1.508996784876926E1  -1.764900306173597E2  -4.581970492574941E1  -1.443136699000235E2  -4.579750249504277E1  -1.438773112982788E2  -1.627815665470229E1   1.721117159071418E2  
 7.518400000000000E9    -1.512295669311638E1  -1.762357442713939E2  -4.660046646630874E1  -1.452913014114464E2  -4.647043892699977E1  -1.450647322143122E2  -1.635307831277790E1   1.720382809803291E2  
 7.519200000000000E9    -1.515464726893993E1  -1.760999508091410E2  -4.707299433114232E1  -1.440070114814234E2  -4.701344054023605E1  -1.434159774760318E2  -1.643703536753059E1   1.722812761915428E2  
 7.520000000000000E9    -1.514975315165899E1  -1.759137136402035E2  -4.715050920884659E1  -1.405480789468126E2  -4.710815788136508E1  -1.400489138089375E2  -1.650032820848431E1   1.726393211149040E2  
 7.520800000000000E9    -1.515013897855275E1  -1.756662985830641E2  -4.656889395920953E1  -1.377832537087674E2  -4.650884393616995E1  -1.377448024986988E2  -1.652471747963174E1   1.731091106441768E2  
 7.521600000000000E9    -1.510251153282249E1  -1.756565501279030E2  -4.565146958202622E1  -1.376953050954884E2  -4.558803112919156E1  -1.371531447724756E2  -1.649458567703291E1   1.735611971379360E2  
 7.522400000000000E9    -1.508441385039629E1  -1.757195960252618E2  -4.461048933879745E1  -1.408917982085220E2  -4.462469917922630E1  -1.406492380102723E2  -1.645831954815765E1   1.738114892480757E2  
 7.523200000000000E9    -1.506458307222397E1  -1.759875733933893E2  -4.375062141183706E1  -1.463221016848854E2  -4.369115529141706E1  -1.460039384703217E2  -1.640623240883320E1   1.739455439362718E2  
 7.524000000000000E9    -1.503374526131526E1  -1.763391858161330E2  -4.304034959275730E1  -1.537910094420531E2  -4.301265187415417E1  -1.535585655301917E2  -1.633027554832111E1   1.738676455194312E2  
 7.524800000000000E9    -1.503467609206496E1  -1.766937410888135E2  -4.253135900402297E1  -1.625470907290858E2  -4.250784158133732E1  -1.625195905224485E2  -1.629045067611181E1   1.734830441620874E2  
 7.525600000000000E9    -1.507141507440332E1  -1.770372417734810E2  -4.230686416227429E1  -1.720127501922573E2  -4.229189135541888E1  -1.720535766062190E2  -1.627448230376645E1   1.730432809561346E2  
 7.526400000000000E9    -1.513043113308694E1  -1.773034518660165E2  -4.235626018550128E1   1.775129537549842E2  -4.235582914567868E1   1.776964232213585E2  -1.629235248024271E1   1.726895266340566E2  
 7.527200000000000E9    -1.520790596902406E1  -1.772345005264771E2  -4.265579314103839E1   1.665191455305127E2  -4.264805510013589E1   1.668201832054010E2  -1.632407617787880E1   1.722039469263887E2  
 7.528000000000000E9    -1.529390447519871E1  -1.771647340481152E2  -4.326274625363217E1   1.559520164534391E2  -4.326998538319987E1   1.558669297811241E2  -1.638365175837706E1   1.719702960465679E2  
 7.528800000000000E9    -1.533065761574007E1  -1.768314587376432E2  -4.412621985845340E1   1.447904780915707E2  -4.412928585918784E1   1.446155483431359E2  -1.641820514036096E1   1.718523280765203E2  
 7.529600000000000E9    -1.536789437892884E1  -1.762737224602753E2  -4.550455585095914E1   1.333070713357091E2  -4.547008306084334E1   1.331411086370078E2  -1.649045227696663E1   1.716209298268190E2  
 7.530400000000000E9    -1.536061260535460E1  -1.758558323534624E2  -4.737358207460402E1   1.215101478606308E2  -4.738118475516025E1   1.214479540419944E2  -1.653510934749633E1   1.717638121664297E2  
 7.531200000000000E9    -1.532892029199680E1  -1.753390722378383E2  -5.018116343308405E1   1.084132785772432E2  -5.017640315287085E1   1.081175102589001E2  -1.660122012421177E1   1.717747036439947E2  
 7.532000000000000E9    -1.527700167672900E1  -1.751432917336809E2  -5.503220383393027E1   9.262898933236032E1  -5.503379897325460E1   9.368241646759739E1  -1.665470972443091E1   1.721157173815715E2  
 7.532800000000000E9    -1.521044321552650E1  -1.747743663766818E2  -6.865808144852058E1   5.756702786930747E1  -6.836833679747798E1   5.480988363187036E1  -1.664786753128042E1   1.724496672240275E2  
 7.533600000000000E9    -1.513068386916017E1  -1.746770784879382E2  -5.896323919433270E1  -9.671739735618257E1  -5.888318007848211E1  -9.714474478984326E1  -1.663296854449704E1   1.727785456102319E2  
 7.534400000000000E9    -1.506047663623277E1  -1.748346421632142E2  -5.184507335916245E1  -1.147350774594857E2  -5.191013341548554E1  -1.149733471025342E2  -1.658364326450399E1   1.729060333956880E2  
 7.535200000000000E9    -1.498979937425054E1  -1.749481008702841E2  -4.819055739798856E1  -1.286278455206210E2  -4.818016569538091E1  -1.285451361709055E2  -1.654485658145854E1   1.728257615978316E2  
 7.536000000000000E9    -1.490371173191340E1  -1.753201770921843E2  -4.589988499296553E1  -1.417541677123213E2  -4.590429167338433E1  -1.415728579052358E2  -1.650227254199494E1   1.726297414520909E2  
 7.536800000000000E9    -1.486145038682911E1  -1.759399142070787E2  -4.430187083273286E1  -1.544395493659550E2  -4.430535356134382E1  -1.544198820414804E2  -1.647780446939862E1   1.722981369249455E2  
 7.537600000000000E9    -1.482639589203273E1  -1.764514034658238E2  -4.320939230222309E1  -1.670183233670627E2  -4.323087381881695E1  -1.669612908887213E2  -1.649707633000644E1   1.718036085462116E2  
 7.538400000000000E9    -1.482578840882164E1  -1.770553200365170E2  -4.253883218824200E1  -1.796400465441544E2  -4.253036965823321E1  -1.793225443993327E2  -1.651220774509277E1   1.714767792561297E2  
 7.539200000000000E9    -1.483754360348833E1  -1.776199869655719E2  -4.212618867647919E1   1.676140525729474E2  -4.211321643105416E1   1.678903027889481E2  -1.656946137399189E1   1.710892576828487E2  
 7.540000000000000E9    -1.487628858822925E1  -1.781545513881877E2  -4.200632504466341E1   1.547412744096628E2  -4.203332327340625E1   1.550546286727974E2  -1.662009248470716E1   1.709639119320075E2  
 7.540800000000000E9    -1.495535870209240E1  -1.785985497330771E2  -4.224832794851503E1   1.415809421390144E2  -4.224883178164044E1   1.419744901235104E2  -1.668902071445432E1   1.708510593741484E2  
 7.541600000000000E9    -1.502306301505315E1  -1.789347336613984E2  -4.283974217160021E1   1.287025133240230E2  -4.284847059654062E1   1.288609506591591E2  -1.673437539516986E1   1.709785713250241E2  
 7.542400000000000E9    -1.511306802229949E1  -1.789719974710744E2  -4.391054681505986E1   1.158529801331611E2  -4.388703083685818E1   1.159797147909696E2  -1.678655518694866E1   1.712348856140548E2  
 7.543200000000000E9    -1.517923625092285E1  -1.787448442355268E2  -4.542518141492381E1   1.029307558239561E2  -4.541159174390939E1   1.036142752516994E2  -1.680312406586132E1   1.715359321062952E2  
 7.544000000000000E9    -1.523318827487676E1  -1.785063528775628E2  -4.757353696830413E1   9.047519578241915E1  -4.762472212395688E1   9.099534411499906E1  -1.683764058648625E1   1.718168868732217E2  
 7.544800000000000E9    -1.525350906530689E1  -1.781720240619783E2  -5.100463161578355E1   7.791274860563145E1  -5.097190957610822E1   7.870083404448310E1  -1.682578558814852E1   1.720761541077735E2  
 7.545600000000000E9    -1.525520566081110E1  -1.777811337794446E2  -5.689838649428059E1   6.699115280878927E1  -5.687103996885992E1   6.682045859910208E1  -1.678352690947831E1   1.722796699919592E2  
 7.546400000000000E9    -1.522863323343410E1  -1.776063010931152E2  -1.053247217478989E2   1.071688891381439E2  -8.787199160008053E1  -1.642259502859344E2  -1.671120057902083E1   1.723288390727407E2  
 7.547200000000000E9    -1.519073150591911E1  -1.774592263178948E2  -5.674204954293682E1  -1.346727752481987E2  -5.706272436476326E1  -1.351323155285489E2  -1.667058636794814E1   1.721082530061846E2  
 7.548000000000000E9    -1.514420837767215E1  -1.774065319863090E2  -5.071897254838297E1  -1.465609041105890E2  -5.071387964806793E1  -1.467900219776193E2  -1.662431841069065E1   1.717155416619182E2  
 7.548800000000000E9    -1.509075084916153E1  -1.775131248238936E2  -4.719133000721769E1  -1.594812777607957E2  -4.726384672062677E1  -1.591064902879288E2  -1.660725071947560E1   1.712735368152668E2  
 7.549600000000000E9    -1.504507443136800E1  -1.778203901956975E2  -4.487996754268218E1  -1.725514709980682E2  -4.488128159631867E1  -1.721419837081477E2  -1.661022639067383E1   1.706874806089141E2  
 7.550400000000000E9    -1.502979512270298E1  -1.782777085737347E2  -4.329811693857455E1   1.747659978341606E2  -4.329550362691789E1   1.751415509897037E2  -1.664696508605397E1   1.702430183770008E2  
 7.551200000000000E9    -1.503160017351007E1  -1.788102403078169E2  -4.219437402475523E1   1.620618725292431E2  -4.218809927006426E1   1.624842077872710E2  -1.668098453508232E1   1.698472297381059E2  
 7.552000000000000E9    -1.507570677226720E1  -1.792084061475898E2  -4.155098289611387E1   1.497091848204817E2  -4.148799243612871E1   1.500518335239236E2  -1.674790862619254E1   1.693892396743254E2  
 7.552800000000000E9    -1.514490308022672E1  -1.794891886789829E2  -4.114174839631779E1   1.376146952656679E2  -4.116043750054839E1   1.379113592580432E2  -1.682780020793982E1   1.690602548980944E2  
 7.553600000000000E9    -1.520794645323983E1  -1.795261550225840E2  -4.104256327885363E1   1.261854224548393E2  -4.103806406784972E1   1.265697808601252E2  -1.693056017479781E1   1.687620991289864E2  
 7.554400000000000E9    -1.524837528576054E1  -1.792122938806311E2  -4.115278259272546E1   1.151347216626980E2  -4.111801850856468E1   1.154642938056260E2  -1.705113177938805E1   1.688965270119669E2  
 7.555200000000000E9    -1.527703710477717E1  -1.790349077676420E2  -4.143375419730822E1   1.044722586639531E2  -4.141882210027254E1   1.049857886715475E2  -1.716331398121245E1   1.689263278206330E2  
 7.556000000000000E9    -1.530059450514629E1  -1.787409985956481E2  -4.194850390352746E1   9.396625306475646E1  -4.192712727349484E1   9.442167842376219E1  -1.727019923049456E1   1.696161052257960E2  
 7.556800000000000E9    -1.528826026277360E1  -1.784620561159668E2  -4.267980785266601E1   8.337757708309177E1  -4.267086278901279E1   8.384042042282806E1  -1.732686755157254E1   1.703051193142246E2  
 7.557600000000000E9    -1.525828891921321E1  -1.782260518832161E2  -4.376414936535294E1   7.367609835688216E1  -4.375206108497439E1   7.404048332847165E1  -1.735448433657385E1   1.710436767071794E2  
 7.558400000000000E9    -1.522152252022887E1  -1.779829097202401E2  -4.524787893665069E1   6.444832029403415E1  -4.520786067722053E1   6.487070995101691E1  -1.732783960646424E1   1.718128245780418E2  
 7.559200000000000E9    -1.515668595227425E1  -1.779119581801357E2  -4.734600159097116E1   5.760671898212372E1  -4.728120012231490E1   5.781565828768319E1  -1.727445026141476E1   1.723588373226155E2  
 7.560000000000000E9    -1.508466020783663E1  -1.780580164845285E2  -5.012579014575213E1   5.522899843409553E1  -5.004830169013452E1   5.553645721260113E1  -1.718489581484733E1   1.727645489851019E2  
 7.560800000000000E9    -1.499571335356007E1  -1.783384512203392E2  -5.338539666110786E1   6.370566545604984E1  -5.337614339713053E1   6.451362896055890E1  -1.710319344152845E1   1.729167060223971E2  
 7.561600000000000E9    -1.494655192638914E1  -1.786880729389252E2  -5.527949769525416E1   9.029330286740122E1  -5.520730807937175E1   9.026376724142942E1  -1.699533380306037E1   1.727971116595748E2  
 7.562400000000000E9    -1.490950141305539E1  -1.793264970671210E2  -5.317628445569105E1   1.117906415407189E2  -5.316864282541165E1   1.129903125053721E2  -1.695602869523565E1   1.725285301046774E2  
 7.563200000000000E9    -1.491034907671554E1  -1.798612821781711E2  -5.056460002655813E1   1.177480819068891E2  -5.052741134509778E1   1.175930799205356E2  -1.690077157757144E1   1.720580166836241E2  
 7.564000000000000E9    -1.493378391041821E1   1.796095334028700E2  -4.856969524005672E1   1.150713244579532E2  -4.855972157082206E1   1.153329868321608E2  -1.688569257616993E1   1.716259461476731E2  
 7.564800000000000E9    -1.498948948582485E1   1.792918487602717E2  -4.721537655465479E1   1.097284795164216E2  -4.715378777352173E1   1.100876336138606E2  -1.689316081439558E1   1.712284667083803E2  
 7.565600000000000E9    -1.504274617752351E1   1.790231182328785E2  -4.609614132319423E1   1.019679325276300E2  -4.615376532568551E1   1.026739647871014E2  -1.689923134510283E1   1.709409592591209E2  
 7.566400000000000E9    -1.510600450243429E1   1.787732385316271E2  -4.547752533668763E1   9.319483767512739E1  -4.545654492353291E1   9.342065436387659E1  -1.693071720924788E1   1.705807280633521E2  
 7.567200000000000E9    -1.513021284236844E1   1.786432899218559E2  -4.515892388401775E1   8.313764059192114E1  -4.517426546469074E1   8.342286314489657E1  -1.699254582379383E1   1.704158816495352E2  
 7.568000000000000E9    -1.518009078880436E1   1.788437951292335E2  -4.533650615976823E1   7.266459123422840E1  -4.537562821851641E1   7.306159702220258E1  -1.703139305628347E1   1.703290039058061E2  
 7.568800000000000E9    -1.517858149670261E1   1.790188295126031E2  -4.600740517704376E1   6.251963938866042E1  -4.593938948145960E1   6.269185295017849E1  -1.707581080231562E1   1.703865064228372E2  
 7.569600000000000E9    -1.517840541976898E1   1.790148416044756E2  -4.714379488201649E1   5.305998926110557E1  -4.710711771983031E1   5.330090474688396E1  -1.709998527507459E1   1.706543403506013E2  
 7.570400000000000E9    -1.516156981342649E1   1.789215747677384E2  -4.897852758895280E1   4.492621592805607E1  -4.893208128821775E1   4.510550920708105E1  -1.711165839482155E1   1.709592363869090E2  
 7.571200000000000E9    -1.514793098473119E1   1.788262331561164E2  -5.170663443958419E1   4.014019935998858E1  -5.166362806643161E1   4.079360023548687E1  -1.708157399072088E1   1.712705076828077E2  
 7.572000000000000E9    -1.513295016952093E1   1.785369518246947E2  -5.595531700180826E1   4.596044558306260E1  -5.594966072086466E1   4.664692336374470E1  -1.702943817163872E1   1.713438875115031E2  
 7.572800000000000E9    -1.513482377880308E1   1.784088708991841E2  -5.945202642802605E1   8.996154456250851E1  -5.910494747513262E1   8.918528026404711E1  -1.698653840596931E1   1.713527925844202E2  
 7.573600000000000E9    -1.513752373840407E1   1.781222458244100E2  -5.446119332979432E1   1.256050738239178E2  -5.450917011407524E1   1.261090145365342E2  -1.693641659423385E1   1.710148079426828E2  
 7.574400000000000E9    -1.514406859319130E1   1.778997279834704E2  -4.984399834442215E1   1.287900642275990E2  -4.987362101060919E1   1.285978472142226E2  -1.691556154125544E1   1.706782538242292E2  
 7.575200000000000E9    -1.517414975146438E1   1.774665561537263E2  -4.681259889646400E1   1.220085104466493E2  -4.680246041008012E1   1.221362621957061E2  -1.690709434434078E1   1.701635780179031E2  
 7.576000000000000E9    -1.520525515520539E1   1.773201587936589E2  -4.467416690772431E1   1.122697556317999E2  -4.472591065932641E1   1.122368119738491E2  -1.692424874129290E1   1.697208287348729E2  
 7.576800000000000E9    -1.526650220678835E1   1.770493661445191E2  -4.320386634161151E1   1.017020307839508E2  -4.324297018821152E1   1.018505208285444E2  -1.695810593055543E1   1.694583218777396E2  
 7.577600000000000E9    -1.535329478840931E1   1.770353703376203E2  -4.207718531232248E1   9.047767259748235E1  -4.209560248630413E1   9.101712676429546E1  -1.702716972111297E1   1.691102503488069E2  
