#  HZ   S   DB   R     50.00 
! Rohde & Schwarz ZVA40 2Ports - Version 4.11 - 1145.1110k40 SN: 100216
! Date: 2025-04-29 18:28:52
! Measurements: S11 S21 S12 S22 
! 
 7.500000000000000E9    -1.493563999553693E1  -1.749670652514232E2  -4.031422214412608E1  -1.254649108203643E2  -4.031278111268681E1  -1.248064929372102E2  -1.577767649264225E1   1.749764430058706E2  
 7.500800000000000E9    -1.491674993705075E1  -1.755218900256390E2  -4.049808206988153E1  -1.378394419479881E2  -4.047424781060756E1  -1.374934651944487E2  -1.580969524980779E1   1.742167410915029E2  
 7.501600000000000E9    -1.492190045833249E1  -1.759055008524871E2  -4.085805820893677E1  -1.501269040042019E2  -4.084585267261920E1  -1.495011586711714E2  -1.586130820358494E1   1.735083127596655E2  
 7.502400000000000E9    -1.496545635493040E1  -1.762022513820669E2  -4.141864618239553E1  -1.628945774448079E2  -4.140074767369513E1  -1.626333331336559E2  -1.592146418139642E1   1.730777728355034E2  
 7.503200000000000E9    -1.502235931580334E1  -1.765587898208885E2  -4.222251660569277E1  -1.763200671516578E2  -4.220793008802571E1  -1.757811887563356E2  -1.601024053207009E1   1.727732700493008E2  
 7.504000000000000E9    -1.509303112415530E1  -1.769679975582077E2  -4.328034301451396E1   1.691362565018131E2  -4.323015468357124E1   1.696925538844437E2  -1.610287524634789E1   1.724374851300054E2  
 7.504800000000000E9    -1.518529378484427E1  -1.768496594210209E2  -4.462567918924800E1   1.531771056997536E2  -4.455796493751733E1   1.539643212918388E2  -1.620058896028137E1   1.723553738420838E2  
 7.505600000000000E9    -1.525678727122516E1  -1.767669376281583E2  -4.636669969043133E1   1.348523511889563E2  -4.630492753722738E1   1.349562892851305E2  -1.629088138311907E1   1.724694819399963E2  
 7.506400000000000E9    -1.533119446339828E1  -1.764134065656456E2  -4.859665841867390E1   1.110265824613642E2  -4.853942765831383E1   1.117989434292196E2  -1.636414037889907E1   1.726326986391408E2  
 7.507200000000000E9    -1.537712038066827E1  -1.757435414181597E2  -5.105062930594463E1   7.987605798159491E1  -5.091440311752034E1   7.996869115817103E1  -1.644047335058379E1   1.731532851799237E2  
 7.508000000000000E9    -1.540123526168340E1  -1.751560744533919E2  -5.235044134416445E1   3.684162261311642E1  -5.228589896053533E1   3.693947437983007E1  -1.647199331931613E1   1.735540256522195E2  
 7.508800000000000E9    -1.533886529354250E1  -1.746525866310910E2  -5.122581879143054E1  -5.204098928985625  -5.121549337423715E1  -4.353059287113838  -1.646981766344194E1   1.740372091785751E2  
 7.509600000000000E9    -1.527223970865171E1  -1.742317413782454E2  -4.925489133976474E1  -3.598508933022463E1  -4.913495011333762E1  -3.581842502511743E1  -1.644376733465493E1   1.744613805115166E2  
 7.510400000000000E9    -1.518439336648695E1  -1.740933557687991E2  -4.745210955872400E1  -5.870588385781299E1  -4.736823452474637E1  -5.841612585399704E1  -1.641416600068026E1   1.746967368118219E2  
 7.511200000000000E9    -1.508919352235992E1  -1.741393272780112E2  -4.610389764186790E1  -7.675548810086117E1  -4.605751499505639E1  -7.666536663696765E1  -1.634688155760158E1   1.748954560190473E2  
 7.512000000000000E9    -1.503238337328649E1  -1.745141052679158E2  -4.528610618445888E1  -9.271840079202097E1  -4.521278253997731E1  -9.160772668662538E1  -1.627998944602947E1   1.749189318733544E2  
 7.512800000000000E9    -1.498239378136267E1  -1.747131837213520E2  -4.479869847753189E1  -1.060367392368877E2  -4.478761941131207E1  -1.057694446833957E2  -1.621491315793969E1   1.746551770677025E2  
 7.513600000000000E9    -1.495956077840746E1  -1.752938621693875E2  -4.477087993972321E1  -1.178546880891026E2  -4.464940063973724E1  -1.180356381298939E2  -1.617574811549344E1   1.741493326217598E2  
 7.514400000000000E9    -1.497693701644558E1  -1.757271151479474E2  -4.491472432729438E1  -1.276985413845773E2  -4.478982625214610E1  -1.274822165594597E2  -1.617128982646532E1   1.735221583589772E2  
 7.515200000000000E9    -1.499554747332468E1  -1.762018981645628E2  -4.523598861690883E1  -1.360559528548134E2  -4.514004864816219E1  -1.360265964797665E2  -1.620925060776795E1   1.730530765381036E2  
 7.516000000000000E9    -1.503964716858450E1  -1.765587939771866E2  -4.565895210714035E1  -1.428194975913016E2  -4.550985191774483E1  -1.428167225557396E2  -1.626364337060576E1   1.727015913732764E2  
 7.516800000000000E9    -1.509207456452415E1  -1.766880403903058E2  -4.617503020053098E1  -1.493017264918034E2  -4.613163246741709E1  -1.486215076067935E2  -1.633620463582926E1   1.722949813477764E2  
 7.517600000000000E9    -1.514541012483498E1  -1.767899071608334E2  -4.685987113493731E1  -1.536282329729725E2  -4.685041669489608E1  -1.531827197235091E2  -1.641557656361102E1   1.722314726565203E2  
 7.518400000000000E9    -1.519077540879340E1  -1.765652771150352E2  -4.769101614949607E1  -1.560699253726906E2  -4.761276605422861E1  -1.555234734976293E2  -1.648988832102810E1   1.722494227966341E2  
 7.519200000000000E9    -1.521031981818071E1  -1.763779878182035E2  -4.859777927345311E1  -1.543738106920795E2  -4.839313783628636E1  -1.536854294791489E2  -1.658156197521034E1   1.724623796414863E2  
 7.520000000000000E9    -1.520661328910573E1  -1.761692789859353E2  -4.878751336361421E1  -1.486963257559024E2  -4.870894816651688E1  -1.486978840677210E2  -1.664586961015120E1   1.729003741483722E2  
 7.520800000000000E9    -1.519426450571474E1  -1.759348586887364E2  -4.820114054754578E1  -1.436586132676480E2  -4.819521434677585E1  -1.438468188729454E2  -1.666593150243948E1   1.733721479810570E2  
 7.521600000000000E9    -1.515986799541982E1  -1.759198204006802E2  -4.713873347230757E1  -1.423995096265347E2  -4.707886215953015E1  -1.419337876213959E2  -1.662882670559373E1   1.738813302122771E2  
 7.522400000000000E9    -1.513143451129669E1  -1.759212089465293E2  -4.591879960701215E1  -1.444311750023802E2  -4.585606978877303E1  -1.442067627097027E2  -1.658988937243529E1   1.742775679292547E2  
 7.523200000000000E9    -1.511268975476306E1  -1.762290078295439E2  -4.485188422911292E1  -1.495874060714363E2  -4.476511976843212E1  -1.496182207167123E2  -1.654282872169710E1   1.744384923418680E2  
 7.524000000000000E9    -1.507654000546661E1  -1.764190921849048E2  -4.392216767555392E1  -1.572543039923626E2  -4.389444078627612E1  -1.567636338311792E2  -1.645837527399022E1   1.743237671042641E2  
 7.524800000000000E9    -1.509077442603941E1  -1.768350123768931E2  -4.328063250961755E1  -1.657478398920078E2  -4.326369045121032E1  -1.658800203702811E2  -1.641127836086663E1   1.738664265105919E2  
 7.525600000000000E9    -1.512385732205650E1  -1.771647951049870E2  -4.291352471979361E1  -1.757919526411348E2  -4.288199702980059E1  -1.755508232671979E2  -1.639157873333818E1   1.734962628939867E2  
 7.526400000000000E9    -1.517891776632617E1  -1.774879191080534E2  -4.281318233115113E1   1.738556193071807E2  -4.278294986524411E1   1.737668745075503E2  -1.640716525470617E1   1.730668794378169E2  
 7.527200000000000E9    -1.524630565691600E1  -1.775353645128187E2  -4.295788502518828E1   1.626936702939013E2  -4.290637656352368E1   1.629282919849057E2  -1.642596376945642E1   1.726365757271127E2  
 7.528000000000000E9    -1.533856285012333E1  -1.774039621865343E2  -4.343290035288251E1   1.516057013811400E2  -4.340712625192041E1   1.514258601897481E2  -1.648699993558028E1   1.723336584399661E2  
 7.528800000000000E9    -1.537290876001360E1  -1.771530553346181E2  -4.415292395384048E1   1.400346987687981E2  -4.414627142512434E1   1.397129805309878E2  -1.653502007435368E1   1.722799251247904E2  
 7.529600000000000E9    -1.541217907647726E1  -1.768152748218310E2  -4.526853548267395E1   1.279413408967398E2  -4.522506639897073E1   1.280046893018684E2  -1.659399556564148E1   1.721335989020395E2  
 7.530400000000000E9    -1.543282125294619E1  -1.762452470249842E2  -4.688055206627431E1   1.151497316515436E2  -4.686453508342281E1   1.152610220399664E2  -1.662892763623613E1   1.720929184035117E2  
 7.531200000000000E9    -1.541711059937878E1  -1.757603180135629E2  -4.922110764361771E1   1.009244594402794E2  -4.925456173356980E1   1.020695106241197E2  -1.670166084137698E1   1.721752811622681E2  
 7.532000000000000E9    -1.537013949479881E1  -1.754418042222881E2  -5.305808248357197E1   8.412131749112332E1  -5.292940314275998E1   8.474973552433475E1  -1.673442613609630E1   1.724818241658164E2  
 7.532800000000000E9    -1.530062889525767E1  -1.751524482868809E2  -6.059236378671431E1   5.293650950185525E1  -6.040748596211086E1   5.613849870261974E1  -1.673463318223477E1   1.728582885283759E2  
 7.533600000000000E9    -1.522145377514636E1  -1.749572497704015E2  -6.267959878989193E1  -7.138961288364190E1  -6.294507138527890E1  -7.118779972691587E1  -1.671961392124133E1   1.730272327565175E2  
 7.534400000000000E9    -1.515086355837527E1  -1.750695109755288E2  -5.399303127899047E1  -1.088969071327310E2  -5.402654010957650E1  -1.090593544207005E2  -1.668676925272470E1   1.732531912084037E2  
 7.535200000000000E9    -1.507629711112071E1  -1.752067510207036E2  -4.967896941550428E1  -1.268169806090651E2  -4.965813144791477E1  -1.267024005062293E2  -1.665004502284020E1   1.731337433078338E2  
 7.536000000000000E9    -1.498814520563301E1  -1.754914735461454E2  -4.699952319124461E1  -1.417112868338224E2  -4.695761676099860E1  -1.412121007396887E2  -1.660927745266416E1   1.729119334719221E2  
 7.536800000000000E9    -1.494409323741944E1  -1.759581571407540E2  -4.519522397182293E1  -1.549834695787999E2  -4.522865165455150E1  -1.547419164682276E2  -1.657145562398187E1   1.727973353813765E2  
 7.537600000000000E9    -1.490910573060289E1  -1.765051165000021E2  -4.397593725504174E1  -1.681119244359594E2  -4.393324948991510E1  -1.683514929186010E2  -1.660026562221971E1   1.722432259935365E2  
 7.538400000000000E9    -1.491025335002314E1  -1.770821607272904E2  -4.306855191203803E1   1.786196713721760E2  -4.306581751064942E1   1.787440040434381E2  -1.660698406768944E1   1.718788551264724E2  
 7.539200000000000E9    -1.491218926358807E1  -1.777487838891265E2  -4.256833144063480E1   1.654165640037133E2  -4.254788114675930E1   1.659860725372204E2  -1.664779004059679E1   1.716369699968730E2  
 7.540000000000000E9    -1.493165732700966E1  -1.782660258535619E2  -4.234210325091205E1   1.523452556298313E2  -4.234674213815133E1   1.527465712845120E2  -1.669748616252002E1   1.714809805647341E2  
 7.540800000000000E9    -1.501932377782215E1  -1.786991072387611E2  -4.243269185846958E1   1.391150130135223E2  -4.249891520243754E1   1.390769876170367E2  -1.676199224538823E1   1.714690689300710E2  
 7.541600000000000E9    -1.508809452832070E1  -1.790028938941650E2  -4.290706723626206E1   1.254654577870159E2  -4.291233083001754E1   1.259106576437631E2  -1.681314952510943E1   1.715268484928850E2  
 7.542400000000000E9    -1.517755986225152E1  -1.790681532531709E2  -4.371120369920465E1   1.117036247561423E2  -4.376185843237545E1   1.123215623817440E2  -1.685108599046890E1   1.716961293296352E2  
 7.543200000000000E9    -1.524569937043125E1  -1.788896276135432E2  -4.502132705181025E1   9.794301644800144E1  -4.498881668040754E1   9.797481332936428E1  -1.687720788953229E1   1.720343179365925E2  
 7.544000000000000E9    -1.530612340215962E1  -1.787026146562772E2  -4.690840755945514E1   8.405767113908800E1  -4.682158630807459E1   8.448643001245939E1  -1.691188737703081E1   1.723512873320342E2  
 7.544800000000000E9    -1.532813856219852E1  -1.783223951912958E2  -4.962086621395473E1   6.859675616747332E1  -4.950036400263038E1   6.909726223884996E1  -1.687519147814075E1   1.726138120336103E2  
 7.545600000000000E9    -1.534396809300984E1  -1.779748805721836E2  -5.381637370152674E1   5.098381366065616E1  -5.383740264422359E1   5.137154000120780E1  -1.684292190014616E1   1.728209898972339E2  
 7.546400000000000E9    -1.531830425079768E1  -1.777453001250862E2  -6.181573543914976E1   1.201561479526645E1  -6.136028772140316E1   1.322178372306383E1  -1.677918076808565E1   1.727681006681671E2  
 7.547200000000000E9    -1.527815526827099E1  -1.775419000396981E2  -6.011680940290592E1  -9.894195991223910E1  -6.022695366953897E1  -9.903009301872277E1  -1.670114569952413E1   1.726264033646383E2  
 7.548000000000000E9    -1.523633912805415E1  -1.774751998549119E2  -5.296457499844598E1  -1.330550351939483E2  -5.296368368793384E1  -1.330580246687391E2  -1.666613344836564E1   1.724002832034777E2  
 7.548800000000000E9    -1.518466207659449E1  -1.775238027997131E2  -4.896963093795493E1  -1.509439087916258E2  -4.895699008474144E1  -1.501055948068638E2  -1.663837803284740E1   1.719071508491998E2  
 7.549600000000000E9    -1.514276969994487E1  -1.777868706191916E2  -4.627359057170703E1  -1.664478312735269E2  -4.634692544463731E1  -1.662500854345834E2  -1.664243877562435E1   1.713124467826850E2  
 7.550400000000000E9    -1.512808531597485E1  -1.783221574976460E2  -4.452295644476283E1   1.791043590749561E2  -4.449109838191559E1   1.797261114472183E2  -1.667819336904401E1   1.708571448311747E2  
 7.551200000000000E9    -1.512788585776080E1  -1.787566621850489E2  -4.332008156268606E1   1.654405486002405E2  -4.333892646638727E1   1.657346918903446E2  -1.670006930653293E1   1.702705192273634E2  
 7.552000000000000E9    -1.517606643514214E1  -1.791027610469405E2  -4.260133625948242E1   1.520790291481627E2  -4.261660066333064E1   1.526027756520267E2  -1.675543373686399E1   1.699743185879788E2  
 7.552800000000000E9    -1.524938499098589E1  -1.793700358804776E2  -4.223414919231222E1   1.398687135087677E2  -4.221048726804126E1   1.401704228299103E2  -1.684229415254020E1   1.695425107373747E2  
 7.553600000000000E9    -1.530762976323413E1  -1.793476545403447E2  -4.213082091204564E1   1.282077240897166E2  -4.212421898725570E1   1.282448840788662E2  -1.692545635600702E1   1.692809706811624E2  
 7.554400000000000E9    -1.535030022888342E1  -1.790965170302876E2  -4.226278543342085E1   1.170151986293875E2  -4.223413371033614E1   1.172684051614276E2  -1.703013132779981E1   1.693842207345994E2  
 7.555200000000000E9    -1.537146960469388E1  -1.788208343780463E2  -4.259116294474796E1   1.062291033689216E2  -4.255149657901026E1   1.066691043173933E2  -1.713617744767332E1   1.695194137820168E2  
 7.556000000000000E9    -1.539781717935085E1  -1.784940006380830E2  -4.308582724844760E1   9.576285050305471E1  -4.311500667219826E1   9.628467097902410E1  -1.723322294392715E1   1.699973775587562E2  
 7.556800000000000E9    -1.537516174916166E1  -1.781664239735512E2  -4.394327721066237E1   8.518051020779343E1  -4.394124950247880E1   8.579814714898717E1  -1.729712354884426E1   1.704876725214713E2  
 7.557600000000000E9    -1.535616432903142E1  -1.779125438231271E2  -4.517489441398913E1   7.576401458429999E1  -4.512039544241515E1   7.594324574842281E1  -1.732210614459357E1   1.713320583623699E2  
 7.558400000000000E9    -1.530694617108464E1  -1.776667772797241E2  -4.687714202591000E1   6.726268159928128E1  -4.680450666837097E1   6.740904250438059E1  -1.729719500797795E1   1.718004753888842E2  
 7.559200000000000E9    -1.523631091218238E1  -1.775974668054121E2  -4.929677266664762E1   6.066156657788440E1  -4.920649960438026E1   6.162611186415936E1  -1.725465188976249E1   1.723227972848239E2  
 7.560000000000000E9    -1.515566782508790E1  -1.776610028837115E2  -5.248427694246099E1   6.246386352356121E1  -5.247520664501513E1   6.259964543259387E1  -1.717200107335529E1   1.727634342446112E2  
 7.560800000000000E9    -1.507004247620152E1  -1.779734075260490E2  -5.574078359683870E1   7.920049483983681E1  -5.576612111937723E1   8.056566443589034E1  -1.709331778652921E1   1.729310256599458E2  
 7.561600000000000E9    -1.500371419221641E1  -1.783299183935977E2  -5.553446240006004E1   1.118142651360566E2  -5.566578556962012E1   1.124883775455631E2  -1.702953078215232E1   1.727351024927397E2  
 7.562400000000000E9    -1.497589476341556E1  -1.789540200794537E2  -5.265604584362930E1   1.263184540674896E2  -5.258754069972214E1   1.264176059174505E2  -1.696634773909221E1   1.725088825978785E2  
 7.563200000000000E9    -1.496608563849185E1  -1.795525950906601E2  -5.001552773855727E1   1.267484894798409E2  -5.005909403064365E1   1.272647271059173E2  -1.690775206070572E1   1.721536260083187E2  
 7.564000000000000E9    -1.499405985000252E1   1.799576111569665E2  -4.825467226715967E1   1.222727356110682E2  -4.817170300083053E1   1.222577184657195E2  -1.689861916465638E1   1.717773377035080E2  
 7.564800000000000E9    -1.503482541882440E1   1.795847874149142E2  -4.700841189035608E1   1.153391208490923E2  -4.693205218725350E1   1.159128547398271E2  -1.689363181969153E1   1.713429999444176E2  
 7.565600000000000E9    -1.510378941529982E1   1.793189722061642E2  -4.606897223896572E1   1.077441290839035E2  -4.602954929078924E1   1.081621830080721E2  -1.688877265947813E1   1.710190952314352E2  
 7.566400000000000E9    -1.515644981507244E1   1.790815645494598E2  -4.550483903822719E1   9.891944585702245E1  -4.548687641239541E1   9.871015924596414E1  -1.691865387646804E1   1.706278617913453E2  
 7.567200000000000E9    -1.519318655179887E1   1.790030791805137E2  -4.526484906081783E1   8.864308582222584E1  -4.526921399777140E1   8.882214950698088E1  -1.697504708314959E1   1.703973682972385E2  
 7.568000000000000E9    -1.524092828160479E1   1.792095787591719E2  -4.553242391527081E1   7.784439076679111E1  -4.551280096116728E1   7.813595168794200E1  -1.701343304977484E1   1.703522969777534E2  
 7.568800000000000E9    -1.522767799693287E1   1.793448400023419E2  -4.624488856293711E1   6.774845720677698E1  -4.622789352754828E1   6.816562488877089E1  -1.706134430504833E1   1.703911754000895E2  
 7.569600000000000E9    -1.524603336037876E1   1.794398624807446E2  -4.750140863895337E1   5.844559392783201E1  -4.746755228820374E1   5.861622831434615E1  -1.709401707442528E1   1.705225336987664E2  
 7.570400000000000E9    -1.520690466459797E1   1.793666118235693E2  -4.935186215702399E1   4.997149066287562E1  -4.938779823254040E1   5.087958434279297E1  -1.712519357363131E1   1.709080104555801E2  
 7.571200000000000E9    -1.520486389125576E1   1.792516307742898E2  -5.223901613326348E1   4.687236217614316E1  -5.219806574396395E1   4.686071749129447E1  -1.708977773370586E1   1.710951477859156E2  
 7.572000000000000E9    -1.518135276096331E1   1.790522970753600E2  -5.701114486511908E1   5.781531681959532E1  -5.693482940360497E1   5.749786293055968E1  -1.704494800386155E1   1.711373606306124E2  
 7.572800000000000E9    -1.516937060216621E1   1.787917017140170E2  -5.879089618044263E1   1.070795921683136E2  -5.887090477710578E1   1.054856204525120E2  -1.700115455130798E1   1.711779685502845E2  
 7.573600000000000E9    -1.516833786981731E1   1.785577692752748E2  -5.365844599715242E1   1.332401913125147E2  -5.366351143623700E1   1.331546747375595E2  -1.694031668364939E1   1.709177427425049E2  
 7.574400000000000E9    -1.518167510029995E1   1.783082548542093E2  -4.945326671546304E1   1.327613325068882E2  -4.943167316448427E1   1.335759083130791E2  -1.692080053052888E1   1.705852915355298E2  
 7.575200000000000E9    -1.520701216190021E1   1.778809343112980E2  -4.655856185866456E1   1.255569200171425E2  -4.661977556239526E1   1.256294097111925E2  -1.691826671566287E1   1.700998232704958E2  
 7.576000000000000E9    -1.524931736601185E1   1.776713352607158E2  -4.464460596585684E1   1.160048602063638E2  -4.469498899267972E1   1.163029851292076E2  -1.693982331408171E1   1.695999617453482E2  
 7.576800000000000E9    -1.529428250513059E1   1.774830558084406E2  -4.323835042233425E1   1.055383215175998E2  -4.323289202460826E1   1.057071717834705E2  -1.695554037915280E1   1.693874819002120E2  
 7.577600000000000E9    -1.537664211789405E1   1.774022626167794E2  -4.220934862470004E1   9.452173347316838E1  -4.220324251744232E1   9.500604094458778E1  -1.702802712430961E1   1.689629127601785E2  
