#  HZ   S   DB   R     50.00 
! Rohde & Schwarz ZVA40 2Ports - Version 4.11 - 1145.1110k40 SN: 100216
! Date: 2025-05-18 21:08:13
! Measurements: S11 S21 S12 S22 
! 
 7.500000000000000E9    -1.666259912426168E1   1.765812497483888E2  -4.920955135125008E1  -3.968337092659871E1  -4.920577911593863E1  -3.990453902458577E1  -1.487055921912724E1  -1.752010280472179E2  
 7.500800000000000E9    -1.663803429916221E1   1.769687814116978E2  -4.702394479442928E1  -3.889331833037298E1  -4.706706815056046E1  -3.922718759557294E1  -1.484889555659132E1  -1.753537573312499E2  
 7.501600000000000E9    -1.660169515221272E1   1.771885317233070E2  -4.520387419749574E1  -4.265873850491754E1  -4.519486342322949E1  -4.339015602260168E1  -1.484744727330761E1  -1.755535345202937E2  
 7.502400000000000E9    -1.655028819892904E1   1.776632747957574E2  -4.375538195922955E1  -4.923095979513754E1  -4.381631201337357E1  -4.999703534336973E1  -1.483890339310613E1  -1.757703846205536E2  
 7.503200000000000E9    -1.648145542402932E1   1.776310968912436E2  -4.268796032718727E1  -5.681336976124556E1  -4.272126837884611E1  -5.759670393585304E1  -1.484707005156059E1  -1.759993459263719E2  
 7.504000000000000E9    -1.640481902639094E1   1.774986305932777E2  -4.188680869158019E1  -6.515330197097549E1  -4.192481626827791E1  -6.553293581707666E1  -1.485250516372532E1  -1.761486897146598E2  
 7.504800000000000E9    -1.634142494779019E1   1.772997706016606E2  -4.136073862501549E1  -7.366835214173324E1  -4.136559860471884E1  -7.431256324008142E1  -1.487249533519897E1  -1.763801493553161E2  
 7.505600000000000E9    -1.628101632724347E1   1.768903708612339E2  -4.096008360392777E1  -8.269432163409637E1  -4.096269487768343E1  -8.311644510528811E1  -1.491438758368851E1  -1.764901274707729E2  
 7.506400000000000E9    -1.626582013517275E1   1.764763105514257E2  -4.076419177894362E1  -9.133374473714197E1  -4.075977323862291E1  -9.178060042431953E1  -1.493864425641720E1  -1.765314996002597E2  
 7.507200000000000E9    -1.624064181721342E1   1.759290752370220E2  -4.073349040995675E1  -9.976593982364024E1  -4.070599049312557E1  -1.003762542942236E2  -1.494368244590478E1  -1.764577288810031E2  
 7.508000000000000E9    -1.624290484152640E1   1.754956992195935E2  -4.080526575313229E1  -1.084561605448901E2  -4.079189806665693E1  -1.092657597334818E2  -1.496174507320550E1  -1.763091758570296E2  
 7.508800000000000E9    -1.628983893871660E1   1.751336842204236E2  -4.105414479339027E1  -1.174541985290705E2  -4.103956603999697E1  -1.180123043867568E2  -1.495365579698300E1  -1.762166933245447E2  
 7.509600000000000E9    -1.632346242441740E1   1.749914221090180E2  -4.148756613784552E1  -1.260535216164890E2  -4.150738570213634E1  -1.266734602883540E2  -1.492096684609244E1  -1.762699052225564E2  
 7.510400000000000E9    -1.636815322083605E1   1.748171626893737E2  -4.223462458790861E1  -1.349159602199897E2  -4.217770108988125E1  -1.355412812671319E2  -1.487397287843880E1  -1.763198512934387E2  
 7.511200000000000E9    -1.639289474148961E1   1.748374988906559E2  -4.319478822871949E1  -1.423435309042737E2  -4.318721282735432E1  -1.432239523116103E2  -1.485302210480704E1  -1.764565607110920E2  
 7.512000000000000E9    -1.641477758123961E1   1.748539075665880E2  -4.445163052462512E1  -1.482579107948102E2  -4.443235646859399E1  -1.493519331267570E2  -1.485006931388473E1  -1.767322956486160E2  
 7.512800000000000E9    -1.642018605451575E1   1.748318010559988E2  -4.576819901870157E1  -1.518377493878920E2  -4.572668207148705E1  -1.525026543546976E2  -1.485462890962116E1  -1.769868500835564E2  
 7.513600000000000E9    -1.642203914375778E1   1.748054982931325E2  -4.695563616737125E1  -1.532646336350040E2  -4.690497294191100E1  -1.539245571946258E2  -1.487006349199844E1  -1.770703424863289E2  
 7.514400000000000E9    -1.644862735036192E1   1.746286242852416E2  -4.805686749547979E1  -1.544386202442250E2  -4.804316768577856E1  -1.554365199942454E2  -1.489341104783979E1  -1.770799374433505E2  
 7.515200000000000E9    -1.648970043385678E1   1.745591173659326E2  -4.937470956233665E1  -1.560592727397028E2  -4.939488447204888E1  -1.567820510219557E2  -1.486575658451953E1  -1.771032499763837E2  
 7.516000000000000E9    -1.651233893766626E1   1.746982111315408E2  -5.113970572690804E1  -1.553216322821941E2  -5.117008111405150E1  -1.561872709875514E2  -1.485310134052928E1  -1.772875631359667E2  
 7.516800000000000E9    -1.654141973742741E1   1.746342368304851E2  -5.343387881728184E1  -1.473719941511165E2  -5.341085817536016E1  -1.480142241805590E2  -1.482358617101456E1  -1.775306392403572E2  
 7.517600000000000E9    -1.656821851938627E1   1.749095556652997E2  -5.465047483487047E1  -1.257859697571972E2  -5.468520614072820E1  -1.269453155173290E2  -1.483962238021700E1  -1.778481760052137E2  
 7.518400000000000E9    -1.657384544491648E1   1.749477331118382E2  -5.299905530827824E1  -1.064160451229075E2  -5.304801289249748E1  -1.066992003292342E2  -1.486162786792036E1  -1.780823856355719E2  
 7.519200000000000E9    -1.657978183697937E1   1.752352352771819E2  -5.058819489550574E1  -9.970632355694380E1  -5.049689295180255E1  -9.995404630977095E1  -1.489399881774856E1  -1.783509824395970E2  
 7.520000000000000E9    -1.657098545355416E1   1.754743397157630E2  -4.863130672790229E1  -1.010480694170519E2  -4.861497025081638E1  -1.021211928802363E2  -1.492337350879095E1  -1.783105502341610E2  
 7.520800000000000E9    -1.653626753367932E1   1.757365769726661E2  -4.719823146246096E1  -1.063201884647640E2  -4.715538629345290E1  -1.072121571919163E2  -1.495648576862719E1  -1.782892736363478E2  
 7.521600000000000E9    -1.648558186640636E1   1.756640760454000E2  -4.617893440416091E1  -1.127097177742269E2  -4.616758533977006E1  -1.138108015767633E2  -1.496674570428058E1  -1.781879133677738E2  
 7.522400000000000E9    -1.645277216355265E1   1.756285944741684E2  -4.567171468571190E1  -1.202554147269647E2  -4.557579429735883E1  -1.209157839287518E2  -1.496403456152648E1  -1.780015449464162E2  
 7.523200000000000E9    -1.641862313464878E1   1.756574171564355E2  -4.550584713224637E1  -1.265086381591528E2  -4.549349847312923E1  -1.279766577026690E2  -1.493276701415689E1  -1.779413541929633E2  
 7.524000000000000E9    -1.639089692232153E1   1.754368908921475E2  -4.564882850192343E1  -1.324059116939537E2  -4.557486353500214E1  -1.329700850912491E2  -1.487931532116587E1  -1.779973450361497E2  
 7.524800000000000E9    -1.635659293173599E1   1.752171697268087E2  -4.580096892727394E1  -1.359170757093635E2  -4.574784574184993E1  -1.367463073378758E2  -1.483282820866383E1  -1.782528895232009E2  
 7.525600000000000E9    -1.634968641348839E1   1.750562266273983E2  -4.592383876598127E1  -1.383485618738665E2  -4.591634018029171E1  -1.392684463681986E2  -1.481553659498218E1  -1.786818495461220E2  
 7.526400000000000E9    -1.633855466907998E1   1.748304567241587E2  -4.597382086587392E1  -1.400217182799816E2  -4.591078663682525E1  -1.408635627264019E2  -1.480441823893872E1  -1.791713275433175E2  
 7.527200000000000E9    -1.631823164582797E1   1.745500226659721E2  -4.581441629776352E1  -1.416134774569286E2  -4.581927065633403E1  -1.426599562132390E2  -1.483458919369446E1  -1.795708110132105E2  
 7.528000000000000E9    -1.631096669391215E1   1.743147758520608E2  -4.560932171071271E1  -1.437583291129952E2  -4.558319349901500E1  -1.445932412657999E2  -1.485782743457752E1  -1.798563895471771E2  
 7.528800000000000E9    -1.634139356668674E1   1.741545650781717E2  -4.533948916243090E1  -1.466942014697892E2  -4.537072264078186E1  -1.468588859000087E2  -1.492820128590970E1   1.798890133097692E2  
 7.529600000000000E9    -1.633990403078081E1   1.739157192719690E2  -4.511253662253075E1  -1.494977091941636E2  -4.512550686380283E1  -1.505840762083907E2  -1.496493268180362E1   1.797628395131994E2  
 7.530400000000000E9    -1.636124901998263E1   1.737624042689606E2  -4.486967457081022E1  -1.534746587794207E2  -4.491519174783100E1  -1.541670183490735E2  -1.500683497468559E1   1.796817026144846E2  
 7.531200000000000E9    -1.639843309574909E1   1.734370073412517E2  -4.460924160999889E1  -1.574091237633589E2  -4.464778227938169E1  -1.587423207817106E2  -1.504596727693519E1   1.796193537499338E2  
 7.532000000000000E9    -1.644796598268947E1   1.732202346253732E2  -4.440454063389138E1  -1.623987861023757E2  -4.447530744328538E1  -1.634400874038379E2  -1.507910869201074E1   1.797080504635167E2  
 7.532800000000000E9    -1.648823771818185E1   1.730961779796479E2  -4.434827468846010E1  -1.680402150070944E2  -4.435846042273698E1  -1.689736993176382E2  -1.509613390334844E1   1.797201354507877E2  
 7.533600000000000E9    -1.651144575825454E1   1.730980766277676E2  -4.432049686181911E1  -1.743971232494804E2  -4.435999383957672E1  -1.753470935333005E2  -1.511279276957359E1   1.798790464406308E2  
 7.534400000000000E9    -1.655980889292553E1   1.731091540862248E2  -4.448788699242836E1   1.786354793477428E2  -4.450498361361920E1   1.775929738983391E2  -1.510877132254329E1   1.799043417425207E2  
 7.535200000000000E9    -1.662519912917109E1   1.732872990920658E2  -4.484997410193268E1   1.707459990313841E2  -4.490381138771661E1   1.700500602205536E2  -1.512781105619750E1   1.798664537081457E2  
 7.536000000000000E9    -1.666901397672159E1   1.736371318020773E2  -4.553473136959429E1   1.634919454223802E2  -4.554934838168037E1   1.626914282547367E2  -1.511072501014350E1   1.799675327005441E2  
 7.536800000000000E9    -1.668856888407505E1   1.740317429358549E2  -4.660971608720922E1   1.565348618115322E2  -4.659305062211996E1   1.556224703684362E2  -1.510620271216270E1   1.798110257575114E2  
 7.537600000000000E9    -1.667096681225382E1   1.745076746073646E2  -4.803327408491376E1   1.510748254900171E2  -4.801441537173505E1   1.501732973019427E2  -1.509856066282328E1   1.797906655828315E2  
 7.538400000000000E9    -1.663268866160738E1   1.749011023329271E2  -4.980376674976800E1   1.484426596569132E2  -4.983752304291645E1   1.475108989035630E2  -1.508486847351287E1   1.796124722036730E2  
 7.539200000000000E9    -1.656138293183671E1   1.752308463008132E2  -5.206004353981262E1   1.503205297865843E2  -5.204139334217229E1   1.488942154755568E2  -1.509628957636591E1   1.793884550311676E2  
 7.540000000000000E9    -1.647590681602210E1   1.752499597957624E2  -5.402188752840974E1   1.602493737546515E2  -5.422630089477136E1   1.589504436005238E2  -1.510015406925808E1   1.792170557221498E2  
 7.540800000000000E9    -1.639043577126532E1   1.751037435454008E2  -5.491832992767821E1  -1.793656737357193E2  -5.499985644157113E1   1.790813804060894E2  -1.511572179903014E1   1.789592831161975E2  
 7.541600000000000E9    -1.632925111793320E1   1.748300127146297E2  -5.362778511685367E1  -1.649626065766416E2  -5.358147147563550E1  -1.658673346067960E2  -1.513953463426637E1   1.788173785492558E2  
 7.542400000000000E9    -1.626459193798691E1   1.744606048366759E2  -5.188463372050234E1  -1.588245215692054E2  -5.183509541194579E1  -1.596066180438480E2  -1.514403638603662E1   1.786590297043776E2  
 7.543200000000000E9    -1.624061927020669E1   1.738861245625505E2  -5.058184026108894E1  -1.578965565251471E2  -5.062987147481960E1  -1.596454080876009E2  -1.517638179153006E1   1.785986911480095E2  
 7.544000000000000E9    -1.622105579653007E1   1.734249833166864E2  -4.963214300253743E1  -1.584244657646414E2  -4.961464852082197E1  -1.595126698656679E2  -1.519753591774957E1   1.784731531127127E2  
 7.544800000000000E9    -1.620981606072581E1   1.729124959179547E2  -4.865139370801214E1  -1.594438964426077E2  -4.866382769751607E1  -1.598438976729696E2  -1.524366195355934E1   1.784401448765569E2  
 7.545600000000000E9    -1.622827379467723E1   1.723907507871390E2  -4.763884296821910E1  -1.604739102990945E2  -4.769727693848927E1  -1.613079434484123E2  -1.526566737178477E1   1.783287419841367E2  
 7.546400000000000E9    -1.624877620663768E1   1.718672395152543E2  -4.668239079757135E1  -1.634266766342575E2  -4.668217648748654E1  -1.640911304139630E2  -1.529716507246592E1   1.783826413547482E2  
 7.547200000000000E9    -1.630330062893458E1   1.713373857163891E2  -4.573698667119731E1  -1.675751576402959E2  -4.580795190096150E1  -1.681942824816127E2  -1.530624976497322E1   1.785492531591554E2  
 7.548000000000000E9    -1.634936612669502E1   1.709448414151559E2  -4.490218978118030E1  -1.730424006849044E2  -4.492193394867498E1  -1.737304039512588E2  -1.530112388190298E1   1.786959708778667E2  
 7.548800000000000E9    -1.642290937508399E1   1.705486914499544E2  -4.423689271754819E1  -1.795709370190121E2  -4.428658829007861E1   1.799532549771824E2  -1.526996872892413E1   1.787075427075548E2  
 7.549600000000000E9    -1.650399954724718E1   1.703475954959197E2  -4.371774382321136E1   1.730956992236597E2  -4.372586168072674E1   1.725154516138235E2  -1.526955826597987E1   1.786248710935509E2  
 7.550400000000000E9    -1.659509791581284E1   1.703106310581806E2  -4.338327660193976E1   1.652052729597064E2  -4.341121568286491E1   1.643903796567310E2  -1.524279783291059E1   1.785526576555241E2  
 7.551200000000000E9    -1.668216086500071E1   1.704222430953110E2  -4.324353700459298E1   1.567032638552748E2  -4.325351075452861E1   1.560575338642990E2  -1.519014172580716E1   1.782083560919072E2  
 7.552000000000000E9    -1.675556213600565E1   1.705968422060409E2  -4.335242285334591E1   1.481730749495114E2  -4.338571056743448E1   1.472523006149444E2  -1.518547264531234E1   1.779149049561798E2  
 7.552800000000000E9    -1.681729026371742E1   1.709317731339390E2  -4.367440294106859E1   1.393409416306651E2  -4.374690330662931E1   1.389869301459922E2  -1.520140934246244E1   1.773988760138525E2  
 7.553600000000000E9    -1.685898810814056E1   1.712837432014678E2  -4.425690869208773E1   1.310918422476763E2  -4.428426876453980E1   1.304923182827512E2  -1.523304164390047E1   1.769743241943570E2  
 7.554400000000000E9    -1.688660765408459E1   1.718524940098328E2  -4.501522279332982E1   1.235163109937505E2  -4.506123504811401E1   1.231860752219059E2  -1.529437775344962E1   1.766264675060862E2  
 7.555200000000000E9    -1.690245586911170E1   1.723537061158898E2  -4.605288883510962E1   1.164526704142266E2  -4.604825492603575E1   1.158489093346668E2  -1.532152171152344E1   1.763642399251972E2  
 7.556000000000000E9    -1.689345709938989E1   1.728118807138344E2  -4.741684547495234E1   1.103272439855161E2  -4.737709257228777E1   1.095042018897304E2  -1.537700001909096E1   1.760323359704742E2  
 7.556800000000000E9    -1.683232776494920E1   1.732479865156397E2  -4.923001616187814E1   1.055599435244654E2  -4.919230437998560E1   1.050016959315785E2  -1.547406002844531E1   1.758260306231946E2  
 7.557600000000000E9    -1.679760843087654E1   1.735776651669107E2  -5.156262752928349E1   1.043781103227585E2  -5.167869441154358E1   1.040226128693891E2  -1.556026424992336E1   1.757480434779532E2  
 7.558400000000000E9    -1.671212798884989E1   1.738294251197699E2  -5.443957425162211E1   1.120838486785962E2  -5.445439186449297E1   1.115500199575717E2  -1.563956821659731E1   1.759146370503892E2  
 7.559200000000000E9    -1.662476956297971E1   1.738638762182535E2  -5.635164493320450E1   1.357266803263280E2  -5.629250225803879E1   1.335648051138378E2  -1.571815010966998E1   1.761596481852273E2  
 7.560000000000000E9    -1.655112287572823E1   1.738059505501135E2  -5.497503217834002E1   1.601690697124960E2  -5.506298941269732E1   1.586199052810034E2  -1.575300416554309E1   1.765637830719371E2  
 7.560800000000000E9    -1.647970531256982E1   1.735623740005992E2  -5.222625647261464E1   1.697086278731104E2  -5.238565221875627E1   1.693765549379228E2  -1.579323367655784E1   1.769471309366531E2  
 7.561600000000000E9    -1.640432870132397E1   1.731612758837230E2  -5.005280711424792E1   1.700246418085347E2  -5.008319576748127E1   1.698082250730213E2  -1.578770792287799E1   1.773674368392759E2  
 7.562400000000000E9    -1.637193522083975E1   1.726830061157517E2  -4.842827330826072E1   1.658732929850571E2  -4.845408173491956E1   1.652676199126702E2  -1.576861588737972E1   1.776227067693327E2  
 7.563200000000000E9    -1.633675139714088E1   1.721907726862069E2  -4.738330396379310E1   1.602577801406264E2  -4.737128240745024E1   1.593704632715662E2  -1.573825136462988E1   1.778805668316179E2  
 7.564000000000000E9    -1.632009841576313E1   1.717426661964454E2  -4.674599042546947E1   1.546518813144046E2  -4.675705162144737E1   1.537255304031740E2  -1.571576918629518E1   1.779465228881317E2  
 7.564800000000000E9    -1.633031689326066E1   1.712675282559043E2  -4.629612202394380E1   1.494887778370296E2  -4.627138686507378E1   1.491054585551141E2  -1.568460293479846E1   1.778655357510554E2  
 7.565600000000000E9    -1.634707116780300E1   1.709187973988441E2  -4.592864924547570E1   1.451571598243183E2  -4.600948723598155E1   1.446144190093311E2  -1.566974456687048E1   1.777990119136110E2  
 7.566400000000000E9    -1.636273817655396E1   1.704907559509586E2  -4.560458915393129E1   1.410036563275743E2  -4.556863967859588E1   1.404312759984047E2  -1.566788581540298E1   1.778104097838828E2  
 7.567200000000000E9    -1.637588250906998E1   1.703148518062598E2  -4.532898821446266E1   1.366460674438935E2  -4.532879984835801E1   1.359312928870749E2  -1.564180340648232E1   1.776564543533600E2  
 7.568000000000000E9    -1.639686938697492E1   1.701385094563783E2  -4.515376208120506E1   1.322600809810932E2  -4.514473118000995E1   1.317880000761323E2  -1.564191920604274E1   1.775266320158298E2  
 7.568800000000000E9    -1.642651648436751E1   1.698985903026619E2  -4.499143220918949E1   1.282572206987353E2  -4.495285559206934E1   1.275186118239325E2  -1.564606962833922E1   1.773490401012995E2  
 7.569600000000000E9    -1.649081768002607E1   1.695503961394336E2  -4.481578554576305E1   1.238026658738128E2  -4.475218153492425E1   1.232504548701473E2  -1.563762898156386E1   1.772979989990050E2  
 7.570400000000000E9    -1.651335484949867E1   1.692482265548987E2  -4.457669875129301E1   1.195220083931049E2  -4.462961465038573E1   1.187123881910606E2  -1.564019032244329E1   1.771900693600808E2  
 7.571200000000000E9    -1.653258330009910E1   1.689331068555065E2  -4.442574531168818E1   1.144195044216082E2  -4.445299669575862E1   1.133936398765119E2  -1.564552959252061E1   1.771821976957157E2  
 7.572000000000000E9    -1.659357906792345E1   1.687151062453191E2  -4.437447313868435E1   1.080529870856126E2  -4.434990253301759E1   1.071831813041656E2  -1.563619050655230E1   1.769694167738801E2  
 7.572800000000000E9    -1.663541452838475E1   1.686604910363656E2  -4.442272518109139E1   1.021032609069925E2  -4.440004542657918E1   1.009240277644311E2  -1.563323314200186E1   1.767124067074890E2  
 7.573600000000000E9    -1.668175251226643E1   1.687251226333213E2  -4.460304469902708E1   9.492844846186783E1  -4.464222940047684E1   9.452284444953908E1  -1.564272797358419E1   1.766683019900465E2  
 7.574400000000000E9    -1.673928252698503E1   1.688560346418791E2  -4.499346420501991E1   8.781618552414949E1  -4.493745043028527E1   8.725970275233304E1  -1.565223925543248E1   1.763051878828483E2  
 7.575200000000000E9    -1.676995824767031E1   1.689500772946289E2  -4.563860606460977E1   8.049742278442729E1  -4.563690249569363E1   7.948985242929597E1  -1.566943452193605E1   1.762044304854148E2  
 7.576000000000000E9    -1.680293476566475E1   1.690429178608331E2  -4.654702065779759E1   7.356265731624566E1  -4.657396473599754E1   7.294816875454450E1  -1.570060354044372E1   1.759753712685341E2  
 7.576800000000000E9    -1.680968020745431E1   1.693741324481437E2  -4.781294722494596E1   6.714312077321709E1  -4.779288184381436E1   6.668446909688504E1  -1.573102364625026E1   1.758028539738918E2  
 7.577600000000000E9    -1.682394727867569E1   1.695013333120624E2  -4.943965909842014E1   6.293182982529970E1  -4.936950827868648E1   6.195279311090940E1  -1.577320018453220E1   1.756876701237937E2  
