#  HZ   S   DB   R     50.00 
! Rohde & Schwarz ZVA40 2Ports - Version 4.11 - 1145.1110k40 SN: 100216
! Date: 2025-05-18 21:09:03
! Measurements: S11 S21 S12 S22 
! 
 7.500000000000000E9    -1.665334883693688E1   1.766931206077347E2  -4.902375906038878E1  -3.937678738225635E1  -4.900659482717693E1  -4.004758026932445E1  -1.484534432893988E1  -1.751174526164809E2  
 7.500800000000000E9    -1.663598114869573E1   1.769155320727581E2  -4.672775538420461E1  -3.884707320355542E1  -4.676858365398842E1  -3.913039091628959E1  -1.481580617590186E1  -1.753516500202812E2  
 7.501600000000000E9    -1.659558544874420E1   1.772857451876183E2  -4.492539823483737E1  -4.330636264910415E1  -4.489893047426607E1  -4.393108424807325E1  -1.481946513727286E1  -1.755450560876851E2  
 7.502400000000000E9    -1.653288696888044E1   1.776725013981145E2  -4.349634104096701E1  -5.003211852837274E1  -4.349745349735584E1  -5.070670861600745E1  -1.481392412264632E1  -1.757553563893274E2  
 7.503200000000000E9    -1.645696904010795E1   1.776505442640627E2  -4.244420217097549E1  -5.818468080762764E1  -4.244539661785426E1  -5.832464656111652E1  -1.482157951254268E1  -1.759913480055050E2  
 7.504000000000000E9    -1.638920891813165E1   1.775941122872627E2  -4.170423700461942E1  -6.618395140100340E1  -4.167546124684729E1  -6.686077982704927E1  -1.484518445666753E1  -1.762080148262780E2  
 7.504800000000000E9    -1.631669639341045E1   1.773864875964382E2  -4.114532060793999E1  -7.488359143601721E1  -4.115396763215491E1  -7.542146905889092E1  -1.485771866686261E1  -1.763881047029718E2  
 7.505600000000000E9    -1.624110622630541E1   1.769280798009856E2  -4.080559575969870E1  -8.321865746338371E1  -4.082803163968360E1  -8.388017342577474E1  -1.489804999279963E1  -1.764333181914869E2  
 7.506400000000000E9    -1.624260675517148E1   1.765327170620577E2  -4.060629456436700E1  -9.184895860355351E1  -4.062349613127023E1  -9.247312029800351E1  -1.491491079032630E1  -1.765422809394804E2  
 7.507200000000000E9    -1.621300022960670E1   1.760243611208788E2  -4.058606632392274E1  -1.003175937588076E2  -4.059491890591951E1  -1.010490501888708E2  -1.492413786636875E1  -1.764370404317689E2  
 7.508000000000000E9    -1.622273653598431E1   1.755398265201155E2  -4.067689163989279E1  -1.089834475585076E2  -4.066805568868283E1  -1.098300905874320E2  -1.493386484673126E1  -1.763386388779383E2  
 7.508800000000000E9    -1.627115396723838E1   1.752170656216562E2  -4.092384994026215E1  -1.178695310916979E2  -4.089622853950637E1  -1.185404251705192E2  -1.493039792722130E1  -1.762282851415574E2  
 7.509600000000000E9    -1.630198136023302E1   1.750387347026590E2  -4.136419458868713E1  -1.265828049348281E2  -4.138504758121459E1  -1.272845328054312E2  -1.489648748270648E1  -1.762201874854119E2  
 7.510400000000000E9    -1.635431097287981E1   1.748711644401492E2  -4.209051841627246E1  -1.351460832180260E2  -4.207143158785512E1  -1.357466424515460E2  -1.485200214350335E1  -1.762685835592768E2  
 7.511200000000000E9    -1.636243991692182E1   1.748778575927614E2  -4.309507035062267E1  -1.425687560584223E2  -4.308416178738543E1  -1.434487990347161E2  -1.483358155618786E1  -1.764752608497989E2  
 7.512000000000000E9    -1.639567358039357E1   1.749615148954785E2  -4.433551369592944E1  -1.481284277083505E2  -4.428765033872964E1  -1.488150515166647E2  -1.482841060701472E1  -1.767345076713804E2  
 7.512800000000000E9    -1.640132345715151E1   1.748502349857308E2  -4.556892765102603E1  -1.514578350668000E2  -4.553390042698248E1  -1.520260260396997E2  -1.483290733342823E1  -1.769493941374071E2  
 7.513600000000000E9    -1.640265836313780E1   1.748486881871530E2  -4.674437350867978E1  -1.531199997632971E2  -4.674912400271960E1  -1.538691775722244E2  -1.485267183487984E1  -1.770850008104459E2  
 7.514400000000000E9    -1.642273521292779E1   1.746755965456651E2  -4.779647338497513E1  -1.550156434147158E2  -4.779686004399275E1  -1.552127631968526E2  -1.486462504402214E1  -1.769954485736257E2  
 7.515200000000000E9    -1.647141458577820E1   1.746882421133574E2  -4.918074581168081E1  -1.564718465543817E2  -4.917734156056155E1  -1.571197071361084E2  -1.484653833748795E1  -1.770893539456337E2  
 7.516000000000000E9    -1.648838802893567E1   1.746949345606648E2  -5.113615996961155E1  -1.556573796447611E2  -5.111043923720827E1  -1.561440942101930E2  -1.482031628322756E1  -1.772997237082233E2  
 7.516800000000000E9    -1.651682201487488E1   1.747168493048547E2  -5.337622637617609E1  -1.463701162385586E2  -5.351276560166517E1  -1.473021727911979E2  -1.480175526002193E1  -1.775165555575564E2  
 7.517600000000000E9    -1.653049603862262E1   1.748686177281932E2  -5.442484160962061E1  -1.237572416503712E2  -5.434415890909106E1  -1.255008470985039E2  -1.480584374549038E1  -1.778102353782981E2  
 7.518400000000000E9    -1.655247173643625E1   1.749033303324792E2  -5.248639893288451E1  -1.050988370208117E2  -5.254904765602018E1  -1.047200974075903E2  -1.482929979912154E1  -1.781216700474133E2  
 7.519200000000000E9    -1.655385101601592E1   1.753007239042102E2  -5.007171247036131E1  -9.980560603007940E1  -5.005484439421149E1  -1.007715640876123E2  -1.486786177057409E1  -1.783542463951511E2  
 7.520000000000000E9    -1.656070920025233E1   1.754083263343754E2  -4.809891847398392E1  -1.021663317028922E2  -4.812694270051745E1  -1.034280017032893E2  -1.488885278157094E1  -1.783384654349030E2  
 7.520800000000000E9    -1.652034142727082E1   1.756278487461385E2  -4.676284230203532E1  -1.075920133979862E2  -4.673748308533646E1  -1.087541100323353E2  -1.492557728109388E1  -1.783029706086265E2  
 7.521600000000000E9    -1.646897531640484E1   1.757104458110223E2  -4.585897175319195E1  -1.146161570134414E2  -4.582208912930611E1  -1.155077408622374E2  -1.493936369854955E1  -1.781712499240038E2  
 7.522400000000000E9    -1.644282729647867E1   1.757338206996648E2  -4.544731055952855E1  -1.220193968689727E2  -4.540613995288975E1  -1.228285786490957E2  -1.492511284363021E1  -1.780279982206689E2  
 7.523200000000000E9    -1.641079200965335E1   1.757413155576932E2  -4.536747527824723E1  -1.281940750979281E2  -4.529213112084825E1  -1.294214808645076E2  -1.490191475160151E1  -1.778974630756849E2  
 7.524000000000000E9    -1.637046775777768E1   1.756444514970192E2  -4.549159652646636E1  -1.331363497368772E2  -4.547177637546349E1  -1.340001569948859E2  -1.484702087316510E1  -1.780272081710353E2  
 7.524800000000000E9    -1.632814513371331E1   1.753937346490588E2  -4.568938250408999E1  -1.363953577695890E2  -4.569573447069660E1  -1.376030908309856E2  -1.480326394380028E1  -1.783458958614386E2  
 7.525600000000000E9    -1.631372251863292E1   1.751698593862173E2  -4.579471293697567E1  -1.382533398105665E2  -4.575560735068935E1  -1.393349007083925E2  -1.478597768822143E1  -1.787766163125178E2  
 7.526400000000000E9    -1.629742525382452E1   1.748947766996769E2  -4.573822431592013E1  -1.398861376146973E2  -4.572432689741489E1  -1.408173294334868E2  -1.478387094520141E1  -1.792014565801051E2  
 7.527200000000000E9    -1.628862179331580E1   1.745733603077679E2  -4.550099973934597E1  -1.415654390940470E2  -4.555839604666745E1  -1.426180510772141E2  -1.481794572527111E1  -1.796342878011617E2  
 7.528000000000000E9    -1.628667184216651E1   1.743561754469654E2  -4.526486893530092E1  -1.442644354723695E2  -4.528946488830529E1  -1.450270644514342E2  -1.484865380445261E1  -1.799685516395004E2  
 7.528800000000000E9    -1.631157608125533E1   1.741559189860917E2  -4.505351647082485E1  -1.473439777352417E2  -4.499959536341386E1  -1.486224161221340E2  -1.491462666866100E1   1.797068896342147E2  
 7.529600000000000E9    -1.631440116790800E1   1.739231015576334E2  -4.487801347294229E1  -1.510987504940205E2  -4.484992106096735E1  -1.520725855955228E2  -1.494538496404782E1   1.797471733692606E2  
 7.530400000000000E9    -1.633723967038888E1   1.737580732137846E2  -4.464798368131467E1  -1.545737581200912E2  -4.470074559201196E1  -1.556628802084300E2  -1.498301683704822E1   1.796688888121454E2  
 7.531200000000000E9    -1.637314420936507E1   1.734200395190886E2  -4.448884448632868E1  -1.584650617005368E2  -4.451942943754759E1  -1.595839597377770E2  -1.502212644315326E1   1.796592209367972E2  
 7.532000000000000E9    -1.640331534680486E1   1.733705595023985E2  -4.439260860160024E1  -1.631426740586529E2  -4.434977625749823E1  -1.641304760189777E2  -1.504275114886542E1   1.796986939158072E2  
 7.532800000000000E9    -1.645484824333288E1   1.731586149901478E2  -4.421649295992398E1  -1.686350237100473E2  -4.422341960964180E1  -1.695062078202893E2  -1.506643814883615E1   1.796517526325810E2  
 7.533600000000000E9    -1.648925639798544E1   1.731258071126865E2  -4.422885283210997E1  -1.747894827792781E2  -4.420324805489172E1  -1.758266347393693E2  -1.509590864605827E1   1.797240564866082E2  
 7.534400000000000E9    -1.653769086911006E1   1.731079059878476E2  -4.433339492165665E1   1.785794704109513E2  -4.428711619809768E1   1.775273433975821E2  -1.508430294028925E1   1.798320303530477E2  
 7.535200000000000E9    -1.659603816033551E1   1.733118787173907E2  -4.461841323598844E1   1.707698833350335E2  -4.467431708586427E1   1.698733829541831E2  -1.509385325720564E1   1.798726323687564E2  
 7.536000000000000E9    -1.663971970287961E1   1.736748458253690E2  -4.529263299429740E1   1.634700554357337E2  -4.535197188009417E1   1.623501329093486E2  -1.509674589755054E1   1.799459974530886E2  
 7.536800000000000E9    -1.665915465121670E1   1.740973324703538E2  -4.632117951998199E1   1.560504041334523E2  -4.637099120440277E1   1.549063568783272E2  -1.508178267635570E1   1.798518631930598E2  
 7.537600000000000E9    -1.664138127879965E1   1.744718679602310E2  -4.777240084057852E1   1.500431931885068E2  -4.783639852545008E1   1.494398987271525E2  -1.505801246725345E1   1.797417223014753E2  
 7.538400000000000E9    -1.660119263617534E1   1.749115707457751E2  -4.959566540363313E1   1.470065932930460E2  -4.965469147441996E1   1.460032823548135E2  -1.506599396268331E1   1.795892078772493E2  
 7.539200000000000E9    -1.653646849672737E1   1.752162109725328E2  -5.192813059849321E1   1.493990793678045E2  -5.199813957800996E1   1.484984720026940E2  -1.505795237411484E1   1.792856078029437E2  
 7.540000000000000E9    -1.645490005189782E1   1.752519180811792E2  -5.408002605253675E1   1.602600997270667E2  -5.409230191643623E1   1.596455595482104E2  -1.505562122518334E1   1.791330366928469E2  
 7.540800000000000E9    -1.636885518621161E1   1.751506978629870E2  -5.458460572434366E1   1.799339299097696E2  -5.486621367308528E1   1.796863894078845E2  -1.508693318968277E1   1.789580957986778E2  
 7.541600000000000E9    -1.629738622158125E1   1.749301686375225E2  -5.318683453597593E1  -1.652394171010685E2  -5.324117590364456E1  -1.657720479791799E2  -1.510992493851882E1   1.788011867868140E2  
 7.542400000000000E9    -1.623963698546740E1   1.745171701807246E2  -5.154726136351773E1  -1.602791838833873E2  -5.153892829612158E1  -1.609703160737271E2  -1.512914367394174E1   1.786940908319305E2  
 7.543200000000000E9    -1.620064457640278E1   1.739404733288355E2  -5.031033815233071E1  -1.598256811295367E2  -5.027459856989027E1  -1.600565765496627E2  -1.514382334009782E1   1.785333408270661E2  
 7.544000000000000E9    -1.619718229795658E1   1.734284758120814E2  -4.929538678387391E1  -1.602591941177909E2  -4.938012857770580E1  -1.614409504997849E2  -1.517372323952123E1   1.784327179657703E2  
 7.544800000000000E9    -1.618102983145609E1   1.729660703137471E2  -4.854015802787125E1  -1.606980226532411E2  -4.853533416999620E1  -1.613555950772895E2  -1.521238490838063E1   1.783042483404922E2  
 7.545600000000000E9    -1.619220848893024E1   1.724278167982550E2  -4.762638492460288E1  -1.617079117400036E2  -4.761970531457345E1  -1.622529946532953E2  -1.524365722957917E1   1.783359993569690E2  
 7.546400000000000E9    -1.621834890145724E1   1.718207659205230E2  -4.661963626661655E1  -1.641326381982138E2  -4.662127096884212E1  -1.645149226356239E2  -1.527879728049656E1   1.783435204718672E2  
 7.547200000000000E9    -1.627417965476078E1   1.712918499932305E2  -4.557783449921327E1  -1.676149189501696E2  -4.566129756902601E1  -1.684108529089090E2  -1.527614861929572E1   1.786872429488203E2  
 7.548000000000000E9    -1.631427932767882E1   1.709473718568374E2  -4.470338682502158E1  -1.731891181786326E2  -4.478274361227982E1  -1.740199732333441E2  -1.527499929853552E1   1.786300065766383E2  
 7.548800000000000E9    -1.639251372995254E1   1.706007877173140E2  -4.401478934221714E1   1.799649220752086E2  -4.404934841997528E1   1.799764652065788E2  -1.527012196344601E1   1.787840318024344E2  
 7.549600000000000E9    -1.648177575337632E1   1.704022824497747E2  -4.353161075182027E1   1.728314474511285E2  -4.355597540519839E1   1.722754227259238E2  -1.523125464894260E1   1.786365486708754E2  
 7.550400000000000E9    -1.656727374645719E1   1.702915331744796E2  -4.322287256363057E1   1.647653961332559E2  -4.322975482924290E1   1.643160142508046E2  -1.520783177479553E1   1.785017762422273E2  
 7.551200000000000E9    -1.665281762857937E1   1.703611890519379E2  -4.307425440430995E1   1.565139804844650E2  -4.309433290148611E1   1.561590534730239E2  -1.517072804434637E1   1.781777711620176E2  
 7.552000000000000E9    -1.672854553097707E1   1.705266325360979E2  -4.315348242908637E1   1.481257849892180E2  -4.317791309431966E1   1.473615544913295E2  -1.517176915747047E1   1.778412063324717E2  
 7.552800000000000E9    -1.678247295258894E1   1.709089252027377E2  -4.349253393252278E1   1.397780383751912E2  -4.346635764083450E1   1.389820553896800E2  -1.518597404074806E1   1.773139023310362E2  
 7.553600000000000E9    -1.683081060343885E1   1.712665435229268E2  -4.400161427787950E1   1.320077518481634E2  -4.405543014280728E1   1.313107449417514E2  -1.521032063741641E1   1.769449180972986E2  
 7.554400000000000E9    -1.686698436945415E1   1.717774614380587E2  -4.472042524736049E1   1.244744172146455E2  -4.469518770795165E1   1.239577937455568E2  -1.525916429765149E1   1.765844113186105E2  
 7.555200000000000E9    -1.687438356473408E1   1.722848389061301E2  -4.561993946498420E1   1.172446713329753E2  -4.567278713768245E1   1.166110060492254E2  -1.530387251090872E1   1.762759804573329E2  
 7.556000000000000E9    -1.686543180175042E1   1.727908290428683E2  -4.689826781035882E1   1.103106815941683E2  -4.691180943445109E1   1.097614670500454E2  -1.537390368127618E1   1.759741282089240E2  
 7.556800000000000E9    -1.682007650711016E1   1.732287240198773E2  -4.856731961969169E1   1.057150598120129E2  -4.857128308784429E1   1.046008502782447E2  -1.544819111979666E1   1.758028217758819E2  
 7.557600000000000E9    -1.675414417430614E1   1.735728675247097E2  -5.086491504008347E1   1.032125465160395E2  -5.087192743239623E1   1.025360458763776E2  -1.553979593763136E1   1.756291265809780E2  
 7.558400000000000E9    -1.668213710367446E1   1.737533605879637E2  -5.357120976081341E1   1.096159295809713E2  -5.359599241177992E1   1.081111065627407E2  -1.563762728090259E1   1.758637229986070E2  
 7.559200000000000E9    -1.659675482861016E1   1.738895668092566E2  -5.592399688825308E1   1.296998525786999E2  -5.601508308358214E1   1.286266001354149E2  -1.570056989266207E1   1.762269981014165E2  
 7.560000000000000E9    -1.652066881678650E1   1.737462456216574E2  -5.512478952515762E1   1.556054391378206E2  -5.512727760031218E1   1.558965502784928E2  -1.574580776298040E1   1.765619710507861E2  
 7.560800000000000E9    -1.644003084356707E1   1.734249736075404E2  -5.240850485057916E1   1.680383530145383E2  -5.226207347633974E1   1.672864225647379E2  -1.578013312224561E1   1.769436418841158E2  
 7.561600000000000E9    -1.637883898990845E1   1.731013104168432E2  -4.999622447068785E1   1.693989843065272E2  -5.007290575541376E1   1.686785938378376E2  -1.576993786907401E1   1.773643065068379E2  
 7.562400000000000E9    -1.634580516923302E1   1.726168974997018E2  -4.828296237503861E1   1.651284844142220E2  -4.828830029305792E1   1.641350188446827E2  -1.576535216239819E1   1.777028567214029E2  
 7.563200000000000E9    -1.630988612557902E1   1.721456628154386E2  -4.714718105470887E1   1.588146144336661E2  -4.715407128614707E1   1.585145709167403E2  -1.572824217509540E1   1.779428869570483E2  
 7.564000000000000E9    -1.630683805203664E1   1.717027914094086E2  -4.652902881406395E1   1.527834169311351E2  -4.651273874473544E1   1.522032004260586E2  -1.569009516721179E1   1.779749682720708E2  
 7.564800000000000E9    -1.630521646989938E1   1.711900545727054E2  -4.613618074088023E1   1.476179317224363E2  -4.615702687344029E1   1.468880719437929E2  -1.564985133514132E1   1.779421633325412E2  
 7.565600000000000E9    -1.632654098190611E1   1.708386919505910E2  -4.578571752135402E1   1.434906206660274E2  -4.586871360417349E1   1.428116493090686E2  -1.563295305168519E1   1.777963890182316E2  
 7.566400000000000E9    -1.634100018433624E1   1.704787729231860E2  -4.553962648720888E1   1.392181468780715E2  -4.552763223530808E1   1.387334054067936E2  -1.563367717368445E1   1.777333894523514E2  
 7.567200000000000E9    -1.634737967810187E1   1.702773039353480E2  -4.523802963721424E1   1.353098801043697E2  -4.528013320296386E1   1.345446602210059E2  -1.561820137801097E1   1.776184814874901E2  
 7.568000000000000E9    -1.636423588607490E1   1.700446735873637E2  -4.510067761131260E1   1.312110758862559E2  -4.509998005082294E1   1.307497424166971E2  -1.562933128235322E1   1.774584863965912E2  
 7.568800000000000E9    -1.639868562549140E1   1.698042395545319E2  -4.489160187081263E1   1.275286104123694E2  -4.487114410755948E1   1.264729728820090E2  -1.563888410557941E1   1.774040524981537E2  
 7.569600000000000E9    -1.645078945188926E1   1.694326359428420E2  -4.466139488756035E1   1.229988301324416E2  -4.466121117730820E1   1.220668110907641E2  -1.562493221145985E1   1.772707093955138E2  
 7.570400000000000E9    -1.648427401610782E1   1.692414082339341E2  -4.441754771402076E1   1.182308201965943E2  -4.445247922134569E1   1.171936051177118E2  -1.563107992565188E1   1.772093240146644E2  
 7.571200000000000E9    -1.651273105674482E1   1.689454039870176E2  -4.432755268184154E1   1.126348895022799E2  -4.429592011278633E1   1.118802748164103E2  -1.562706662725594E1   1.772164676655402E2  
 7.572000000000000E9    -1.657512585166890E1   1.686702019864891E2  -4.425435464167956E1   1.067749493881243E2  -4.421995759248319E1   1.057701451493591E2  -1.562946048599036E1   1.769734368334607E2  
 7.572800000000000E9    -1.661080854615659E1   1.685619093926159E2  -4.438813990399025E1   1.001410552211339E2  -4.436426727893780E1   9.984820121108675E1  -1.561703152090942E1   1.767763890955918E2  
 7.573600000000000E9    -1.666229203575695E1   1.686968229072625E2  -4.461560252282260E1   9.374317228609404E1  -4.463398793785291E1   9.307047622202586E1  -1.563445064763435E1   1.765704213997745E2  
 7.574400000000000E9    -1.671479382830762E1   1.688281955287810E2  -4.506599804541786E1   8.707507188017121E1  -4.499955129676734E1   8.623432933526443E1  -1.564849392109884E1   1.764326428559060E2  
 7.575200000000000E9    -1.673773586897029E1   1.687909931283016E2  -4.567910631540103E1   8.024153974464981E1  -4.567472597703005E1   7.926166109325828E1  -1.566055770826665E1   1.762920355548051E2  
 7.576000000000000E9    -1.677478386753890E1   1.689422157264366E2  -4.651604444381007E1   7.392518274182136E1  -4.652876598305927E1   7.294481893481841E1  -1.568178981939758E1   1.760878034811834E2  
 7.576800000000000E9    -1.678517870642695E1   1.692316101524580E2  -4.770453804829666E1   6.743338559748219E1  -4.770750029090420E1   6.714884513902271E1  -1.571897966509877E1   1.758691745590832E2  
 7.577600000000000E9    -1.679416692991134E1   1.693454571341783E2  -4.924168278028262E1   6.318841835997201E1  -4.925069946559135E1   6.252056044940844E1  -1.575521289992354E1   1.757014253923474E2  
