#  HZ   S   DB   R     50.00 
! Rohde & Schwarz ZVA40 2Ports - Version 4.11 - 1145.1110k40 SN: 100216
! Date: 2025-04-29 18:33:04
! Measurements: S11 S21 S12 S22 
! 
 7.500000000000000E9    -1.491727009133504E1  -1.749288576975668E2  -3.991977039499297E1  -1.216685673509870E2  -3.990596453387062E1  -1.211797620421834E2  -1.565320522869960E1   1.750704276623973E2  
 7.500800000000000E9    -1.490220549717209E1  -1.753931450446763E2  -4.030374656940538E1  -1.334974426675790E2  -4.026067129082730E1  -1.330675921980751E2  -1.569755471902020E1   1.743141617124114E2  
 7.501600000000000E9    -1.490866418403073E1  -1.757625326542818E2  -4.085317522853020E1  -1.458364256229119E2  -4.085077695838941E1  -1.454450520098307E2  -1.574720372773379E1   1.737225298236668E2  
 7.502400000000000E9    -1.494126634716597E1  -1.761885945580783E2  -4.165010581218316E1  -1.584851329779802E2  -4.162874439976797E1  -1.576800356021063E2  -1.581024774157994E1   1.732415038302069E2  
 7.503200000000000E9    -1.499499656721571E1  -1.764930395801569E2  -4.272075997115950E1  -1.718848674078095E2  -4.266482146537803E1  -1.710617258766544E2  -1.589902652774284E1   1.728818800295013E2  
 7.504000000000000E9    -1.506539091954461E1  -1.767291513458159E2  -4.404048751648904E1   1.736743525575962E2  -4.403242636361097E1   1.741001564280369E2  -1.598864920353088E1   1.726234349358967E2  
 7.504800000000000E9    -1.516192453148478E1  -1.767618004811558E2  -4.589555103210041E1   1.564699953490006E2  -4.584679411681228E1   1.570662082395492E2  -1.609031830159324E1   1.725282359571172E2  
 7.505600000000000E9    -1.522672488606079E1  -1.765596628094428E2  -4.825136811141387E1   1.356343349618064E2  -4.813216294785503E1   1.358520360050845E2  -1.617887777513191E1   1.726375470329758E2  
 7.506400000000000E9    -1.530792696053346E1  -1.761640372879993E2  -5.104978741793883E1   1.054869903493570E2  -5.108938498357944E1   1.054877938738905E2  -1.625289204340868E1   1.728365116780350E2  
 7.507200000000000E9    -1.534987059207589E1  -1.755874031472518E2  -5.314168487791637E1   6.031340109778106E1  -5.317967349645068E1   6.039681975658499E1  -1.631177978712963E1   1.732857321120302E2  
 7.508000000000000E9    -1.536628759413536E1  -1.748651475839759E2  -5.198022967521126E1   1.119493031079407E1  -5.196835218454245E1   1.205844792166086E1  -1.634264963068313E1   1.737165449828611E2  
 7.508800000000000E9    -1.531264003721417E1  -1.743533497923490E2  -4.947523402933003E1  -2.187159405305280E1  -4.934286317767369E1  -2.178907680789340E1  -1.634747289187940E1   1.741365151152702E2  
 7.509600000000000E9    -1.523420291190511E1  -1.739258626369787E2  -4.719576988113463E1  -4.450655744534833E1  -4.719244267231187E1  -4.463752161673462E1  -1.632429508349459E1   1.745222944073427E2  
 7.510400000000000E9    -1.514078488635848E1  -1.737205761249929E2  -4.559753815423813E1  -6.259200729200032E1  -4.555136982957676E1  -6.199715823206763E1  -1.629110803650608E1   1.748077987039421E2  
 7.511200000000000E9    -1.505165554834372E1  -1.738015684172529E2  -4.449598260003808E1  -7.788571445025137E1  -4.445903217863468E1  -7.702605681502264E1  -1.623239272180550E1   1.749648172425493E2  
 7.512000000000000E9    -1.497599847953496E1  -1.741028612876668E2  -4.387648750239116E1  -9.154504200594265E1  -4.384090691619862E1  -9.106560441291936E1  -1.616285461588305E1   1.749846021653699E2  
 7.512800000000000E9    -1.492814597490932E1  -1.745834052489988E2  -4.359070430491178E1  -1.036760127608001E2  -4.352183447013847E1  -1.033309051588966E2  -1.610807714450690E1   1.746274737093867E2  
 7.513600000000000E9    -1.490703832518437E1  -1.750706012760144E2  -4.362858699396448E1  -1.145491222759533E2  -4.356499925035623E1  -1.139894064636772E2  -1.606394440721585E1   1.740855655245170E2  
 7.514400000000000E9    -1.490687558721883E1  -1.755716678399335E2  -4.387009455969596E1  -1.234156151631700E2  -4.380811605656058E1  -1.228801464977896E2  -1.605764290378716E1   1.734600621469629E2  
 7.515200000000000E9    -1.493375692115840E1  -1.759161903298160E2  -4.425142129834836E1  -1.306769881215699E2  -4.421704370846190E1  -1.307167235946386E2  -1.609099697326213E1   1.729023146168544E2  
 7.516000000000000E9    -1.498301887172055E1  -1.763490704172496E2  -4.472907144812594E1  -1.369071723934795E2  -4.468066884448452E1  -1.366498822429000E2  -1.614344913108418E1   1.725064580487680E2  
 7.516800000000000E9    -1.502667400703096E1  -1.765402043511875E2  -4.526507904602870E1  -1.422738188885089E2  -4.523120935020425E1  -1.417800616168453E2  -1.621860137010780E1   1.721017292228796E2  
 7.517600000000000E9    -1.508976769719442E1  -1.765231765026758E2  -4.594732459444202E1  -1.455647960225995E2  -4.581090765282423E1  -1.453217124908518E2  -1.630420800871266E1   1.719978892854351E2  
 7.518400000000000E9    -1.513261450756587E1  -1.763355429894139E2  -4.667593719536974E1  -1.474291218512956E2  -4.659146122349144E1  -1.474670563204213E2  -1.638573170315815E1   1.720028441232999E2  
 7.519200000000000E9    -1.514988512486022E1  -1.761264491026812E2  -4.733597528296038E1  -1.458721472214684E2  -4.719517936871594E1  -1.460860473043443E2  -1.646470197142497E1   1.721764213552678E2  
 7.520000000000000E9    -1.514495208708812E1  -1.758985398338935E2  -4.731718494765530E1  -1.416379953513269E2  -4.729997613519016E1  -1.417900636744863E2  -1.654252065900553E1   1.725638538135419E2  
 7.520800000000000E9    -1.513962689610484E1  -1.758205502640451E2  -4.680516689607114E1  -1.390217370731702E2  -4.673711035923151E1  -1.389671414180869E2  -1.655616852467045E1   1.729518200704983E2  
 7.521600000000000E9    -1.510700145928252E1  -1.757214967853403E2  -4.588588130771465E1  -1.385688699561847E2  -4.581088040666256E1  -1.382550857747436E2  -1.654930328739224E1   1.734467731918651E2  
 7.522400000000000E9    -1.508928592809136E1  -1.757425225284817E2  -4.487921186410318E1  -1.413754732190897E2  -4.477036019887400E1  -1.410573370003372E2  -1.649924331586359E1   1.737801350396500E2  
 7.523200000000000E9    -1.504893791818879E1  -1.761334662400552E2  -4.382693812848086E1  -1.466912774106640E2  -4.379777527265487E1  -1.468264301033675E2  -1.644142717231970E1   1.738175646186953E2  
 7.524000000000000E9    -1.504364874317442E1  -1.763584771159961E2  -4.312980104253320E1  -1.541885104651761E2  -4.309295092189191E1  -1.542325468115308E2  -1.638498973967574E1   1.738278277277670E2  
 7.524800000000000E9    -1.503868291081390E1  -1.766827865944493E2  -4.264172302339951E1  -1.631703397213272E2  -4.258041310888407E1  -1.630180262747971E2  -1.633254128367353E1   1.734073325822361E2  
 7.525600000000000E9    -1.506506126887487E1  -1.770666038218028E2  -4.239245539138534E1  -1.729177178424197E2  -4.232393788577774E1  -1.725902895843776E2  -1.633113309466123E1   1.729499778069655E2  
 7.526400000000000E9    -1.513069475313691E1  -1.773688266381958E2  -4.233780028270222E1   1.769400495143988E2  -4.234248560399814E1   1.770158288890856E2  -1.633786538768792E1   1.726929162575440E2  
 7.527200000000000E9    -1.520141666788890E1  -1.773473945023787E2  -4.266383202155737E1   1.661609309682755E2  -4.256812927360131E1   1.663345932900873E2  -1.636942851893751E1   1.722759787793121E2  
 7.528000000000000E9    -1.528637028782495E1  -1.772624014037509E2  -4.319591545909508E1   1.552046356938282E2  -4.316183018203672E1   1.555053517949798E2  -1.641782012115255E1   1.718837852298086E2  
 7.528800000000000E9    -1.533232622947139E1  -1.769129487710206E2  -4.401212911424471E1   1.440703462992563E2  -4.403016354490867E1   1.442642665823749E2  -1.646860254633274E1   1.717673775670854E2  
 7.529600000000000E9    -1.536779276518731E1  -1.765132748491416E2  -4.530241278409318E1   1.326861201364163E2  -4.526014887523221E1   1.326878453355061E2  -1.652077663586329E1   1.716740472298674E2  
 7.530400000000000E9    -1.536831207183583E1  -1.759589590961295E2  -4.699705679396855E1   1.209880123665902E2  -4.707494503107290E1   1.208677887832101E2  -1.659327376422517E1   1.717290939922599E2  
 7.531200000000000E9    -1.534488558745475E1  -1.754786173427505E2  -4.977012037672646E1   1.083975954926310E2  -4.961942733345011E1   1.082694569758913E2  -1.664440014480342E1   1.717279943499105E2  
 7.532000000000000E9    -1.527359553852701E1  -1.751357173476246E2  -5.410140665356152E1   9.285134207473281E1  -5.409693099423818E1   9.358115779278725E1  -1.668153276832422E1   1.721472595449973E2  
 7.532800000000000E9    -1.521675433166036E1  -1.748460494908234E2  -6.497807648760509E1   6.682578240273392E1  -6.533187874667254E1   6.670768548199595E1  -1.667667606631570E1   1.724736582931990E2  
 7.533600000000000E9    -1.514236316170960E1  -1.747567548094911E2  -6.053354039103914E1  -9.752895337864179E1  -6.038105201939973E1  -9.597265906856012E1  -1.666975983787020E1   1.726785200156400E2  
 7.534400000000000E9    -1.506351280395409E1  -1.748304002913319E2  -5.271560994809370E1  -1.160083280217557E2  -5.262318535987774E1  -1.151936565954543E2  -1.661715600189253E1   1.728068326646938E2  
 7.535200000000000E9    -1.498417330518160E1  -1.750694840847524E2  -4.873377622747105E1  -1.296644956619957E2  -4.876686775818017E1  -1.290739096028954E2  -1.658942098064511E1   1.727313989059147E2  
 7.536000000000000E9    -1.491197191190552E1  -1.753834441569072E2  -4.627620552494687E1  -1.424514509575111E2  -4.633229153942495E1  -1.422939354583608E2  -1.656162871969706E1   1.724946209629371E2  
 7.536800000000000E9    -1.487120923966960E1  -1.759579786299718E2  -4.459537417426518E1  -1.553102790903220E2  -4.461302498377430E1  -1.551713134809259E2  -1.653237386234719E1   1.721649923186062E2  
 7.537600000000000E9    -1.482272321741223E1  -1.764608330218553E2  -4.348559832387029E1  -1.680462318717054E2  -4.347705907574726E1  -1.677291410906517E2  -1.654024051149175E1   1.718537037580110E2  
 7.538400000000000E9    -1.482454104032401E1  -1.770842820669982E2  -4.275185183257240E1   1.796088309975111E2  -4.272810024925015E1   1.796376857685603E2  -1.656405473718555E1   1.713716050317530E2  
 7.539200000000000E9    -1.484017191048757E1  -1.776990000503207E2  -4.228815284177742E1   1.669871766521291E2  -4.228044452401938E1   1.672128574580644E2  -1.659440180791894E1   1.710563326008494E2  
 7.540000000000000E9    -1.487246516322580E1  -1.782602877420905E2  -4.214847931160461E1   1.539850509396270E2  -4.217002805368041E1   1.543431400570318E2  -1.665953352964577E1   1.709609092596807E2  
 7.540800000000000E9    -1.495375879110461E1  -1.786870564614420E2  -4.236095169351286E1   1.411076001540354E2  -4.235038688193871E1   1.413009927209114E2  -1.672019574030127E1   1.708051318682807E2  
 7.541600000000000E9    -1.502502148713388E1  -1.790004481098994E2  -4.290517084169395E1   1.278973014977920E2  -4.292971823836475E1   1.281757369833938E2  -1.677318339194314E1   1.710000802088208E2  
 7.542400000000000E9    -1.511715234335868E1  -1.790072710875041E2  -4.386111852957599E1   1.148931654332353E2  -4.389058909068383E1   1.154221045236580E2  -1.683260552940103E1   1.711767653332980E2  
 7.543200000000000E9    -1.516655520452110E1  -1.787890953012991E2  -4.535176027360847E1   1.018248744303012E2  -4.531406880491847E1   1.024767268931878E2  -1.684401780357106E1   1.714605312216904E2  
 7.544000000000000E9    -1.521964739147922E1  -1.785852429476656E2  -4.741356509445753E1   8.940940016684415E1  -4.747399970510521E1   8.973542334531153E1  -1.687010141252035E1   1.717205412301026E2  
 7.544800000000000E9    -1.525330586683040E1  -1.782606393565767E2  -5.063267755416652E1   7.662069398976482E1  -5.073662419499244E1   7.669390572263168E1  -1.685464797471676E1   1.720921479763516E2  
 7.545600000000000E9    -1.525354470933428E1  -1.778636793717241E2  -5.623272681249834E1   6.384620506252945E1  -5.633518561631536E1   6.328141260561885E1  -1.680277833553770E1   1.723017558098219E2  
 7.546400000000000E9    -1.522789084059152E1  -1.777223205825617E2  -7.781347605285410E1   1.003700003338709E1  -7.529318919931839E1   2.106195695494239E1  -1.674823655220126E1   1.722154722348656E2  
 7.547200000000000E9    -1.519281878013611E1  -1.775214899681806E2  -5.746211759302421E1  -1.324081525633990E2  -5.746565190445341E1  -1.332975756023535E2  -1.669430589919771E1   1.720587692749766E2  
 7.548000000000000E9    -1.513484885108813E1  -1.774615929137451E2  -5.111692959136531E1  -1.467947958027461E2  -5.103802562236918E1  -1.466730475143538E2  -1.666313352839509E1   1.716415477424825E2  
 7.548800000000000E9    -1.507792582539338E1  -1.775854019957390E2  -4.741192487270008E1  -1.597863868520169E2  -4.745025117243077E1  -1.595742075097382E2  -1.663336638991100E1   1.712005601471853E2  
 7.549600000000000E9    -1.505077505167853E1  -1.778484475189174E2  -4.509638564776483E1  -1.727910812018515E2  -4.506603072235901E1  -1.723363678709798E2  -1.665029160300412E1   1.706588400211948E2  
 7.550400000000000E9    -1.502781192763941E1  -1.783667853920009E2  -4.343513656189601E1   1.740020581716782E2  -4.346371445155848E1   1.742545247563912E2  -1.668732988197928E1   1.701974727151939E2  
 7.551200000000000E9    -1.502414887590984E1  -1.788632236153057E2  -4.234804441564558E1   1.611818754739290E2  -4.235476284096205E1   1.616496878218329E2  -1.673931374540313E1   1.697319931437907E2  
 7.552000000000000E9    -1.507386867434258E1  -1.792521891931106E2  -4.164491347670279E1   1.486860740164655E2  -4.161397245960258E1   1.491514450607290E2  -1.677340576577263E1   1.693604880239762E2  
 7.552800000000000E9    -1.514164684165900E1  -1.794878288728878E2  -4.126800262847005E1   1.369533420713286E2  -4.126243739034024E1   1.372246686022051E2  -1.686279284816244E1   1.689754383513595E2  
 7.553600000000000E9    -1.520364767792142E1  -1.795859479684825E2  -4.113509123095249E1   1.253729876308871E2  -4.109757244058968E1   1.257510449761025E2  -1.695481626244998E1   1.687313887724314E2  
 7.554400000000000E9    -1.524569896394280E1  -1.793179422267422E2  -4.115751225538028E1   1.145031725849141E2  -4.116544917358867E1   1.149244762778849E2  -1.707382818242560E1   1.688096240581481E2  
 7.555200000000000E9    -1.527870995551950E1  -1.791168921131648E2  -4.147955087293808E1   1.039731696014766E2  -4.144805960509605E1   1.042169506383264E2  -1.719391505918921E1   1.689804462651089E2  
 7.556000000000000E9    -1.529760077706363E1  -1.788090962077743E2  -4.191819190892532E1   9.326877501950018E1  -4.191147376024358E1   9.351751568008116E1  -1.728369486804697E1   1.694709883370793E2  
 7.556800000000000E9    -1.528627596612110E1  -1.785238167170830E2  -4.263637831107718E1   8.266415883590354E1  -4.264312524947053E1   8.305844124502957E1  -1.735397000788977E1   1.702015642455878E2  
 7.557600000000000E9    -1.526473391009509E1  -1.782866036039632E2  -4.371774577769129E1   7.292692475367190E1  -4.365316619590904E1   7.313122743588603E1  -1.738525372775838E1   1.710468843677102E2  
 7.558400000000000E9    -1.522305623637849E1  -1.780916004901605E2  -4.512021155459107E1   6.338137069764755E1  -4.510368304345646E1   6.380892669853508E1  -1.735440732446419E1   1.715986630421905E2  
 7.559200000000000E9    -1.515945338399531E1  -1.779856272528319E2  -4.706309241944683E1   5.594887475458086E1  -4.707208240191783E1   5.635934762627196E1  -1.731200101968514E1   1.722735536157870E2  
 7.560000000000000E9    -1.509027229782019E1  -1.780707990722743E2  -4.979048968183522E1   5.280521690900885E1  -4.977347511413265E1   5.282992339277406E1  -1.720662866948909E1   1.727154704169278E2  
 7.560800000000000E9    -1.500642261410891E1  -1.783523980077387E2  -5.319855530143144E1   5.967967631943152E1  -5.309848369236178E1   5.977963638483937E1  -1.711761617839305E1   1.728436423410635E2  
 7.561600000000000E9    -1.494844143011771E1  -1.787315490776051E2  -5.527718682752088E1   8.365657492381294E1  -5.528081909433800E1   8.536580819158617E1  -1.703500531237097E1   1.726633123871099E2  
 7.562400000000000E9    -1.491521093708241E1  -1.793505947483194E2  -5.351789974348532E1   1.080167713789870E2  -5.355158713914819E1   1.085836731555579E2  -1.698398835639257E1   1.724590917229470E2  
 7.563200000000000E9    -1.490794966562572E1  -1.799048497293579E2  -5.101729527354339E1   1.155049824630408E2  -5.092072021399829E1   1.157341860062040E2  -1.691940529591007E1   1.719736652566927E2  
 7.564000000000000E9    -1.493518384487825E1   1.795607844912831E2  -4.888671611777750E1   1.135412213945019E2  -4.885268543725447E1   1.136634865493731E2  -1.690682200548278E1   1.715574470538705E2  
 7.564800000000000E9    -1.497621301441944E1   1.792026882007935E2  -4.736454122040396E1   1.084224726682979E2  -4.738673825555882E1   1.086580913344812E2  -1.691311374927857E1   1.711296355568051E2  
 7.565600000000000E9    -1.504390214312449E1   1.789160761632977E2  -4.632647217808164E1   1.008191460821401E2  -4.627731539620923E1   1.016183964938522E2  -1.693515692655875E1   1.707565895774294E2  
 7.566400000000000E9    -1.510362182331976E1   1.786415034438055E2  -4.560972861825031E1   9.201316208539137E1  -4.551690884313585E1   9.225296492652348E1  -1.695416056880323E1   1.704508965134682E2  
 7.567200000000000E9    -1.514394611367538E1   1.786072658409854E2  -4.524063338037642E1   8.227087785919380E1  -4.527212924464363E1   8.270366373229490E1  -1.701415074711819E1   1.702987255089780E2  
 7.568000000000000E9    -1.518492548710091E1   1.787345069482666E2  -4.535525387201201E1   7.152748868112806E1  -4.537919702765824E1   7.207716718128083E1  -1.705981157474314E1   1.703026223501213E2  
 7.568800000000000E9    -1.518958421130477E1   1.788806402370624E2  -4.600342577609310E1   6.127304245500301E1  -4.599731051435823E1   6.163956945925135E1  -1.710103497692733E1   1.703149658799891E2  
 7.569600000000000E9    -1.518427672804657E1   1.789363754368654E2  -4.711624692466601E1   5.151449775310184E1  -4.705265907562962E1   5.198155561572881E1  -1.712182273089857E1   1.706321606737800E2  
 7.570400000000000E9    -1.517378605173079E1   1.787927588669172E2  -4.891831972636794E1   4.325004222760887E1  -4.889173785488514E1   4.332977437239303E1  -1.715386599442834E1   1.709211104132135E2  
 7.571200000000000E9    -1.515996273044713E1   1.788195674508325E2  -5.152941372347036E1   3.778005544892065E1  -5.152430649267797E1   3.797493909045414E1  -1.710676054086366E1   1.711877245362004E2  
 7.572000000000000E9    -1.514675957220293E1   1.785323809581593E2  -5.585729878218636E1   4.130698183769803E1  -5.575980426297137E1   4.158134868803847E1  -1.705193894231354E1   1.713550511372026E2  
 7.572800000000000E9    -1.513674830054914E1   1.783526277109166E2  -6.023766792408561E1   8.477858083924971E1  -6.046094451925065E1   8.486755456386784E1  -1.700033955897738E1   1.712244844630122E2  
 7.573600000000000E9    -1.514769704128471E1   1.781357729933848E2  -5.514540447105323E1   1.262039072559947E2  -5.510912085377275E1   1.262994046550935E2  -1.695487627538558E1   1.709246173274283E2  
 7.574400000000000E9    -1.515556555160870E1   1.778485368965908E2  -5.020527057718817E1   1.285161512692994E2  -5.024334871264065E1   1.288030946478443E2  -1.692615645244267E1   1.706263221746238E2  
 7.575200000000000E9    -1.517952919644029E1   1.774836863324577E2  -4.700900702790129E1   1.217170678388389E2  -4.708803878362464E1   1.215911893838365E2  -1.692540529873471E1   1.700980487580658E2  
 7.576000000000000E9    -1.522501006623972E1   1.772111925715703E2  -4.484837775645057E1   1.120352375525329E2  -4.484928518084116E1   1.124657362202101E2  -1.695201476332145E1   1.696502734066772E2  
 7.576800000000000E9    -1.526854180541226E1   1.769895284302205E2  -4.328775156768668E1   1.013536333097176E2  -4.328158543556530E1   1.015601109444892E2  -1.697403177606680E1   1.693396530031243E2  
 7.577600000000000E9    -1.535130474084812E1   1.770137967190078E2  -4.215350634057474E1   9.009657685300573E1  -4.221883978989565E1   9.049475719350252E1  -1.703691278332972E1   1.690504005623421E2  
