#  HZ   S   DB   R     50.00 
! Rohde & Schwarz ZVA40 2Ports - Version 4.11 - 1145.1110k40 SN: 100216
! Date: 2025-04-29 18:33:58
! Measurements: S11 S21 S12 S22 
! 
 7.500000000000000E9    -1.490389825024566E1  -1.749709068454112E2  -3.993527787466773E1  -1.210799856492071E2  -3.990915644354945E1  -1.205181648375386E2  -1.563748186928252E1   1.751661876411442E2  
 7.500800000000000E9    -1.489226467832636E1  -1.754295433819425E2  -4.033582613912893E1  -1.331933177534571E2  -4.029670638819100E1  -1.326975871729692E2  -1.568705560757488E1   1.744095548820782E2  
 7.501600000000000E9    -1.491361512417259E1  -1.758019864273889E2  -4.092577287260144E1  -1.453337627283727E2  -4.091521999279599E1  -1.449855791265019E2  -1.573878416304044E1   1.737506137666653E2  
 7.502400000000000E9    -1.495578598549412E1  -1.761608281479749E2  -4.176522444212987E1  -1.581117583192210E2  -4.176173388639049E1  -1.573433134558168E2  -1.580751101131549E1   1.732707159080878E2  
 7.503200000000000E9    -1.501082746817727E1  -1.765007174999984E2  -4.286397829667988E1  -1.714297885835253E2  -4.284381055728417E1  -1.710043687326158E2  -1.589271394979970E1   1.729349000231421E2  
 7.504000000000000E9    -1.506569786855202E1  -1.768242094755465E2  -4.433866683877584E1   1.737749570270080E2  -4.429329707158362E1   1.739134903716742E2  -1.597135886329043E1   1.726572805269423E2  
 7.504800000000000E9    -1.518431713972224E1  -1.767231080066994E2  -4.618883447849894E1   1.564634929839609E2  -4.617415161374670E1   1.567527271095382E2  -1.606964244247238E1   1.726308327424609E2  
 7.505600000000000E9    -1.525316895403544E1  -1.765067540201693E2  -4.868264338696903E1   1.341763434147211E2  -4.866818759418567E1   1.347677182808902E2  -1.616147015035563E1   1.726665510162418E2  
 7.506400000000000E9    -1.531340155559147E1  -1.761761240599613E2  -5.152416397019918E1   1.018541578162759E2  -5.148453467859908E1   1.025671564179437E2  -1.623072480935830E1   1.729488290576895E2  
 7.507200000000000E9    -1.537115173117320E1  -1.755192199260841E2  -5.320977097289531E1   5.395187484643774E1  -5.313820561104166E1   5.469953526488097E1  -1.630040666554109E1   1.733995327759450E2  
 7.508000000000000E9    -1.537263349416347E1  -1.748148422069850E2  -5.153829914872789E1   6.486786952990374  -5.143913194709730E1   7.187859971842752  -1.632963070624410E1   1.737335598260348E2  
 7.508800000000000E9    -1.531395618311911E1  -1.743620465382070E2  -4.885538875634649E1  -2.406744130809292E1  -4.886247008901492E1  -2.374411460776218E1  -1.633501602713128E1   1.742330351966714E2  
 7.509600000000000E9    -1.522692690187889E1  -1.737754120889122E2  -4.678575223337714E1  -4.568408069139534E1  -4.667831013316850E1  -4.525766172093194E1  -1.629919851488506E1   1.746284924266081E2  
 7.510400000000000E9    -1.513218941357560E1  -1.737214794214854E2  -4.523624125021019E1  -6.277889862411709E1  -4.520204962631721E1  -6.252306764043815E1  -1.627085362017347E1   1.748486185135074E2  
 7.511200000000000E9    -1.505834756862524E1  -1.737298165219898E2  -4.425005285910924E1  -7.781620452927389E1  -4.415233229187744E1  -7.751765484243607E1  -1.620483268626862E1   1.749687765853965E2  
 7.512000000000000E9    -1.498860033238288E1  -1.741028430694753E2  -4.358505808633197E1  -9.113939247309831E1  -4.353159273531286E1  -9.096119708179502E1  -1.613747298316390E1   1.749915156205706E2  
 7.512800000000000E9    -1.493021810400401E1  -1.745302073302579E2  -4.336243283499569E1  -1.034137968483017E2  -4.335944747404874E1  -1.030702915270127E2  -1.608117790898295E1   1.746630973400973E2  
 7.513600000000000E9    -1.491027028377447E1  -1.749641268452175E2  -4.344978882804902E1  -1.136004750936729E2  -4.337489302946018E1  -1.132154191084399E2  -1.604016765541710E1   1.741907478265889E2  
 7.514400000000000E9    -1.491659451161806E1  -1.754505936059775E2  -4.373901286902047E1  -1.227206702561431E2  -4.370726692634128E1  -1.221973939148050E2  -1.604199159858258E1   1.735496078401794E2  
 7.515200000000000E9    -1.493825501486650E1  -1.757315210217053E2  -4.414185825705047E1  -1.298029597910005E2  -4.407039508936550E1  -1.295859302426194E2  -1.606687857125434E1   1.729292091976259E2  
 7.516000000000000E9    -1.499062846930714E1  -1.762683712157358E2  -4.459590944243831E1  -1.356725798769751E2  -4.457386709405422E1  -1.355479400213618E2  -1.612853619653956E1   1.725058729734548E2  
 7.516800000000000E9    -1.503517729125677E1  -1.765115028626461E2  -4.517073210570398E1  -1.406075854259128E2  -4.511636421906692E1  -1.405707606898783E2  -1.618900869001314E1   1.721592829291495E2  
 7.517600000000000E9    -1.510220784058681E1  -1.765075884818770E2  -4.588555659757826E1  -1.443641304991530E2  -4.573384606130114E1  -1.441566793537997E2  -1.627706186238869E1   1.720788326454644E2  
 7.518400000000000E9    -1.514564493072673E1  -1.762700824603002E2  -4.654540099348316E1  -1.457853178404282E2  -4.646976812812189E1  -1.458733047548201E2  -1.636339711166408E1   1.720569636398939E2  
 7.519200000000000E9    -1.515368895238949E1  -1.760639410153680E2  -4.704383451155035E1  -1.439031602632740E2  -4.697973942999123E1  -1.440788854283110E2  -1.643963637791380E1   1.723078090676349E2  
 7.520000000000000E9    -1.516098520220618E1  -1.759133680114408E2  -4.715680364032098E1  -1.407601024531727E2  -4.705193131408230E1  -1.404813379493238E2  -1.650975140887263E1   1.726213902390564E2  
 7.520800000000000E9    -1.514175095874470E1  -1.756818808297961E2  -4.654551583787566E1  -1.377206562417663E2  -4.661219526554176E1  -1.377766659031391E2  -1.653526476870844E1   1.730588697382335E2  
 7.521600000000000E9    -1.511656564951099E1  -1.756737177457236E2  -4.569376959755753E1  -1.379573158074352E2  -4.564141062404826E1  -1.377203611962173E2  -1.650653006769765E1   1.735665962511958E2  
 7.522400000000000E9    -1.506923618576564E1  -1.757660912485576E2  -4.463333183549265E1  -1.411352590925941E2  -4.463385459840517E1  -1.409449948830887E2  -1.647446555652995E1   1.737609384057041E2  
 7.523200000000000E9    -1.507136600848434E1  -1.760830689879530E2  -4.378984287502978E1  -1.463537892563153E2  -4.371352811489804E1  -1.465783109451339E2  -1.642092295672750E1   1.739012477338818E2  
 7.524000000000000E9    -1.504817856367549E1  -1.761423452742449E2  -4.307211416777301E1  -1.539256291647799E2  -4.304676048055529E1  -1.536651223892146E2  -1.635209913640156E1   1.738784738177552E2  
 7.524800000000000E9    -1.504981228181235E1  -1.766619747134663E2  -4.259940854164882E1  -1.628575131124270E2  -4.255631696913705E1  -1.623519421802936E2  -1.629892788644998E1   1.735139378382924E2  
 7.525600000000000E9    -1.508493625200735E1  -1.769651532117644E2  -4.236127103185986E1  -1.721026340726106E2  -4.235851971438372E1  -1.722293493214237E2  -1.629860953545216E1   1.731124435363672E2  
 7.526400000000000E9    -1.512228699004896E1  -1.772752721783125E2  -4.237605291837427E1   1.775416493814753E2  -4.234902465588036E1   1.775296470408157E2  -1.631185242555157E1   1.726686407699061E2  
 7.527200000000000E9    -1.520763691463221E1  -1.773936305323147E2  -4.269747048447381E1   1.669276372780772E2  -4.266739190051150E1   1.670629462251504E2  -1.634937656271590E1   1.721903693888221E2  
 7.528000000000000E9    -1.529038684361733E1  -1.771162304653321E2  -4.323769835320003E1   1.559807327258859E2  -4.323765469797247E1   1.563481877256363E2  -1.639589510722301E1   1.719192281005930E2  
 7.528800000000000E9    -1.533085755021123E1  -1.768602867422075E2  -4.417232479751051E1   1.450328767543251E2  -4.415904378404044E1   1.453566167576278E2  -1.644073304220031E1   1.718184496342025E2  
 7.529600000000000E9    -1.536611042179648E1  -1.763511443427505E2  -4.545086985639369E1   1.339908928448905E2  -4.542486555851422E1   1.342587204922654E2  -1.650336058639046E1   1.716764736998852E2  
 7.530400000000000E9    -1.535810882139636E1  -1.757868280854452E2  -4.722474320484577E1   1.222215290976894E2  -4.729577576431788E1   1.220950162335518E2  -1.655779267149902E1   1.717112304513037E2  
 7.531200000000000E9    -1.532964020670223E1  -1.754364481181135E2  -4.998916949458266E1   1.095409134076955E2  -5.003924125519833E1   1.097777104925430E2  -1.662208334349139E1   1.718169328796262E2  
 7.532000000000000E9    -1.527340821792703E1  -1.751553022276580E2  -5.479508514046646E1   9.499822855143364E1  -5.480454800915624E1   9.474348499443771E1  -1.666145060213511E1   1.721887207882952E2  
 7.532800000000000E9    -1.521665256601745E1  -1.747189622941302E2  -6.775027251344248E1   6.321142952624133E1  -6.748409112800130E1   6.624259773735736E1  -1.664964108122743E1   1.725251940669774E2  
 7.533600000000000E9    -1.514426578835244E1  -1.747354067768546E2  -5.961485895848588E1  -9.846659419413243E1  -5.936018316272561E1  -9.799018984404754E1  -1.664018054938530E1   1.726968016310296E2  
 7.534400000000000E9    -1.506696609094830E1  -1.747725125765440E2  -5.210151388592421E1  -1.154717695946831E2  -5.221617166364982E1  -1.151684955624448E2  -1.659045224911542E1   1.729236652105821E2  
 7.535200000000000E9    -1.499148308267991E1  -1.750247630904487E2  -4.840231889351852E1  -1.291264772104523E2  -4.849812999842571E1  -1.290373763490131E2  -1.655774915500457E1   1.728195233786213E2  
 7.536000000000000E9    -1.491949453899690E1  -1.753480885504175E2  -4.606830731325737E1  -1.420329535216723E2  -4.607610786773087E1  -1.417247302510388E2  -1.653094419087269E1   1.726349836904337E2  
 7.536800000000000E9    -1.486867744630276E1  -1.759625293460269E2  -4.446914801285416E1  -1.545369183066634E2  -4.445926690642578E1  -1.542744859746907E2  -1.649897019692449E1   1.721881752567508E2  
 7.537600000000000E9    -1.483443939973630E1  -1.763519954349521E2  -4.334225366674090E1  -1.672468966694878E2  -4.334687482981686E1  -1.670812055756499E2  -1.651156641064401E1   1.718915055023794E2  
 7.538400000000000E9    -1.482267017314127E1  -1.771110585954841E2  -4.262251690459194E1  -1.796704597565175E2  -4.264521526125166E1  -1.795156282949068E2  -1.652190716785094E1   1.714546967771855E2  
 7.539200000000000E9    -1.485341286869027E1  -1.777227558355323E2  -4.221388793353374E1   1.676201675249494E2  -4.221927199321406E1   1.680398265426517E2  -1.658248280716290E1   1.711447629636506E2  
 7.540000000000000E9    -1.488133817876215E1  -1.781728227084134E2  -4.214743227894697E1   1.547008334316732E2  -4.211917067304871E1   1.551925817562029E2  -1.663534600328946E1   1.709752241085021E2  
 7.540800000000000E9    -1.495520829916367E1  -1.786593048591169E2  -4.231746144544783E1   1.419686350554818E2  -4.234358754695056E1   1.421183528863646E2  -1.670302827594564E1   1.709126240758797E2  
 7.541600000000000E9    -1.503543545745105E1  -1.788835418813708E2  -4.294340265300816E1   1.288158936918330E2  -4.295239598073998E1   1.290844100314094E2  -1.676217931831187E1   1.709342646573792E2  
 7.542400000000000E9    -1.512342653643210E1  -1.789305462299286E2  -4.394101634504170E1   1.156766603426248E2  -4.397757155796749E1   1.163837480279138E2  -1.682390178307682E1   1.712119003366770E2  
 7.543200000000000E9    -1.518000003914032E1  -1.787748912931808E2  -4.553066178298237E1   1.030547276133078E2  -4.552096525448668E1   1.035442597979743E2  -1.681444088991393E1   1.715339650540108E2  
 7.544000000000000E9    -1.523362277686899E1  -1.785198384885937E2  -4.765788256347665E1   9.090321125481457E1  -4.767908110887952E1   9.122636389896861E1  -1.683747841813032E1   1.716362585098354E2  
 7.544800000000000E9    -1.525676407321821E1  -1.781354165604094E2  -5.107437802757406E1   7.865511284321964E1  -5.098442433084210E1   7.888679338837257E1  -1.682644574843147E1   1.720152738850295E2  
 7.545600000000000E9    -1.526637772872125E1  -1.778252370050878E2  -5.705295128530153E1   6.733104568592222E1  -5.696062827680459E1   6.579892815639332E1  -1.679822614859482E1   1.722455896244265E2  
 7.546400000000000E9    -1.523823891061312E1  -1.776451788252500E2  -8.676885228958133E1  -1.719287919039421E2  -1.031686396424978E2  -4.602558896031015  -1.672732550104581E1   1.722349972778239E2  
 7.547200000000000E9    -1.520471056925377E1  -1.774543054984430E2  -5.677479665893588E1  -1.358690632865439E2  -5.665948147817849E1  -1.350456135924519E2  -1.666654030367139E1   1.720948354295731E2  
 7.548000000000000E9    -1.514189182555548E1  -1.774584324147039E2  -5.066790978653375E1  -1.476458555351842E2  -5.079510467158025E1  -1.466788313272241E2  -1.663675997922340E1   1.716483988758295E2  
 7.548800000000000E9    -1.509004350542077E1  -1.774757422497985E2  -4.717591585263183E1  -1.596742206303546E2  -4.721624844912702E1  -1.592471206086225E2  -1.661099131817825E1   1.712052248903964E2  
 7.549600000000000E9    -1.504508595330625E1  -1.777591644993681E2  -4.487039131157302E1  -1.724642954971812E2  -4.487358036311747E1  -1.719290931523000E2  -1.663268665822029E1   1.707006499758152E2  
 7.550400000000000E9    -1.503022910499861E1  -1.782660361407642E2  -4.330224819158612E1   1.744641747568221E2  -4.326358998111584E1   1.747345688533877E2  -1.665809709129117E1   1.701049067661639E2  
 7.551200000000000E9    -1.503426871271516E1  -1.787867318153420E2  -4.223358224194118E1   1.616642311612339E2  -4.220593894136333E1   1.622549335730426E2  -1.669557240912547E1   1.698073083434566E2  
 7.552000000000000E9    -1.508366430997952E1  -1.792316412369176E2  -4.151695897580655E1   1.492199061040334E2  -4.148828211517947E1   1.497747312205399E2  -1.675972494572590E1   1.693867709386023E2  
 7.552800000000000E9    -1.515172517838293E1  -1.794370728047242E2  -4.117550028495896E1   1.373848523800261E2  -4.116009226560096E1   1.380610136800231E2  -1.685249337451015E1   1.690128767619028E2  
 7.553600000000000E9    -1.520957538445027E1  -1.795260472812379E2  -4.106705370107972E1   1.260737446857150E2  -4.108306420031886E1   1.266710750199460E2  -1.693280902452375E1   1.687763338501665E2  
 7.554400000000000E9    -1.525590474315478E1  -1.792593939939879E2  -4.115173994357138E1   1.152880964293382E2  -4.115736856063913E1   1.154556585929135E2  -1.706231396157292E1   1.688289025882285E2  
 7.555200000000000E9    -1.528455219108111E1  -1.790160513931596E2  -4.144720593532598E1   1.047170985339627E2  -4.138783889915763E1   1.050436128433566E2  -1.717784196296076E1   1.690850103159025E2  
 7.556000000000000E9    -1.531234095068282E1  -1.787209011237461E2  -4.191596657630706E1   9.409599393678754E1  -4.191015888678687E1   9.451594281957813E1  -1.729200256046038E1   1.695640435598158E2  
 7.556800000000000E9    -1.529461948513961E1  -1.784474698965240E2  -4.265538553737008E1   8.360873587048451E1  -4.266778062016190E1   8.391443318755030E1  -1.733407285846162E1   1.702864079635253E2  
 7.557600000000000E9    -1.526833418395092E1  -1.782602924341710E2  -4.368583218432078E1   7.391512639444456E1  -4.371959204612534E1   7.410231650373440E1  -1.737573750875750E1   1.710927749961963E2  
 7.558400000000000E9    -1.522753642588814E1  -1.780262025244637E2  -4.519919279429110E1   6.460550191103059E1  -4.518837555394691E1   6.490109247570514E1  -1.735093901401750E1   1.717539707013825E2  
 7.559200000000000E9    -1.515676361891939E1  -1.778674487916556E2  -4.728587533092298E1   5.698032674746909E1  -4.721694175906044E1   5.727319963154707E1  -1.728365681037410E1   1.722905493697041E2  
 7.560000000000000E9    -1.509310170585548E1  -1.779964660639398E2  -5.002959363404061E1   5.416834693638967E1  -4.994495530339493E1   5.460161722473840E1  -1.720123763048402E1   1.727749078689253E2  
 7.560800000000000E9    -1.500824668035620E1  -1.782934474449770E2  -5.329227125175822E1   6.179669263765750E1  -5.332783142575530E1   6.246014632129094E1  -1.711910787336956E1   1.728944074578351E2  
 7.561600000000000E9    -1.494950708960658E1  -1.786250590991110E2  -5.535791395551313E1   8.856391878431644E1  -5.517278090722530E1   8.753397772610353E1  -1.702542631930660E1   1.727196148189410E2  
 7.562400000000000E9    -1.491299722618782E1  -1.792165814388210E2  -5.339888892193411E1   1.112851375409202E2  -5.336521367055191E1   1.115976134271210E2  -1.697506781571241E1   1.724604217009579E2  
 7.563200000000000E9    -1.491632455139816E1  -1.798364122610527E2  -5.078562159821146E1   1.176631232792512E2  -5.079957485248347E1   1.178458083951481E2  -1.691911252223646E1   1.720433852906008E2  
 7.564000000000000E9    -1.492749984336730E1   1.795523116234141E2  -4.875094785244767E1   1.150217533252748E2  -4.874482192682619E1   1.154062574283664E2  -1.690100915815830E1   1.715558219808271E2  
 7.564800000000000E9    -1.498961641446629E1   1.792967498584867E2  -4.732565437327565E1   1.098790324365854E2  -4.728760149974487E1   1.101079764738364E2  -1.689574993735048E1   1.711937480934533E2  
 7.565600000000000E9    -1.504588384685725E1   1.789466678410353E2  -4.616376903165337E1   1.027912765486786E2  -4.618305847058662E1   1.027975337171147E2  -1.690936206457701E1   1.708409584335966E2  
 7.566400000000000E9    -1.510378771153510E1   1.787031883586762E2  -4.554612916830161E1   9.355814800107325E1  -4.554262980015258E1   9.418702838220723E1  -1.694299417302754E1   1.705153245790926E2  
 7.567200000000000E9    -1.513363153685379E1   1.786147528631167E2  -4.522587293907660E1   8.383844985309482E1  -4.519961362433084E1   8.391725809398925E1  -1.700263736767683E1   1.703642263420195E2  
 7.568000000000000E9    -1.518286507241226E1   1.788310129123220E2  -4.539895496531701E1   7.357964409557360E1  -4.539125168500134E1   7.329511275216969E1  -1.704268335811165E1   1.703576795340348E2  
 7.568800000000000E9    -1.518079300637774E1   1.790390244226184E2  -4.605791557238115E1   6.324590119465113E1  -4.598433244794858E1   6.355616567637711E1  -1.708267056195821E1   1.703519384113015E2  
 7.569600000000000E9    -1.518325364745936E1   1.790355747472251E2  -4.716806736413329E1   5.362014614588502E1  -4.722171212211811E1   5.386936484417525E1  -1.711816786195223E1   1.705916108529067E2  
 7.570400000000000E9    -1.515871991209358E1   1.789918367363729E2  -4.900114598005232E1   4.580382549400009E1  -4.892856783699416E1   4.610440508452128E1  -1.712857148558669E1   1.709521931584095E2  
 7.571200000000000E9    -1.515344551318156E1   1.789061802768404E2  -5.176103500710963E1   4.139539320355281E1  -5.171572705753111E1   4.108745778219788E1  -1.710240875216740E1   1.711825319579831E2  
 7.572000000000000E9    -1.513094457351475E1   1.786246989193125E2  -5.609410163638047E1   4.649097933980487E1  -5.593644895488114E1   4.726843320941738E1  -1.704473824697056E1   1.712855602189884E2  
 7.572800000000000E9    -1.513738595713759E1   1.784255044065600E2  -5.918454885637446E1   9.062567729917930E1  -5.921891152403764E1   9.083470239569270E1  -1.701612431561583E1   1.713015426671911E2  
 7.573600000000000E9    -1.512823833602905E1   1.781724202686253E2  -5.442456897097919E1   1.261071820597095E2  -5.427901367660395E1   1.265863250547308E2  -1.695561156021116E1   1.710324768954650E2  
 7.574400000000000E9    -1.514387753138801E1   1.778871102314057E2  -4.988091671833764E1   1.288542472886578E2  -4.987024276185806E1   1.285839671946694E2  -1.692775814604291E1   1.706773671255620E2  
 7.575200000000000E9    -1.517211080492192E1   1.774839649089016E2  -4.679996216183985E1   1.218357385463714E2  -4.683144850726389E1   1.222924346480981E2  -1.691474240799768E1   1.701910420518542E2  
 7.576000000000000E9    -1.521252221146015E1   1.772764794033110E2  -4.471061124541048E1   1.124112827276037E2  -4.470588573210534E1   1.125708455557494E2  -1.695006041988039E1   1.696742837635792E2  
 7.576800000000000E9    -1.526423743567347E1   1.771312673542520E2  -4.315464628597343E1   1.017884206466405E2  -4.321393494777664E1   1.020279666519837E2  -1.696798600904797E1   1.694393747739899E2  
 7.577600000000000E9    -1.534135669880016E1   1.770741369299610E2  -4.211264878241013E1   9.107766290642425E1  -4.210598486693792E1   9.120874726094594E1  -1.702559613390156E1   1.690647373403194E2  
