#  HZ   S   DB   R     50.00 
! Rohde & Schwarz ZVA40 2Ports - Version 4.11 - 1145.1110k40 SN: 100216
! Date: 2025-05-17 20:27:22
! Measurements: S11 S21 S12 S22 
! 
 7.500000000000000E9    -1.644386397128225E1   1.760999998942328E2  -4.293909862690150E1  -4.972666244870232E1  -4.285850494026229E1  -4.960828652522425E1  -1.480957233211753E1  -1.768730310666026E2  
 7.500800000000000E9    -1.640828194257487E1   1.763028303877561E2  -4.254115274013375E1  -6.177699146168202E1  -4.252039170357355E1  -6.158646969769968E1  -1.487858302202361E1  -1.771941521296841E2  
 7.501600000000000E9    -1.635751854610430E1   1.762385071940427E2  -4.241660037293013E1  -7.358965681441825E1  -4.239142249493419E1  -7.338139437681339E1  -1.494516248498351E1  -1.772767479362360E2  
 7.502400000000000E9    -1.631794636420937E1   1.761738562997557E2  -4.257028751797088E1  -8.548772638355780E1  -4.252678091234364E1  -8.557076344650288E1  -1.501965710503873E1  -1.772282212389397E2  
 7.503200000000000E9    -1.628849092240473E1   1.760433259493507E2  -4.290919936742284E1  -9.776993705342501E1  -4.286983703276599E1  -9.734778936305300E1  -1.508358535489383E1  -1.769503977109035E2  
 7.504000000000000E9    -1.626095152215004E1   1.756623769350740E2  -4.347604711249172E1  -1.099347880918472E2  -4.340555470106546E1  -1.097502389469082E2  -1.511790205418064E1  -1.767116579786634E2  
 7.504800000000000E9    -1.624296548969793E1   1.753835925106380E2  -4.431053744640992E1  -1.219929260597398E2  -4.424482232927556E1  -1.218945633454646E2  -1.514332864846631E1  -1.763264593871480E2  
 7.505600000000000E9    -1.624771297747229E1   1.751060556775925E2  -4.543622406037162E1  -1.342002034985524E2  -4.537352593988189E1  -1.342294222082026E2  -1.514040148106663E1  -1.760690409570636E2  
 7.506400000000000E9    -1.627151327817846E1   1.747321796821686E2  -4.680533680240491E1  -1.467704188236716E2  -4.676312478367251E1  -1.468942124177268E2  -1.510990565280139E1  -1.757199767827557E2  
 7.507200000000000E9    -1.627547764862634E1   1.744987189227635E2  -4.850948388185039E1  -1.596390183062989E2  -4.848959932964087E1  -1.598950299256136E2  -1.506200733122197E1  -1.754615076322781E2  
 7.508000000000000E9    -1.628842292558651E1   1.743466338795091E2  -5.070974389170466E1  -1.749613847721130E2  -5.058657190970222E1  -1.751204586231290E2  -1.499778522970475E1  -1.754221185888099E2  
 7.508800000000000E9    -1.634505219402859E1   1.742624439278724E2  -5.348170733368793E1   1.655753975980717E2  -5.325915382971597E1   1.658389287214607E2  -1.493522857345451E1  -1.755913662183524E2  
 7.509600000000000E9    -1.636747999545756E1   1.741488646919050E2  -5.664355755358473E1   1.340211222094409E2  -5.672375018591640E1   1.341349814639888E2  -1.489350626697470E1  -1.758967524053381E2  
 7.510400000000000E9    -1.640778589011000E1   1.739973160464412E2  -5.864398826005009E1   8.395452315324170E1  -5.849252923914179E1   8.498921899766728E1  -1.486877514720232E1  -1.763141140779810E2  
 7.511200000000000E9    -1.642264862491112E1   1.739893729342762E2  -5.663858472900435E1   3.827002191989531E1  -5.648522674127329E1   3.755214432592077E1  -1.488414458449964E1  -1.767383420755694E2  
 7.512000000000000E9    -1.648581490510540E1   1.740774938263102E2  -5.360920005357092E1   1.039639767007027E1  -5.346274974035373E1   9.892284541725125  -1.491679148045861E1  -1.770748900148594E2  
 7.512800000000000E9    -1.651508942023829E1   1.742422903223644E2  -5.132951073051687E1  -7.761357003044545  -5.123237395862931E1  -7.949584326353006  -1.493270845686939E1  -1.771527974043355E2  
 7.513600000000000E9    -1.655548028337586E1   1.744427293271470E2  -4.975581797005494E1  -2.077856918993884E1  -4.966922991393879E1  -2.118316137340749E1  -1.493715328467436E1  -1.772054098274320E2  
 7.514400000000000E9    -1.656984395898617E1   1.748133358375032E2  -4.848363975696518E1  -3.111669830745579E1  -4.840078140598254E1  -3.110875718239293E1  -1.494857069585344E1  -1.773249980146989E2  
 7.515200000000000E9    -1.657398790194551E1   1.748217159046706E2  -4.721569349705590E1  -4.071623565457617E1  -4.717069589100905E1  -4.087197486833432E1  -1.497727109861627E1  -1.776271907079812E2  
 7.516000000000000E9    -1.655060531601802E1   1.752418886252464E2  -4.631257023432637E1  -4.980647628313993E1  -4.618217256775519E1  -4.988014169687767E1  -1.498787642009664E1  -1.776669838089129E2  
 7.516800000000000E9    -1.654823624474135E1   1.754418591897967E2  -4.549136893802913E1  -5.868193830901837E1  -4.538770672131942E1  -5.907802946068727E1  -1.503302488793886E1  -1.776898384327575E2  
 7.517600000000000E9    -1.652962229352706E1   1.757473131873477E2  -4.487725316238691E1  -6.816149251878601E1  -4.478349002035666E1  -6.831740555266138E1  -1.508638323474396E1  -1.776013737248138E2  
 7.518400000000000E9    -1.648427198606425E1   1.759425180092543E2  -4.453214170952999E1  -7.801905461711928E1  -4.443600909396489E1  -7.812038507279694E1  -1.508321142418503E1  -1.772182632843913E2  
 7.519200000000000E9    -1.643699589218993E1   1.760217617956852E2  -4.432796109949167E1  -8.673852164154636E1  -4.424419901361613E1  -8.700558744544074E1  -1.506590069798762E1  -1.769875205515652E2  
 7.520000000000000E9    -1.638451383183563E1   1.760426486335835E2  -4.433897881293216E1  -9.562267294061205E1  -4.425724876494348E1  -9.573262249456559E1  -1.502431654263633E1  -1.768166991040636E2  
 7.520800000000000E9    -1.631418164505352E1   1.759552407736412E2  -4.445037295085972E1  -1.029742390959839E2  -4.442393159056282E1  -1.036766341156969E2  -1.494549743970365E1  -1.768524270470337E2  
 7.521600000000000E9    -1.629526938911254E1   1.754817030986724E2  -4.480888519622178E1  -1.103260518544503E2  -4.474322556085627E1  -1.103436371106571E2  -1.486765818674470E1  -1.769861923753332E2  
 7.522400000000000E9    -1.626625382773671E1   1.750810129543682E2  -4.514116906317085E1  -1.161425748563269E2  -4.511791307192166E1  -1.161905611959562E2  -1.481009951829793E1  -1.774767086116243E2  
 7.523200000000000E9    -1.628286645154449E1   1.746615282399738E2  -4.540098382507058E1  -1.207737616343650E2  -4.540799851105845E1  -1.215656715575821E2  -1.477022440828833E1  -1.779097880560130E2  
 7.524000000000000E9    -1.629269752425021E1   1.744274379851735E2  -4.563398985330097E1  -1.255217037071178E2  -4.552356270894229E1  -1.259986644749855E2  -1.478097501970271E1  -1.785466691149516E2  
 7.524800000000000E9    -1.634570396453140E1   1.741014210825764E2  -4.574366275009447E1  -1.308557770216916E2  -4.564754086862594E1  -1.316157055458205E2  -1.481392656219963E1  -1.791103969993949E2  
 7.525600000000000E9    -1.638044751620489E1   1.738573465854859E2  -4.590008514183974E1  -1.372011554776854E2  -4.578776571534958E1  -1.375087385975420E2  -1.487099402124324E1  -1.794439066132539E2  
 7.526400000000000E9    -1.643126873870477E1   1.738061716396667E2  -4.616709457520125E1  -1.439497381739532E2  -4.617071370868060E1  -1.441715906798848E2  -1.494483188791637E1  -1.797689804680635E2  
 7.527200000000000E9    -1.650618508101973E1   1.738211203686993E2  -4.658463656727858E1  -1.512139801556346E2  -4.656956463785942E1  -1.518888677105560E2  -1.503000550182852E1  -1.797451099729416E2  
 7.528000000000000E9    -1.651954153109763E1   1.738630211469026E2  -4.723087888958143E1  -1.586642731351087E2  -4.722436112655912E1  -1.592114519329691E2  -1.508605438231959E1  -1.796909388578385E2  
 7.528800000000000E9    -1.656316943242404E1   1.740345312991755E2  -4.807438968282700E1  -1.665778128789992E2  -4.808400313281683E1  -1.673519750712299E2  -1.512039494329240E1  -1.794017195774706E2  
 7.529600000000000E9    -1.659908211037326E1   1.741880606358515E2  -4.927474311132275E1  -1.745619615179086E2  -4.925468210007556E1  -1.746511262836499E2  -1.514308409110349E1  -1.791247943766435E2  
 7.530400000000000E9    -1.661366696677083E1   1.744738157810979E2  -5.079498684429411E1   1.775771881713889E2  -5.079969594876536E1   1.773601535094989E2  -1.512640549501925E1  -1.787147369130863E2  
 7.531200000000000E9    -1.662902767807746E1   1.747451690074336E2  -5.298819029976403E1   1.689206016597610E2  -5.286191399688931E1   1.689923419795755E2  -1.511177631433418E1  -1.785283748749832E2  
 7.532000000000000E9    -1.662319307364025E1   1.749296538389784E2  -5.610734115269219E1   1.580749130093631E2  -5.616892025417790E1   1.583843761971809E2  -1.507273894251998E1  -1.785009913101989E2  
 7.532800000000000E9    -1.659819444135771E1   1.751386391970962E2  -6.205610311509602E1   1.437786744328126E2  -6.223155182643381E1   1.443532779254645E2  -1.503418924898867E1  -1.784680550597907E2  
 7.533600000000000E9    -1.657989181457607E1   1.751814977336812E2  -7.484493884188285E1   5.589314576488119  -7.362603922111683E1  -6.481958124307418E-1  -1.499308984055564E1  -1.785693555661117E2  
 7.534400000000000E9    -1.658312136414688E1   1.752758639840764E2  -5.899611956243356E1  -3.883415466909632E1  -5.897882758710477E1  -3.931603734912307E1  -1.495437418208834E1  -1.786918103562645E2  
 7.535200000000000E9    -1.654433910706752E1   1.754097087487395E2  -5.339127467763346E1  -5.137725569629214E1  -5.327275603379486E1  -5.284664838432963E1  -1.491904832240670E1  -1.789495952032842E2  
 7.536000000000000E9    -1.652895520407051E1   1.753825022505092E2  -4.985828941052978E1  -6.351375719677643E1  -4.980387400494450E1  -6.423018600779295E1  -1.489343186230121E1  -1.792116794138161E2  
 7.536800000000000E9    -1.649476315294047E1   1.753403545426137E2  -4.743172617963893E1  -7.550218111433698E1  -4.733825054617161E1  -7.624615544282852E1  -1.491182329384253E1  -1.795709408262170E2  
 7.537600000000000E9    -1.646564015378283E1   1.752499202464623E2  -4.559730774151883E1  -8.819477492038421E1  -4.554071483496315E1  -8.836896081956682E1  -1.491784966575299E1  -1.799399834532769E2  
 7.538400000000000E9    -1.646075923061033E1   1.750627676686591E2  -4.423849641588262E1  -1.003055036388064E2  -4.426727672553907E1  -1.007261566398080E2  -1.494190855913795E1   1.797802593156420E2  
 7.539200000000000E9    -1.642941672672669E1   1.747861887547177E2  -4.333987205124454E1  -1.122539330581566E2  -4.331936342321264E1  -1.124873209586612E2  -1.499138490745296E1   1.796087290489354E2  
 7.540000000000000E9    -1.640785191132620E1   1.745348320509858E2  -4.270523750489380E1  -1.239603541775419E2  -4.269855080136646E1  -1.242575064087651E2  -1.503386194252548E1   1.795174263769888E2  
 7.540800000000000E9    -1.642862637787567E1   1.744214172760024E2  -4.241508307295065E1  -1.353867376673134E2  -4.237910063983955E1  -1.355629979623853E2  -1.507519388706958E1   1.795949515845345E2  
 7.541600000000000E9    -1.644355879077056E1   1.741199962753970E2  -4.227734337199756E1  -1.464008695086424E2  -4.228447199348820E1  -1.467662200221470E2  -1.509401169814696E1   1.797000011103503E2  
 7.542400000000000E9    -1.645669090785948E1   1.739334065197542E2  -4.247984778777230E1  -1.571579438000606E2  -4.242917096134390E1  -1.572247566433948E2  -1.510974562598317E1   1.797881777690167E2  
 7.543200000000000E9    -1.644995869773558E1   1.736702674287946E2  -4.279656329427334E1  -1.665855796685162E2  -4.278815968416852E1  -1.665603356725452E2  -1.510810612010487E1   1.799589183233143E2  
 7.544000000000000E9    -1.645051113038948E1   1.735564421607261E2  -4.334145113507445E1  -1.754685256637333E2  -4.331389762344580E1  -1.754883704402386E2  -1.510566470844096E1  -1.799318423767635E2  
 7.544800000000000E9    -1.645638284009995E1   1.733457784392069E2  -4.403857467827960E1   1.770128614847049E2  -4.403750673475034E1   1.769452176903356E2  -1.510946221082823E1   1.799952127433107E2  
 7.545600000000000E9    -1.645856398453118E1   1.731378699172956E2  -4.477657721754855E1   1.706411412773292E2  -4.475892568650961E1   1.707577872129535E2  -1.506659402233074E1   1.799576926324119E2  
 7.546400000000000E9    -1.649723303457881E1   1.729242875023228E2  -4.560520737912270E1   1.656304621002554E2  -4.556621765992809E1   1.654415974126287E2  -1.503681687447460E1  -1.799515983797891E2  
 7.547200000000000E9    -1.650566441544238E1   1.726258212314764E2  -4.644256760270542E1   1.613629505205310E2  -4.645330438864681E1   1.610979109795479E2  -1.501068965734659E1   1.798474114793556E2  
 7.548000000000000E9    -1.653640735791147E1   1.724480026299674E2  -4.737326750490279E1   1.579052035586229E2  -4.734681957576684E1   1.576294296174645E2  -1.498961573377911E1   1.794349971667704E2  
 7.548800000000000E9    -1.658252736777925E1   1.723160175925806E2  -4.827692959913620E1   1.556999667439646E2  -4.830338932102639E1   1.552660636141063E2  -1.498167508412583E1   1.791233195525405E2  
 7.549600000000000E9    -1.661519787195134E1   1.722696275906173E2  -4.935390335341502E1   1.544335490717548E2  -4.933881858330268E1   1.542756211283401E2  -1.498276160336721E1   1.785636826244742E2  
 7.550400000000000E9    -1.666342818580971E1   1.720857326334309E2  -5.042822103153333E1   1.554494530295309E2  -5.031443755746276E1   1.549908278068567E2  -1.503566329064775E1   1.781941632688647E2  
 7.551200000000000E9    -1.668645439846111E1   1.721493514172379E2  -5.135591913057436E1   1.591991902641560E2  -5.127552957709290E1   1.585641760194316E2  -1.508293810510971E1   1.778551929644987E2  
 7.552000000000000E9    -1.675170157722976E1   1.722140039402249E2  -5.200775485915406E1   1.646105858038494E2  -5.206282411977187E1   1.640309525251191E2  -1.516333030149248E1   1.776037517778002E2  
 7.552800000000000E9    -1.676364634390592E1   1.723866348180986E2  -5.215399924348958E1   1.718860042365722E2  -5.209146139572494E1   1.717248095258612E2  -1.523594704558943E1   1.775700736715735E2  
 7.553600000000000E9    -1.678172509396464E1   1.726265846959757E2  -5.174997776754355E1   1.781106181097198E2  -5.183055667551987E1   1.792115761250051E2  -1.533636040833333E1   1.776845870872362E2  
 7.554400000000000E9    -1.677197114841864E1   1.728023719606176E2  -5.101656714825608E1  -1.762360246909776E2  -5.098593122534714E1  -1.773477428689138E2  -1.537109774010806E1   1.778656428309456E2  
 7.555200000000000E9    -1.675742820846854E1   1.730448540717953E2  -5.011918248919478E1  -1.744484153695989E2  -5.012167037331529E1  -1.747891134671524E2  -1.541650372417622E1   1.782707605831369E2  
 7.556000000000000E9    -1.672679268095736E1   1.732575105202583E2  -4.909533526695236E1  -1.730771935739687E2  -4.906265393467238E1  -1.732056888350129E2  -1.543325947496398E1   1.784586176410170E2  
 7.556800000000000E9    -1.667030393490704E1   1.732644508751388E2  -4.794668142464296E1  -1.743923421795055E2  -4.788619808604629E1  -1.746766548488599E2  -1.543773940250392E1   1.789218466754334E2  
 7.557600000000000E9    -1.664223605396843E1   1.731319459656342E2  -4.683860743307503E1  -1.774158346232084E2  -4.676646330174476E1  -1.776645193495279E2  -1.541655362486478E1   1.791963357895757E2  
 7.558400000000000E9    -1.659800522345116E1   1.730225105186869E2  -4.586056835472179E1   1.779328413859124E2  -4.579352794535281E1   1.777948727902125E2  -1.537528746669508E1   1.793990691354123E2  
 7.559200000000000E9    -1.655846955554974E1   1.728488939803652E2  -4.494775253477668E1   1.716226349666436E2  -4.489403906760497E1   1.715136606101503E2  -1.531724524105494E1   1.795929803293440E2  
 7.560000000000000E9    -1.653604906055318E1   1.725125444259559E2  -4.423489483359682E1   1.641623139390461E2  -4.419740266089484E1   1.642005030293702E2  -1.527737320486949E1   1.794307461547372E2  
 7.560800000000000E9    -1.653266728381805E1   1.723562917151979E2  -4.379180838388157E1   1.552170299664109E2  -4.372254907770324E1   1.552956333000732E2  -1.520020559652233E1   1.791214616061562E2  
 7.561600000000000E9    -1.651511179163862E1   1.718691388840584E2  -4.354536421571658E1   1.461858356652835E2  -4.351223111781317E1   1.460224585469759E2  -1.516104770262817E1   1.786412244982909E2  
 7.562400000000000E9    -1.651779022844074E1   1.717071872859248E2  -4.370119984160526E1   1.369880178914949E2  -4.362037554919131E1   1.368733311865089E2  -1.516759474617404E1   1.780959072215823E2  
 7.563200000000000E9    -1.653397673324672E1   1.714495500437510E2  -4.405893230852615E1   1.288207395661586E2  -4.401473796918216E1   1.286355215012291E2  -1.518684008231979E1   1.774895661178615E2  
 7.564000000000000E9    -1.655206891865963E1   1.713363302231889E2  -4.450603849544385E1   1.221368802383945E2  -4.452310514126049E1   1.215364691885807E2  -1.523659208686095E1   1.770219331357576E2  
 7.564800000000000E9    -1.656984767947258E1   1.712196102643661E2  -4.506913500585950E1   1.157911600061908E2  -4.499566472831754E1   1.156274373067190E2  -1.530055654591853E1   1.766453740500875E2  
 7.565600000000000E9    -1.656584825490648E1   1.711511472961565E2  -4.558547051217915E1   1.097463536184091E2  -4.555587463546158E1   1.097256012517943E2  -1.538421874508541E1   1.765233625531602E2  
 7.566400000000000E9    -1.654774150506835E1   1.711026104135148E2  -4.631046865346379E1   1.044891474904520E2  -4.620582525513993E1   1.042003687185544E2  -1.545803967044344E1   1.765049054038571E2  
 7.567200000000000E9    -1.652417501613120E1   1.710312568483000E2  -4.705747335311403E1   9.964277919495380E1  -4.699587821879507E1   9.946825825868997E1  -1.553283434002220E1   1.766600023999120E2  
 7.568000000000000E9    -1.650778347183196E1   1.710511758886169E2  -4.786507244230435E1   9.595060410482108E1  -4.777918351612653E1   9.609996461904581E1  -1.556681407139319E1   1.768388495819156E2  
 7.568800000000000E9    -1.647899544507974E1   1.707713747946271E2  -4.856809589058146E1   9.308064843592202E1  -4.845728538700172E1   9.285489522306699E1  -1.559010019023605E1   1.770923823817997E2  
 7.569600000000000E9    -1.645212015799049E1   1.707061383844385E2  -4.921305058743530E1   8.913119838788302E1  -4.913632072678385E1   8.904389479555850E1  -1.558097345998970E1   1.772798696170804E2  
 7.570400000000000E9    -1.644531946687290E1   1.702903886095561E2  -4.997905122830274E1   8.363942628688115E1  -4.990704299696533E1   8.322789199580059E1  -1.557437184350957E1   1.773724488650456E2  
 7.571200000000000E9    -1.644248075108073E1   1.701155433432323E2  -5.118602350279533E1   7.699135837901729E1  -5.113735280865818E1   7.670182872730062E1  -1.553229302555062E1   1.772469094525070E2  
 7.572000000000000E9    -1.648371479892602E1   1.698446278074565E2  -5.314082630605660E1   6.968456885377610E1  -5.313139454721649E1   6.932801668788096E1  -1.550335093882064E1   1.772018455591297E2  
 7.572800000000000E9    -1.648394038119581E1   1.694801356220445E2  -5.604054814026186E1   6.257559913079390E1  -5.588808416369761E1   6.243335074261873E1  -1.550996245616922E1   1.768540163041467E2  
 7.573600000000000E9    -1.650358461149546E1   1.693738752066641E2  -6.148153259711120E1   5.535516730500853E1  -6.150267361856871E1   5.426635931337017E1  -1.551235448226378E1   1.765026911900896E2  
 7.574400000000000E9    -1.651504975620129E1   1.691532221869151E2  -9.037834174028903E1   1.614487789469091E2  -8.466227873053610E1   1.773143640117189E2  -1.555102217907427E1   1.761860379268282E2  
 7.575200000000000E9    -1.652798889618575E1   1.690961902941042E2  -5.960472071118406E1  -1.470610644262841E2  -5.966114103416242E1  -1.458289354412591E2  -1.558258144682306E1   1.758943161197464E2  
 7.576000000000000E9    -1.655266636184830E1   1.689526282117516E2  -5.350298099241674E1  -1.581210091014707E2  -5.344481493688377E1  -1.570733979077516E2  -1.566328424790929E1   1.756253960383079E2  
 7.576800000000000E9    -1.657496096817596E1   1.689344191279349E2  -4.977419786460102E1  -1.687049667734279E2  -4.981892964703209E1  -1.685881244298470E2  -1.572103620079539E1   1.754969480115321E2  
 7.577600000000000E9    -1.660093807158064E1   1.689056673933535E2  -4.734709665833098E1  -1.798073328578497E2  -4.737064393854303E1   1.797137980168942E2  -1.578497340012589E1   1.755622923846489E2  
